(1493216798.681638) can0 14C#F6A9202F41FA4D5A
(1493216798.705975) can0 6C7#01010401040000
(1493216798.706223) can0 1FD#0000000000000000
(1493216798.706597) can0 30B#0000000000000080
(1493216798.706720) can0 5F2#0000
(1493216798.706849) can0 643#000200
(1493216798.707098) can0 64E#0000000000000000
(1493216798.707473) can0 65E#0000000000000000
(1493216798.707726) can0 6B8#6D08000000000000
(1493216798.707971) can0 6BC#0000000000000000
(1493216798.755038) can0 30B#0000000000000080
(1493216798.765030) can0 1FD#0000000000000000
(1493216798.805029) can0 30B#0000000000000080
(1493216798.815026) can0 6B6#390C1C000B3B
(1493216798.815248) can0 6B7#BEB4300B080080FE
(1493216798.825024) can0 1FD#0000000000000000
(1493216798.855028) can0 30B#0000000000000080
(1493216798.881905) can0 6DF#54295004A663B7
(1493216798.885029) can0 1FD#0000000000000000
(1493216798.898275) can0 1BFC38B1#0000000000000000
(1493216798.898673) can0 1BFC38BB#FFFFFFFFFFFFFFFF
(1493216798.898859) can0 1BFC38BA#535553500000001A
(1493216798.899169) can0 1BFC38B9#050296408005A3F4
(1493216798.899532) can0 1BFC38B8#0000000800000000
(1493216798.899872) can0 1BFC38B7#8001648425020219
(1493216798.900157) can0 1BFC38B6#000000E2000034A8
(1493216798.900501) can0 1BFC38B5#0502FF0002020000
(1493216798.900753) can0 1BFC38B4#FF00000000000000
(1493216798.901128) can0 1BFC38B3#800164843100BBAA
(1493216798.901385) can0 1BFC38B2#80016484838300E7
(1493216798.905034) can0 6C7#01010401040000
(1493216798.905260) can0 30B#0000000000000080
(1493216798.905506) can0 5F2#0100
(1493216798.945029) can0 1FD#0000000000000000
(1493216798.955025) can0 30B#0000000000000080
(1493216799.005154) can0 1FD#0000000000000000
(1493216799.005404) can0 30B#0000000000000080
(1493216799.055034) can0 30B#0000000000000080
(1493216799.065056) can0 1FD#0000000000000000
(1493216799.082030) can0 027#6E5AAE7FB4
(1493216799.105026) can0 6C7#01010401040000
(1493216799.105278) can0 30B#0000000000000080
(1493216799.105514) can0 5F2#0400
(1493216799.125027) can0 1FD#0000000000000000
(1493216799.147155) can0 1BFC38B1#0000000000000000
(1493216799.147526) can0 1BFC38BB#FFFFFFFFFFFFFFFF
(1493216799.147929) can0 1BFC38BA#535553500000001A
(1493216799.148148) can0 1BFC38B9#050296408005A3F4
(1493216799.148538) can0 1BFC38B8#0000000800000000
(1493216799.148722) can0 1BFC38B7#8001648425020219
(1493216799.149138) can0 1BFC38B6#000000E2000034A8
(1493216799.149381) can0 1BFC38B5#0502FF0002020000
(1493216799.149755) can0 1BFC38B4#FF00000000000000
(1493216799.150005) can0 1BFC38B3#800164843100BBAA
(1493216799.150378) can0 1BFC38B2#80016484838300E7
(1493216799.155133) can0 30B#0000000000000080
(1493216799.185029) can0 1FD#0000000000000000
(1493216799.205184) can0 30B#0000000000000080
(1493216799.205387) can0 65E#0000000000000000
(1493216799.245029) can0 1FD#0000000000000000
(1493216799.255028) can0 30B#0000010000000080
(1493216799.282335) can0 2E5#799C3C04
(1493216799.305026) can0 6C7#01010401040000
(1493216799.305237) can0 1FD#0000000000000000
(1493216799.305623) can0 30B#0000010000000080
(1493216799.305733) can0 5F2#0700
(1493216799.355031) can0 30B#0000010000000080
(1493216799.365186) can0 1FD#0000000000000000
(1493216799.398028) can0 1BFC38B1#0000000000000000
(1493216799.398265) can0 1BFC38BB#FFFFFFFFFFFFFFFF
(1493216799.398644) can0 1BFC38BA#535553500000001A
(1493216799.398904) can0 1BFC38B9#050296408005A3F4
(1493216799.399274) can0 1BFC38B8#0000000800000000
(1493216799.399652) can0 1BFC38B7#8001648425020219
(1493216799.399903) can0 1BFC38B6#000000E2000034A8
(1493216799.400277) can0 1BFC38B5#0502FF0002020000
(1493216799.400511) can0 1BFC38B4#FF00000000000000
(1493216799.400902) can0 1BFC38B3#800164843100BBAA
(1493216799.401152) can0 1BFC38B2#80016484838300E7
(1493216799.406279) can0 30B#0000010000000080
(1493216799.425154) can0 1FD#0000000000000000
(1493216799.455157) can0 30B#0000010000000080
(1493216799.482462) can0 52E#73E8F4247089D101
(1493216799.485027) can0 1FD#0000000000000000
(1493216799.505425) can0 6C7#01010401040000
(1493216799.505665) can0 30B#0000010000000080
(1493216799.505727) can0 5F2#0A00
(1493216799.545031) can0 1FD#0000000000000000
(1493216799.555528) can0 30B#0000010000000080
(1493216799.606152) can0 1FD#0000000000000000
(1493216799.606398) can0 30B#0000010000000080
(1493216799.647272) can0 1BFC38B1#0000000000000000
(1493216799.647690) can0 1BFC38BB#FFFFFFFFFFFFFFFF
(1493216799.647902) can0 1BFC38BA#535553500000001A
(1493216799.648140) can0 1BFC38B9#050296408005A3F4
(1493216799.648597) can0 1BFC38B8#0000000800000000
(1493216799.648728) can0 1BFC38B7#8001648425020219
(1493216799.649153) can0 1BFC38B6#0000000100000000
(1493216799.649405) can0 1BFC38B5#0502FF0002020000
(1493216799.649788) can0 1BFC38B4#FF00000000000000
(1493216799.650011) can0 1BFC38B3#800164843100BBAA
(1493216799.650385) can0 1BFC38B2#80016484838300E7
(1493216799.655008) can0 30B#0000010000000080
(1493216799.665192) can0 1FD#0000000000000000
(1493216799.682543) can0 600#819B4B36
(1493216799.706031) can0 6C7#04010401040000
(1493216799.706402) can0 30B#0000010000000080
(1493216799.706518) can0 5F2#0D00
(1493216799.706731) can0 643#000200
(1493216799.707028) can0 64E#0000000000000000
(1493216799.707278) can0 65E#88080E6246030600
(1493216799.707648) can0 6B8#6D08000000000000
(1493216799.707914) can0 6BC#0000000000000000
(1493216799.725293) can0 1FD#0000000000000000
(1493216799.755525) can0 30B#0000010000000080
(1493216799.785307) can0 1FD#0000000000000000
(1493216799.806554) can0 30B#0000010000000080
(1493216799.812026) can0 630#40000013
(1493216799.815154) can0 6B6#390C1C000C00
(1493216799.815390) can0 6B7#BEB4400B08FF80FE
(1493216799.815704) can0 630#03C203000F000403
(1493216799.815849) can0 631#04C2030013000301
(1493216799.816262) can0 62D#0482030012000300
(1493216799.816515) can0 62F#0442030011000400
(1493216799.845159) can0 1FD#0000000000000000
(1493216799.855654) can0 30B#0000010000000080
(1493216799.882825) can0 675#1CDF185548EBFE1B
(1493216799.898041) can0 1BFC38B1#0000000000000000
(1493216799.898398) can0 1BFC38BB#FFFFFFFFFFFFFFFF
(1493216799.898650) can0 1BFC38BA#535553500000001A
(1493216799.899001) can0 1BFC38B9#050296408005A3F4
(1493216799.899284) can0 1BFC38B8#0000000800000000
(1493216799.899666) can0 1BFC38B7#8001648425020219
(1493216799.899890) can0 1BFC38B6#0000000306004433
(1493216799.900298) can0 1BFC38B5#0502FF0002020000
(1493216799.900636) can0 1BFC38B4#FF00000000000000
(1493216799.900886) can0 1BFC38B3#8001648406004433
(1493216799.901167) can0 1BFC38B2#8001648483830017
(1493216799.905058) can0 6C7#04010401040000
(1493216799.905269) can0 1FD#0000000000000000
(1493216799.905666) can0 30B#0000010000000080
(1493216799.905756) can0 5F2#0F00
(1493216799.955567) can0 30B#0000010000000080
(1493216799.965168) can0 1FD#0000000000000000
(1493216800.006105) can0 30B#0000010000000080
(1493216800.025282) can0 1FD#0000000000000000
(1493216800.055660) can0 30B#0000010000000080
(1493216800.082884) can0 232#8A55656E7EFBDA4D
(1493216800.085058) can0 1FD#0000000000000000
(1493216800.106188) can0 6C7#04010401040000
(1493216800.106381) can0 30B#0000010000000080
(1493216800.106691) can0 5F2#1200
(1493216800.145147) can0 1FD#0000000000000000
(1493216800.147259) can0 1BFC38B1#0000000000000000
(1493216800.147636) can0 1BFC38BB#FFFFFFFFFFFFFFFF
(1493216800.147902) can0 1BFC38BA#535553500000001A
(1493216800.148104) can0 1BFC38B9#050296408005A3F4
(1493216800.148478) can0 1BFC38B8#0000000800000000
(1493216800.148856) can0 1BFC38B7#8001648425020219
(1493216800.149100) can0 1BFC38B6#00000006000034A8
(1493216800.149501) can0 1BFC38B5#0502FF0002020000
(1493216800.149755) can0 1BFC38B4#FF00000000000000
(1493216800.150132) can0 1BFC38B3#8001648406004433
(1493216800.150353) can0 1BFC38B2#8001648483830017
(1493216800.154980) can0 30B#0000010000000080
(1493216800.206162) can0 1FD#0000000000000000
(1493216800.206531) can0 30B#0000010000000080
(1493216800.206775) can0 65E#8808327432560500
(1493216800.255482) can0 30B#0000010000000080
(1493216800.265284) can0 1FD#0000000000000000
(1493216800.283034) can0 326#
(1493216800.306186) can0 6C7#04010401040000
(1493216800.306404) can0 30B#0000010000000080
(1493216800.306667) can0 5F2#1400
(1493216800.325190) can0 1FD#0000000000000000
(1493216800.355452) can0 30B#0000010000000080
(1493216800.385034) can0 1FD#0000000000000000
(1493216800.398033) can0 1BFC38B1#0000000000000000
(1493216800.398406) can0 1BFC38BB#FFFFFFFFFFFFFFFF
(1493216800.398670) can0 1BFC38BA#535553500000001A
(1493216800.399024) can0 1BFC38B9#050296408005A3F4
(1493216800.399247) can0 1BFC38B8#0000000800000000
(1493216800.399616) can0 1BFC38B7#800164842502022E
(1493216800.399920) can0 1BFC38B6#000000082502022E
(1493216800.400286) can0 1BFC38B5#0502FF0002020000
(1493216800.400624) can0 1BFC38B4#FF00000000000000
(1493216800.400877) can0 1BFC38B3#8001648406004433
(1493216800.401260) can0 1BFC38B2#8001648483830017
(1493216800.405169) can0 30B#0000010000000080
(1493216800.415531) can0 62F#4451000C01
(1493216800.445284) can0 1FD#0000000000000000
(1493216800.455560) can0 30B#0000010000000080
(1493216800.483295) can0 297#AC459B
(1493216800.506152) can0 6C7#04010401040000
(1493216800.506409) can0 1FD#0000000000000000
(1493216800.506631) can0 30B#0000010000000080
(1493216800.506906) can0 5F2#1600
(1493216800.555539) can0 30B#0000010000000080
(1493216800.565414) can0 1FD#0000000000000000
(1493216800.606160) can0 30B#0000010000000080
(1493216800.625158) can0 1FD#0000000000000000
(1493216800.647281) can0 1BFC38B1#0000000000000000
(1493216800.647654) can0 1BFC38BB#FFFFFFFFFFFFFFFF
(1493216800.647906) can0 1BFC38BA#0000000700000014
(1493216800.648312) can0 1BFC38B9#000096408008FC68
(1493216800.648628) can0 1BFC38B8#0000000800000000
(1493216800.648882) can0 1BFC38B7#800164842502022E
(1493216800.649160) can0 1BFC38B6#0000000B00000000
(1493216800.649502) can0 1BFC38B5#0502FF0002020000
(1493216800.649751) can0 1BFC38B4#FF00000000000000
(1493216800.650180) can0 1BFC38B3#8001648406004433
(1493216800.650407) can0 1BFC38B2#8001648483830017
(1493216800.655174) can0 30B#0000010000000080
(1493216800.683414) can0 498#7245270E7E1F5D71
(1493216800.685157) can0 1FD#0000000000000000
(1493216800.706195) can0 6C7#04010401040000
(1493216800.706400) can0 30B#0000010000000080
(1493216800.706700) can0 5F2#1800
(1493216800.706794) can0 643#000200
(1493216800.707027) can0 64E#0000000000000000
(1493216800.707279) can0 65E#880854B5602A0700
(1493216800.707668) can0 6B8#6D08000000000000
(1493216800.707893) can0 6BC#AA838B51324C0700
(1493216800.745281) can0 1FD#0000000000000000
(1493216800.755532) can0 30B#0000010000000080
(1493216800.806307) can0 1FD#0000000000000000
(1493216800.806553) can0 30B#0000010000000080
(1493216800.815066) can0 6B6#390C1C000C01
(1493216800.815402) can0 6B7#BEB4400B08FF80FE
(1493216800.855535) can0 30B#0000010000000080
(1493216800.865411) can0 1FD#0000000000000000
(1493216800.883683) can0 31E#BC7C894D4CB87374
(1493216800.898044) can0 1BFC38B1#0000000000000000
(1493216800.898415) can0 1BFC38BB#FFFFFFFFFFFFFFFF
(1493216800.898858) can0 1BFC38BA#0000000700000014
(1493216800.899030) can0 1BFC38B9#000096408008FC68
(1493216800.899413) can0 1BFC38B8#0000000800000000
(1493216800.899668) can0 1BFC38B7#800164842502022E
(1493216800.900044) can0 1BFC38B6#0000000D0600AA99
(1493216800.900285) can0 1BFC38B5#0502FF0002020000
(1493216800.900667) can0 1BFC38B4#FF00000000000000
(1493216800.901043) can0 1BFC38B3#800164840600AA99
(1493216800.901285) can0 1BFC38B2#8001648483830075
(1493216800.905041) can0 6C7#04010401040000
(1493216800.905286) can0 30B#0000010000000080
(1493216800.905544) can0 5F2#1900
(1493216800.925283) can0 1FD#0000000000000000
(1493216800.955536) can0 30B#0000010000000080
(1493216800.985159) can0 1FD#0000000000000000
(1493216801.006161) can0 30B#0000010000000080
(1493216801.045310) can0 1FD#0000000000000000
(1493216801.055563) can0 30B#0000010000000080
(1493216801.083783) can0 137#BC41457637EF960E
(1493216801.106202) can0 6C7#04010401040000
(1493216801.106409) can0 1FD#0000000000000000
(1493216801.106794) can0 30B#0000010000000080
(1493216801.106930) can0 5F2#1A00
(1493216801.147284) can0 1BFC38B1#0000000000000000
(1493216801.147656) can0 1BFC38BB#FFFFFFFFFFFFFFFF
(1493216801.147907) can0 1BFC38BA#0000000700000014
(1493216801.148305) can0 1BFC38B9#000096408008FC68
(1493216801.148667) can0 1BFC38B8#0000000800000000
(1493216801.148920) can0 1BFC38B7#800164842502022E
(1493216801.149128) can0 1BFC38B6#0000001001020000
(1493216801.149538) can0 1BFC38B5#0502FF0001020000
(1493216801.149922) can0 1BFC38B4#FF00000000000000
(1493216801.150144) can0 1BFC38B3#800164840600AA99
(1493216801.150539) can0 1BFC38B2#8001648483830075
(1493216801.155137) can0 30B#0000010000000080
(1493216801.165323) can0 1FD#0000000000000000
(1493216801.206310) can0 30B#0000010000000080
(1493216801.206524) can0 65E#88080C1543300400
(1493216801.225298) can0 1FD#0000000000000000
(1493216801.255531) can0 30B#0000010000000080
(1493216801.283909) can0 433#5D02A23BA8028021
(1493216801.285154) can0 1FD#0000000000000000
(1493216801.306190) can0 6C7#04010401040000
(1493216801.306549) can0 30B#0000010000000080
(1493216801.306663) can0 5F2#1B00
(1493216801.345281) can0 1FD#0000000000000000
(1493216801.355533) can0 30B#0000010000000080
(1493216801.398160) can0 1BFC38B1#0000000000000000
(1493216801.398397) can0 1BFC38BB#FFFFFFFFFFFFFFFF
(1493216801.398788) can0 1BFC38BA#0000000700000014
(1493216801.399040) can0 1BFC38B9#000096408008FC68
(1493216801.399404) can0 1BFC38B8#0000000800000000
(1493216801.399635) can0 1BFC38B7#800164842502026A
(1493216801.400047) can0 1BFC38B6#000000122502026A
(1493216801.400272) can0 1BFC38B5#0502FF0001020000
(1493216801.400666) can0 1BFC38B4#FF00000000000000
(1493216801.401021) can0 1BFC38B3#800164840600AA99
(1493216801.401261) can0 1BFC38B2#8001648483830075
(1493216801.405175) can0 1FD#0000000000000000
(1493216801.405554) can0 30B#0000010000000080
(1493216801.415692) can0 62F#4451000C02
(1493216801.455559) can0 30B#0000010000000080
(1493216801.465189) can0 1FD#0000000000000000
(1493216801.484191) can0 01D#F1ED7E3D4F3A731C
(1493216801.506153) can0 6C7#04010401040000
(1493216801.506532) can0 30B#0000010000000080
(1493216801.506643) can0 5F2#1B00
(1493216801.525286) can0 1FD#0000000000000000
(1493216801.555538) can0 30B#0000010000000080
(1493216801.585160) can0 1FD#0000000000000000
(1493216801.606288) can0 30B#0000010000000080
(1493216801.645281) can0 1FD#0000000000000000
(1493216801.647288) can0 1BFC38B1#0000000000000000
(1493216801.647659) can0 1BFC38BB#FFFFFFFFFFFFFFFF
(1493216801.647889) can0 1BFC38BA#535553500000001A
(1493216801.648306) can0 1BFC38B9#010296408005A3F4
(1493216801.648660) can0 1BFC38B8#0000000800000000
(1493216801.648908) can0 1BFC38B7#800164842502026A
(1493216801.649282) can0 1BFC38B6#0000001500000000
(1493216801.649531) can0 1BFC38B5#0502FF0001020000
(1493216801.649910) can0 1BFC38B4#FF00000000000000
(1493216801.650125) can0 1BFC38B3#800164840600AA99
(1493216801.650513) can0 1BFC38B2#8001648483830075
(1493216801.655138) can0 30B#0000010000000080
(1493216801.684297) can0 012#CD354E6A385BEA3C
(1493216801.706191) can0 6C7#04010401040000
(1493216801.706409) can0 1FD#0000000000000000
(1493216801.706821) can0 30B#0000010000000080
(1493216801.706918) can0 5F2#1C00
(1493216801.707146) can0 643#000200
(1493216801.707420) can0 64E#0000000000000000
(1493216801.707648) can0 65E#8808C46649310B00
(1493216801.708019) can0 6B8#6D08000000000000
(1493216801.708293) can0 6BC#AA838B51324C0700
(1493216801.755535) can0 30B#0000010000000080
(1493216801.765403) can0 1FD#0000000000000000
(1493216801.806661) can0 30B#0000010000000080
(1493216801.807029) can0 630#33C203000F000403
(1493216801.807406) can0 62D#3482030012000300
(1493216801.807643) can0 631#34C2030013000301
(1493216801.815158) can0 6B6#390C1C000C02
(1493216801.815388) can0 6B7#BEB4400B08FF80FE
(1493216801.825412) can0 1FD#0000000000000000
(1493216801.855537) can0 30B#0000010000000080
(1493216801.884408) can0 2FB#3E3DCE2A937D1005
(1493216801.885279) can0 1FD#0000000000000000
(1493216801.898162) can0 1BFC38B1#0000000000000000
(1493216801.898533) can0 1BFC38BB#FFFFFFFFFFFFFFFF
(1493216801.898762) can0 1BFC38BA#535553500000001A
(1493216801.899117) can0 1BFC38B9#010296408005A3F4
(1493216801.899484) can0 1BFC38B8#0000000800000000
(1493216801.899747) can0 1BFC38B7#800164842502026A
(1493216801.900123) can0 1BFC38B6#0000001704003322
(1493216801.900431) can0 1BFC38B5#0502FF0001020000
(1493216801.900749) can0 1BFC38B4#FF00000000000000
(1493216801.901009) can0 1BFC38B3#8001648404003322
(1493216801.901419) can0 1BFC38B2#80016484838380E2
(1493216801.905204) can0 6C7#04010401040000
(1493216801.905578) can0 30B#0000010000000080
(1493216801.905682) can0 5F2#1D00
(1493216801.945447) can0 1FD#0000000000000000
(1493216801.955687) can0 30B#0000010000000080
(1493216802.006435) can0 1FD#0000000000000000
(1493216802.006669) can0 30B#0000010000000080
(1493216802.055535) can0 30B#0000010000000080
(1493216802.065172) can0 1FD#0000000000000000
(1493216802.084663) can0 2A0#51D0F06139F75D58
(1493216802.106282) can0 6C7#04010401040000
(1493216802.106668) can0 30B#0000010000000080
(1493216802.106793) can0 5F2#1E00
(1493216802.125415) can0 1FD#0000000000000000
(1493216802.147442) can0 1BFC38B1#0000000000000000
(1493216802.147660) can0 1BFC38BB#FFFFFFFFFFFFFFFF
(1493216802.148040) can0 1BFC38BA#535553500000001A
(1493216802.148293) can0 1BFC38B9#010296408005A3F4
(1493216802.148688) can0 1BFC38B8#0000000800000000
(1493216802.148924) can0 1BFC38B7#800164842502026A
(1493216802.149292) can0 1BFC38B6#0000001A000034A8
(1493216802.149639) can0 1BFC38B5#0502FF0001020000
(1493216802.149896) can0 1BFC38B4#FF00000000000000
(1493216802.150263) can0 1BFC38B3#8001648404003322
(1493216802.150526) can0 1BFC38B2#80016484838380E2
(1493216802.155189) can0 30B#0000010000000080
(1493216802.185159) can0 1FD#0000000000000000
(1493216802.206444) can0 30B#0000010000000080
(1493216802.206660) can0 65E#88085854976B0400
(1493216802.245420) can0 1FD#0000000000000000
(1493216802.255661) can0 30B#0000010000000080
(1493216802.284832) can0 304#B716BB49
(1493216802.306675) can0 6C7#04010401040000
(1493216802.307055) can0 1FD#0000000000000000
(1493216802.307284) can0 30B#0000010000000080
(1493216802.307372) can0 5F2#1F00
(1493216802.355647) can0 30B#0000010000000080
(1493216802.365239) can0 1FD#0000000000000000
(1493216802.398293) can0 1BFC38B1#0000000000000000
(1493216802.398672) can0 1BFC38BB#FFFFFFFFFFFFFFFF
(1493216802.398914) can0 1BFC38BA#535553500000001A
(1493216802.399171) can0 1BFC38B9#010296408005A3F4
(1493216802.399545) can0 1BFC38B8#0000000800000000
(1493216802.399918) can0 1BFC38B7#80016484250202A6
(1493216802.400155) can0 1BFC38B6#0000001C250202A6
(1493216802.400559) can0 1BFC38B5#0502FF0001020000
(1493216802.400789) can0 1BFC38B4#FF00000000000000
(1493216802.401173) can0 1BFC38B3#8001648404003322
(1493216802.401379) can0 1BFC38B2#80016484838380E2
(1493216802.405316) can0 30B#0000010000000080
(1493216802.415780) can0 62F#4451000C03
(1493216802.425409) can0 1FD#0000000000000000
(1493216802.455660) can0 30B#0000010000000080
(1493216802.484911) can0 7B0#6ED61D
(1493216802.485163) can0 1FD#0000000000000000
(1493216802.506547) can0 6C7#04010401040000
(1493216802.506737) can0 30B#0000010000000080
(1493216802.506885) can0 5F2#2000
(1493216802.545435) can0 1FD#0000000000000000
(1493216802.555287) can0 30B#0000010000000080
(1493216802.606666) can0 1FD#0000000000000000
(1493216802.606898) can0 30B#0000010000000080
(1493216802.647415) can0 1BFC38B1#0000000000000000
(1493216802.647802) can0 1BFC38BB#FFFFFFFFFFFFFFFF
(1493216802.647991) can0 1BFC38BA#0000000700000014
(1493216802.648436) can0 1BFC38B9#020096408008FC68
(1493216802.648660) can0 1BFC38B8#0000000800000000
(1493216802.649034) can0 1BFC38B7#80016484250202A6
(1493216802.649266) can0 1BFC38B6#0000001F00000000
(1493216802.649649) can0 1BFC38B5#0502FF0001020000
(1493216802.650026) can0 1BFC38B4#FF00000000000000
(1493216802.650281) can0 1BFC38B3#8001648404003322
(1493216802.650657) can0 1BFC38B2#80016484838380E2
(1493216802.655297) can0 30B#0000010000000080
(1493216802.665300) can0 1FD#0000000000000000
(1493216802.685095) can0 0A2#1EA8BB7BD5F42C1C
(1493216802.706539) can0 6C7#04010401040000
(1493216802.706794) can0 30B#0000010000000080
(1493216802.706862) can0 5F2#2000
(1493216802.707165) can0 643#000200
(1493216802.707416) can0 64E#0000000000000000
(1493216802.707658) can0 65E#8808AE852F2A0700
(1493216802.708060) can0 6B8#6D08000000000000
(1493216802.708298) can0 6BC#AA838B51324C0700
(1493216802.725426) can0 1FD#0000000000000000
(1493216802.755293) can0 30B#0000010000000080
(1493216802.785170) can0 1FD#0000000000000000
(1493216802.806786) can0 30B#0000010000000080
(1493216802.815210) can0 6B6#390C1C000C03
(1493216802.815563) can0 6B7#BEB4400B08FF80FE
(1493216802.845412) can0 1FD#0000000000000000
(1493216802.855323) can0 30B#0000010000000080
(1493216802.885172) can0 569#7EF7AC3D86FD3F32
(1493216802.898569) can0 1BFC38B1#0000000000000000
(1493216802.898738) can0 1BFC38BB#FFFFFFFFFFFFFFFF
(1493216802.899173) can0 1BFC38BA#0000000700000014
(1493216802.899384) can0 1BFC38B9#020096408008FC68
(1493216802.899794) can0 1BFC38B8#0000000800000000
(1493216802.899991) can0 1BFC38B7#80016484250202A6
(1493216802.900426) can0 1BFC38B6#000000210600CCBB
(1493216802.900789) can0 1BFC38B5#0502FF0001020000
(1493216802.900999) can0 1BFC38B4#FF00000000000000
(1493216802.901424) can0 1BFC38B3#800164840600CCBB
(1493216802.901660) can0 1BFC38B2#800164848383803B
(1493216802.905569) can0 1FD#0000000000000000
(1493216802.905777) can0 30B#0000010000000080
(1493216802.906078) can0 5F2#2100
(1493216802.955290) can0 30B#0000010000000080
(1493216802.965298) can0 1FD#0000000000000000
(1493216803.006670) can0 30B#0000010000000080
(1493216803.025442) can0 1FD#0000000000000000
(1493216803.055317) can0 30B#0000010000000080
(1493216803.085208) can0 1FD#0000000000000000
(1493216803.085379) can0 3F6#D637B34E08A4890C
(1493216803.106665) can0 30B#0000010000000080
(1493216803.106897) can0 5F2#2200
(1493216803.145401) can0 1FD#0000000000000000
(1493216803.147435) can0 1BFC38B1#0000000000000000
(1493216803.147768) can0 1BFC38BB#FFFFFFFFFFFFFFFF
(1493216803.148175) can0 1BFC38BA#0000000700000014
(1493216803.148414) can0 1BFC38B9#020096408008FC68
(1493216803.148816) can0 1BFC38B8#0000000800000000
(1493216803.149076) can0 1BFC38B7#80016484250202A6
(1493216803.149410) can0 1BFC38B6#0000002401020000
(1493216803.149663) can0 1BFC38B5#0502FF0001020000
(1493216803.150046) can0 1BFC38B4#FF00000000000000
(1493216803.150285) can0 1BFC38B3#800164840600CCBB
(1493216803.150644) can0 1BFC38B2#800164848383803B
(1493216803.155320) can0 30B#0000010000000080
(1493216803.206706) can0 1FD#0000000000000000
(1493216803.206886) can0 30B#0000010000000080
(1493216803.207147) can0 65E#880868C38F8F0700
(1493216803.255294) can0 30B#0000010000000080
(1493216803.265287) can0 1FD#0000000000000000
(1493216803.285678) can0 0EA#41FF73
(1493216803.306663) can0 30B#0000010000000080
(1493216803.306778) can0 5F2#2200
(1493216803.325416) can0 1FD#0000000000000000
(1493216803.355285) can0 30B#0000010000000080
(1493216803.385283) can0 1FD#0000000000000000
(1493216803.398416) can0 1BFC38B1#0000000000000000
(1493216803.398788) can0 1BFC38BB#FFFFFFFFFFFFFFFF
(1493216803.399027) can0 1BFC38BA#0000000700000014
(1493216803.399412) can0 1BFC38B9#020096408008FC68
(1493216803.399662) can0 1BFC38B8#0000000800000000
(1493216803.400039) can0 1BFC38B7#80016484250202E2
(1493216803.400293) can0 1BFC38B6#00000026250202E2
(1493216803.400692) can0 1BFC38B5#0502FF0001020000
(1493216803.400953) can0 1BFC38B4#FF00000000000000
(1493216803.401300) can0 1BFC38B3#800164840600CCBB
(1493216803.401645) can0 1BFC38B2#800164848383803B
(1493216803.405408) can0 30B#0000010000000080
(1493216803.415642) can0 62F#4451000C04
(1493216803.445412) can0 1FD#0000000000000000
(1493216803.455296) can0 30B#0000010000000080
(1493216803.485770) can0 130#78E98A75D1E3680A
(1493216803.506706) can0 1FD#0000000000000000
(1493216803.506917) can0 30B#0000010000000080
(1493216803.507158) can0 5F2#2300
(1493216803.555300) can0 30B#0000010000000080
(1493216803.565318) can0 1FD#0000000000000000
(1493216803.606663) can0 30B#0000010000000080
(1493216803.625421) can0 1FD#0000000000000000
(1493216803.647538) can0 1BFC38B1#0000000000000000
(1493216803.647764) can0 1BFC38BB#FFFFFFFFFFFFFFFF
(1493216803.648163) can0 1BFC38BA#535553500000001A
(1493216803.648403) can0 1BFC38B9#030296408005A3F4
(1493216803.648815) can0 1BFC38B8#0000000800000000
(1493216803.649040) can0 1BFC38B7#80016484250202E2
(1493216803.649412) can0 1BFC38B6#0000002900000000
(1493216803.649662) can0 1BFC38B5#0502FF0001020000
(1493216803.650037) can0 1BFC38B4#FF00000000000000
(1493216803.650441) can0 1BFC38B3#800164840600CCBB
(1493216803.650660) can0 1BFC38B2#800164848383803B
(1493216803.655300) can0 30B#0000010000000080
(1493216803.685291) can0 1FD#0000000000000000
(1493216803.685912) can0 769#0ADBC6626DE25E26
(1493216803.886006) can0 78E#8F
(1493216804.086172) can0 534#25803437D67D894D
(1493216804.286434) can0 728#AB72B6
(1493216804.486688) can0 2BF#18E2BD51B55E6632
(1493216804.556192) can0 6C7#01010408040000
(1493216804.556530) can0 1FD#0000000000000000
(1493216804.556751) can0 30B#0000000000000080
(1493216804.556904) can0 5F2#0000
(1493216804.557178) can0 643#000200
(1493216804.557415) can0 64E#0000000000000000
(1493216804.557666) can0 65E#0000000000000000
(1493216804.558032) can0 6B8#6D08000000000000
(1493216804.558276) can0 6BC#0000000000000000
(1493216804.606541) can0 30B#0000000000000080
(1493216804.612294) can0 630#40000013
(1493216804.615443) can0 1FD#0000000000000000
(1493216804.615638) can0 6B7#BEB4500B080080FE
(1493216804.615948) can0 630#03C203000F000403
(1493216804.616178) can0 62D#0482030012000300
(1493216804.616538) can0 62F#0442030011000400
(1493216804.616833) can0 631#04C2030013000301
(1493216804.655693) can0 30B#0000000000000080
(1493216804.675288) can0 1FD#0000000000000000
(1493216804.686643) can0 798#BE02F03E82789F49
(1493216804.706430) can0 30B#0000000000000080
(1493216804.735295) can0 1FD#0000000000000000
(1493216804.747579) can0 1BFC38B1#0000000000000000
(1493216804.747792) can0 1BFC38BB#FFFFFFFFFFFFFFFF
(1493216804.748167) can0 1BFC38BA#0000000700000014
(1493216804.748397) can0 1BFC38B9#040096408008FC68
(1493216804.748817) can0 1BFC38B8#0000000800000000
(1493216804.749035) can0 1BFC38B7#800164842502021E
(1493216804.749411) can0 1BFC38B6#00000034838380D2
(1493216804.749664) can0 1BFC38B5#0502FF0001020000
(1493216804.750039) can0 1BFC38B4#FF00000000000000
(1493216804.750289) can0 1BFC38B3#8001648404003322
(1493216804.750677) can0 1BFC38B2#80016484838380D2
(1493216804.755273) can0 6C7#01010408040000
(1493216804.755558) can0 30B#0000010000000080
(1493216804.755643) can0 5F2#2700
(1493216804.795416) can0 1FD#0000000000000000
(1493216804.806916) can0 30B#0000010000000080
(1493216804.855668) can0 1FD#0000000000000000
(1493216804.856060) can0 30B#0000010000000080
(1493216804.886961) can0 791#68E4193AC220EB24
(1493216804.906409) can0 30B#0000010000000080
(1493216804.915278) can0 1FD#0000000000000000
(1493216804.955681) can0 6C7#01010408040000
(1493216804.955901) can0 30B#0000010000000080
(1493216804.956024) can0 5F2#2700
(1493216804.975294) can0 1FD#0000000000000000
(1493216804.998296) can0 1BFC38B1#0000000000000000
(1493216804.998657) can0 1BFC38BB#FFFFFFFFFFFFFFFF
(1493216804.998873) can0 1BFC38BA#0000000700000014
(1493216804.999247) can0 1BFC38B9#040096408008FC68
(1493216804.999693) can0 1BFC38B8#0000000800000000
(1493216804.999933) can0 1BFC38B7#800164842502021E
(1493216805.000183) can0 1BFC38B6#0000003600000000
(1493216805.000561) can0 1BFC38B5#0502FF0001020000
(1493216805.000928) can0 1BFC38B4#FF00000000000000
(1493216805.001146) can0 1BFC38B3#8001648432408877
(1493216805.001519) can0 1BFC38B2#80016484838380D2
(1493216805.005309) can0 30B#0000010000000080
(1493216805.035298) can0 1FD#0000000000000000
(1493216805.055698) can0 30B#0000010000000080
(1493216805.056043) can0 65E#880824125F0B0400
(1493216805.087044) can0 67E#
(1493216805.095427) can0 1FD#0000000000000000
(1493216805.106699) can0 30B#0000010000000080
(1493216805.155693) can0 6C7#01010408040000
(1493216805.155871) can0 1FD#0000000000000000
(1493216805.156369) can0 30B#0000010000000080
(1493216805.156543) can0 5F2#2800
(1493216805.206549) can0 30B#0000010000000080
(1493216805.215956) can0 1FD#0000000000000000
(1493216805.247543) can0 1BFC38B1#0000000000000000
(1493216805.247783) can0 1BFC38BB#FFFFFFFFFFFFFFFF
(1493216805.248176) can0 1BFC38BA#0000000700000014
(1493216805.248414) can0 1BFC38B9#040096408008FC68
(1493216805.248801) can0 1BFC38B8#0000000800000000
(1493216805.249178) can0 1BFC38B7#800164842502025A
(1493216805.249441) can0 1BFC38B6#0000003901020000
(1493216805.249778) can0 1BFC38B5#0502FF0001020000
(1493216805.250044) can0 1BFC38B4#FF00000000000000
(1493216805.250425) can0 1BFC38B3#8001648432408877
(1493216805.250666) can0 1BFC38B2#80016484838380D2
(1493216805.255313) can0 30B#0000010000000080
(1493216805.275328) can0 1FD#0000000000000000
(1493216805.287149) can0 7AA#54E0B00B3857B44E
(1493216805.306443) can0 30B#0000010000000080
(1493216805.335303) can0 1FD#0000000000000000
(1493216805.355669) can0 6C7#01010408040000
(1493216805.355911) can0 30B#0000010000000080
(1493216805.356158) can0 5F2#2800
(1493216805.395324) can0 1FD#0000000000000000
(1493216805.406568) can0 30B#0000010000000080
(1493216805.415295) can0 6B6#390C1C000C06
(1493216805.416058) can0 62F#4451000C06
(1493216805.455791) can0 1FD#0000000000000000
(1493216805.456032) can0 30B#0000010000000080
(1493216805.487431) can0 15E#761EC4
(1493216805.498325) can0 1BFC38B1#0000000000000000
(1493216805.498707) can0 1BFC38BB#FFFFFFFFFFFFFFFF
(1493216805.498892) can0 1BFC38BA#0000000700000014
(1493216805.499296) can0 1BFC38B9#050296408005A3F4
(1493216805.499668) can0 1BFC38B8#0000000800000000
(1493216805.499917) can0 1BFC38B7#800164842502025A
(1493216805.500294) can0 1BFC38B6#0000003B00000000
(1493216805.500668) can0 1BFC38B5#0502FF0001020000
(1493216805.500918) can0 1BFC38B4#FF00000000000000
(1493216805.501163) can0 1BFC38B3#8001648432408877
(1493216805.501525) can0 1BFC38B2#80016484838380D2
(1493216805.505398) can0 30B#0000010000000080
(1493216805.515452) can0 1FD#0000000000000000
(1493216805.555673) can0 6C7#04010408040000
(1493216805.555906) can0 30B#0000010000000080
(1493216805.556153) can0 5F2#2900
(1493216805.556264) can0 643#000200
(1493216805.556693) can0 64E#0000000000000000
(1493216805.556919) can0 65E#8808876749C70600
(1493216805.557167) can0 6B8#6D08000000000000
(1493216805.557418) can0 6BC#AA838B51324C0700
(1493216805.575419) can0 1FD#0000000000000000
(1493216805.606541) can0 30B#0000010000000080
(1493216805.615420) can0 6B7#BEB4500B08FF80FE
(1493216805.635417) can0 1FD#0000000000000000
(1493216805.655792) can0 30B#0000010000000080
(1493216805.687556) can0 7E0#68D4EC4F09A76A16
(1493216805.695428) can0 1FD#0000000000000000
(1493216805.706553) can0 30B#0000010000000080
(1493216805.747546) can0 1BFC38B1#0000000000000000
(1493216805.747936) can0 1BFC38BB#FFFFFFFFFFFFFFFF
(1493216805.748141) can0 1BFC38BA#535553500000001A
(1493216805.748551) can0 1BFC38B9#050296408005A3F4
(1493216805.748806) can0 1BFC38B8#0000000800000000
(1493216805.749164) can0 1BFC38B7#800164842502025A
(1493216805.749408) can0 1BFC38B6#0000003E83838078
(1493216805.749813) can0 1BFC38B5#0502FF0001020000
(1493216805.750064) can0 1BFC38B4#FF00000000000000
(1493216805.750442) can0 1BFC38B3#8001648432408877
(1493216805.750679) can0 1BFC38B2#8001648483838078
(1493216805.755324) can0 6C7#04010408040000
(1493216805.755697) can0 1FD#0000000000000000
(1493216805.755959) can0 30B#0000010000000080
(1493216805.756067) can0 5F2#2900
(1493216805.806549) can0 30B#0000010000000080
(1493216805.815421) can0 1FD#0000000000000000
(1493216805.855791) can0 30B#0000010000000080
(1493216805.875415) can0 1FD#0000000000000000
(1493216805.887647) can0 6DF#9A8BE8
(1493216805.906589) can0 30B#0000010000000080
(1493216805.935432) can0 1FD#0000000000000000
(1493216805.955672) can0 6C7#04010408040000
(1493216805.955922) can0 30B#0000010000000080
(1493216805.956169) can0 5F2#2A00
(1493216805.995418) can0 1FD#0000000000000000
(1493216805.998411) can0 1BFC38B1#0000000000000000
(1493216805.998766) can0 1BFC38BB#FFFFFFFFFFFFFFFF
(1493216805.999015) can0 1BFC38BA#535553500000001A
(1493216805.999388) can0 1BFC38B9#050296408005A3F4
(1493216805.999635) can0 1BFC38B8#0000000800000000
(1493216806.000044) can0 1BFC38B7#800164842502025A
(1493216806.000282) can0 1BFC38B6#0000004000000000
(1493216806.000654) can0 1BFC38B5#0502FF0001020000
(1493216806.001056) can0 1BFC38B4#FF00000000000000
(1493216806.001293) can0 1BFC38B3#800164843100DDCC
(1493216806.001689) can0 1BFC38B2#8001648483838078
(1493216806.005452) can0 30B#0000010000000080
(1493216806.055803) can0 1FD#0000000000000000
(1493216806.056028) can0 30B#0000010000000080
(1493216806.056294) can0 65E#88083DA57BC50500
(1493216806.087795) can0 13D#54F8
(1493216806.106573) can0 30B#0000010000000080
(1493216806.115417) can0 1FD#0000000000000000
(1493216806.155652) can0 6C7#04010408040000
(1493216806.155992) can0 30B#0000010000000080
(1493216806.156121) can0 5F2#2A00
(1493216806.175418) can0 1FD#0000000000000000
(1493216806.206546) can0 30B#0000010000000080
(1493216806.235431) can0 1FD#0000000000000000
(1493216806.247674) can0 1BFC38B1#0000000000000000
(1493216806.247909) can0 1BFC38BB#FFFFFFFFFFFFFFFF
(1493216806.248152) can0 1BFC38BA#535553500000001A
(1493216806.248544) can0 1BFC38B9#050296408005A3F4
(1493216806.248794) can0 1BFC38B8#0000000800000000
(1493216806.249120) can0 1BFC38B7#8001648425020296
(1493216806.249417) can0 1BFC38B6#00000043000034A8
(1493216806.249770) can0 1BFC38B5#0502FF0001020000
(1493216806.250148) can0 1BFC38B4#FF00000000000000
(1493216806.250386) can0 1BFC38B3#800164843100DDCC
(1493216806.250769) can0 1BFC38B2#8001648483838078
(1493216806.255447) can0 30B#0000010000000080
(1493216806.288085) can0 7A0#5879
(1493216806.295338) can0 1FD#0000000000000000
(1493216806.306697) can0 30B#0000010000000080
(1493216806.355792) can0 6C7#04010408040000
(1493216806.356046) can0 1FD#0000000000000000
(1493216806.356284) can0 30B#0000010000000080
(1493216806.356532) can0 5F2#2A00
(1493216806.406546) can0 30B#0000010000000080
(1493216806.415419) can0 1FD#0000000000000000
(1493216806.415671) can0 6B6#390C1C000C07
(1493216806.416286) can0 62F#4451000C07
(1493216806.455796) can0 30B#0000010000000080
(1493216806.475421) can0 1FD#0000000000000000
(1493216806.488119) can0 511#
(1493216806.498400) can0 1BFC38B1#0000000000000000
(1493216806.498744) can0 1BFC38BB#FFFFFFFFFFFFFFFF
(1493216806.499070) can0 1BFC38BA#535553500000001A
(1493216806.499297) can0 1BFC38B9#060096408008FC68
(1493216806.499682) can0 1BFC38B8#0000000800000000
(1493216806.500072) can0 1BFC38B7#8001648425020296
(1493216806.500254) can0 1BFC38B6#0000004500000000
(1493216806.500681) can0 1BFC38B5#0502FF0001020000
(1493216806.500930) can0 1BFC38B4#FF00000000000000
(1493216806.501276) can0 1BFC38B3#800164843100DDCC
(1493216806.501638) can0 1BFC38B2#8001648483838078
(1493216806.505446) can0 30B#0000010000000080
(1493216806.535422) can0 1FD#0000000000000000
(1493216806.555673) can0 6C7#04010408040000
(1493216806.556053) can0 30B#0000010000000080
(1493216806.556159) can0 5F2#2B00
(1493216806.556417) can0 643#000200
(1493216806.556670) can0 64E#0000000000000000
(1493216806.556919) can0 65E#8808C215610E0700
(1493216806.557284) can0 6B8#6D08000000000000
(1493216806.557545) can0 6BC#AA838B51324C0700
(1493216806.595422) can0 1FD#0000000000000000
(1493216806.606675) can0 30B#0000010000000080
(1493216806.606903) can0 630#33C203000F000403
(1493216806.607171) can0 62D#3482030012000300
(1493216806.607563) can0 631#34C2030013000301
(1493216806.615399) can0 6B7#BEB4500B08FF80FE
(1493216806.655793) can0 1FD#0000000000000000
(1493216806.656034) can0 30B#0000010000000080
(1493216806.688314) can0 3A0#7639E9484BB314
(1493216806.706681) can0 30B#0000010000000080
(1493216806.715579) can0 1FD#0000000000000000
(1493216806.747670) can0 1BFC38B1#0000000000000000
(1493216806.747873) can0 1BFC38BB#FFFFFFFFFFFFFFFF
(1493216806.748276) can0 1BFC38BA#0000000700000014
(1493216806.748549) can0 1BFC38B9#060096408008FC68
(1493216806.748928) can0 1BFC38B8#0000000800000000
(1493216806.749177) can0 1BFC38B7#8001648425020296
(1493216806.749566) can0 1BFC38B6#00000048838300DD
(1493216806.749818) can0 1BFC38B5#0502FF0001020000
(1493216806.750200) can0 1BFC38B4#FF00000000000000
(1493216806.750458) can0 1BFC38B3#800164843100DDCC
(1493216806.750794) can0 1BFC38B2#80016484838300DD
(1493216806.755301) can0 6C7#04010408040000
(1493216806.755671) can0 30B#0000010000000080
(1493216806.755778) can0 5F2#2B00
(1493216806.775462) can0 1FD#0000000000000000
(1493216806.806547) can0 30B#0000010000000080
(1493216806.835426) can0 1FD#0000000000000000
(1493216806.855825) can0 30B#0000010000000080
(1493216806.888430) can0 424#830AC90C82E58026
(1493216806.895455) can0 1FD#0000000000000000
(1493216806.906722) can0 30B#0000010000000080
(1493216806.955812) can0 6C7#04010408040000
(1493216806.955999) can0 1FD#0000000000000000
(1493216806.956298) can0 30B#0000010000000080
(1493216806.956522) can0 5F2#2C00
(1493216806.998431) can0 1BFC38B1#0000000000000000
(1493216806.998810) can0 1BFC38BB#FFFFFFFFFFFFFFFF
(1493216806.999030) can0 1BFC38BA#0000000700000014
(1493216806.999407) can0 1BFC38B9#060096408008FC68
(1493216806.999661) can0 1BFC38B8#0000000800000000
(1493216807.000037) can0 1BFC38B7#8001648425020296
(1493216807.000280) can0 1BFC38B6#0000004A00000000
(1493216807.000661) can0 1BFC38B5#0502FF0001020000
(1493216807.001052) can0 1BFC38B4#FF00000000000000
(1493216807.001246) can0 1BFC38B3#800164843100FFEE
(1493216807.001639) can0 1BFC38B2#80016484838300DD
(1493216807.005521) can0 30B#0000010000000080
(1493216807.015414) can0 1FD#0000000000000000
(1493216807.055839) can0 30B#0000010000000080
(1493216807.056189) can0 65E#8808AE9679810700
(1493216807.075426) can0 1FD#0000000000000000
(1493216807.088542) can0 2AD#143CE4288DB23456
(1493216807.106692) can0 30B#0000010000000080
(1493216807.135463) can0 1FD#0000000000000000
(1493216807.155815) can0 6C7#04010408040000
(1493216807.156003) can0 30B#0000010000000080
(1493216807.156298) can0 5F2#2C00
(1493216807.195442) can0 1FD#0000000000000000
(1493216807.206714) can0 30B#0000010000000080
(1493216807.247684) can0 1BFC38B1#0000000000000000
(1493216807.247908) can0 1BFC38BB#FFFFFFFFFFFFFFFF
(1493216807.248300) can0 1BFC38BA#0000000700000014
(1493216807.248669) can0 1BFC38B9#060096408008FC68
(1493216807.248931) can0 1BFC38B8#0000000800000000
(1493216807.249309) can0 1BFC38B7#80016484250202D2
(1493216807.249684) can0 1BFC38B6#0000004D01020000
(1493216807.249929) can0 1BFC38B5#0502FF0001020000
(1493216807.250181) can0 1BFC38B4#FF00000000000000
(1493216807.250555) can0 1BFC38B3#800164843100FFEE
(1493216807.250783) can0 1BFC38B2#80016484838300DD
(1493216807.255527) can0 1FD#0000000000000000
(1493216807.255822) can0 30B#0000010000000080
(1493216807.288731) can0 795#96599F6C748E6E78
(1493216807.306827) can0 30B#0000010000000080
(1493216807.315455) can0 1FD#0000000000000000
(1493216807.355804) can0 6C7#04010408040000
(1493216807.355994) can0 30B#0000010000000080
(1493216807.356301) can0 5F2#2C00
(1493216807.375442) can0 1FD#0000000000000000
(1493216807.406683) can0 30B#0000010000000080
(1493216807.415421) can0 6B6#390C1C000C08
(1493216807.416300) can0 62F#4451000C08
(1493216807.435464) can0 1FD#0000000000000000
(1493216807.455922) can0 30B#0000010000000080
(1493216807.488857) can0 78F#13
(1493216807.495418) can0 1FD#0000000000000000
(1493216807.498433) can0 1BFC38B1#0000000000000000
(1493216807.498796) can0 1BFC38BB#FFFFFFFFFFFFFFFF
(1493216807.499169) can0 1BFC38BA#0000000700000014
(1493216807.499411) can0 1BFC38B9#070296408005A3F4
(1493216807.499777) can0 1BFC38B8#0000000800000000
(1493216807.500058) can0 1BFC38B7#80016484250202D2
(1493216807.500402) can0 1BFC38B6#0000004F00000000
(1493216807.500652) can0 1BFC38B5#0502FF0001020000
(1493216807.501028) can0 1BFC38B4#FF00000000000000
(1493216807.501278) can0 1BFC38B3#800164843100FFEE
(1493216807.501645) can0 1BFC38B2#80016484838300DD
(1493216807.505426) can0 30B#0000010000000080
(1493216807.555811) can0 6C7#04010408040000
(1493216807.556089) can0 1FD#0000000000000000
(1493216807.556461) can0 30B#0000010000000080
(1493216807.556663) can0 5F2#2D00
(1493216807.556665) can0 643#000200
(1493216807.557048) can0 64E#0000000000000000
(1493216807.557294) can0 65E#8808716559B20500
(1493216807.557653) can0 6B8#6D08000000000000
(1493216807.557761) can0 6BC#AA838B51324C0700
(1493216807.606687) can0 30B#0000010000000080
(1493216807.615444) can0 1FD#0000000000000000
(1493216807.615810) can0 6B7#BEB4600B08FF80FE
(1493216807.655938) can0 30B#0000010000000080
(1493216807.675446) can0 1FD#0000000000000000
(1493216807.688907) can0 2E3#A209111784DA45
(1493216807.706676) can0 30B#0000010000000080
(1493216807.735434) can0 1FD#0000000000000000
(1493216807.747688) can0 1BFC38B1#0000000000000000
(1493216807.748094) can0 1BFC38BB#FFFFFFFFFFFFFFFF
(1493216807.748310) can0 1BFC38BA#535553500000001A
(1493216807.748685) can0 1BFC38B9#070296408005A3F4
(1493216807.748923) can0 1BFC38B8#0000000800000000
(1493216807.749309) can0 1BFC38B7#80016484250202D2
(1493216807.749518) can0 1BFC38B6#00000052838380F4
(1493216807.749929) can0 1BFC38B5#0502FF0001020000
(1493216807.750189) can0 1BFC38B4#FF00000000000000
(1493216807.750559) can0 1BFC38B3#800164843100FFEE
(1493216807.750797) can0 1BFC38B2#80016484838380F4
(1493216807.755405) can0 6C7#04010408040000
(1493216807.755705) can0 30B#0000010000000080
(1493216807.755896) can0 5F2#2D00
(1493216807.795471) can0 1FD#0000000000000000
(1493216807.806675) can0 30B#0000010000000080
(1493216807.855932) can0 1FD#0000000000000000
(1493216807.856164) can0 30B#0000010000000080
(1493216807.889107) can0 379#B6E9CF538A18C04A
(1493216807.906713) can0 30B#0000010000000080
(1493216807.915583) can0 1FD#0000000000000000
(1493216807.955822) can0 6C7#04010408040000
(1493216807.956056) can0 30B#0000010000000080
(1493216807.956310) can0 5F2#2D00
(1493216807.975553) can0 1FD#0000000000000000
(1493216807.998554) can0 1BFC38B1#0000000000000000
(1493216807.998785) can0 1BFC38BB#FFFFFFFFFFFFFFFF
(1493216807.999163) can0 1BFC38BA#535553500000001A
(1493216807.999382) can0 1BFC38B9#070296408005A3F4
(1493216807.999812) can0 1BFC38B8#0000000800000000
(1493216808.000016) can0 1BFC38B7#80016484250202D2
(1493216808.000456) can0 1BFC38B6#0000005400000000
(1493216808.000643) can0 1BFC38B5#0502FF0001020000
(1493216808.001056) can0 1BFC38B4#FF00000000000000
(1493216808.001308) can0 1BFC38B3#8001648432404433
(1493216808.001686) can0 1BFC38B2#80016484838380F4
(1493216808.005558) can0 30B#0000010000000080
(1493216808.035557) can0 1FD#0000000000000000
(1493216808.055920) can0 30B#0000010000000080
(1493216808.056143) can0 65E#8808A3D25DDD0800
(1493216808.089179) can0 0BA#1954572E5A0C8A22
(1493216808.095525) can0 1FD#0000000000000000
(1493216808.106683) can0 30B#0000010000000080
(1493216808.155839) can0 6C7#04010408040000
(1493216808.156049) can0 1FD#0000000000000000
(1493216808.156463) can0 30B#0000010000000080
(1493216808.156667) can0 5F2#2D00
(1493216808.206670) can0 30B#0000010000000080
(1493216808.216304) can0 1FD#0000000000000000
(1493216808.247685) can0 1BFC38B1#0000000000000000
(1493216808.248047) can0 1BFC38BB#FFFFFFFFFFFFFFFF
(1493216808.248341) can0 1BFC38BA#535553500000001A
(1493216808.248673) can0 1BFC38B9#070296408005A3F4
(1493216808.248920) can0 1BFC38B8#0000000800000000
(1493216808.249306) can0 1BFC38B7#800164842502020E
(1493216808.249685) can0 1BFC38B6#00000057000034A8
(1493216808.249932) can0 1BFC38B5#0502FF0001020000
(1493216808.250330) can0 1BFC38B4#FF00000000000000
(1493216808.250567) can0 1BFC38B3#8001648432404433
(1493216808.250817) can0 1BFC38B2#80016484838380F4
(1493216808.255547) can0 30B#0000010000000080
(1493216808.275588) can0 1FD#0000000000000000
(1493216808.289303) can0 631#A5BF9E605562F237
(1493216808.306685) can0 30B#0000010000000080
(1493216808.335556) can0 1FD#0000000000000000
(1493216808.355813) can0 6C7#04010408040000
(1493216808.356189) can0 30B#0000010000000080
(1493216808.356294) can0 5F2#2E00
(1493216808.395593) can0 1FD#0000000000000000
(1493216808.406665) can0 30B#0000010000000080
(1493216808.415548) can0 6B6#390C1C000C09
(1493216808.416666) can0 62F#4451000C09
(1493216808.455973) can0 1FD#0000000000000000
(1493216808.456175) can0 30B#0000010000000080
(1493216808.489594) can0 759#D747735E06A22E33
(1493216808.498549) can0 1BFC38B1#0000000000000000
(1493216808.498813) can0 1BFC38BB#FFFFFFFFFFFFFFFF
(1493216808.499181) can0 1BFC38BA#535553500000001A
(1493216808.499456) can0 1BFC38B9#000096408008FC68
(1493216808.499778) can0 1BFC38B8#0000000800000000
(1493216808.500021) can0 1BFC38B7#800164842502020E
(1493216808.500401) can0 1BFC38B6#0000005900000000
(1493216808.500778) can0 1BFC38B5#0502FF0001020000
(1493216808.501021) can0 1BFC38B4#FF00000000000000
(1493216808.501398) can0 1BFC38B3#8001648432404433
(1493216808.501649) can0 1BFC38B2#80016484838380F4
(1493216808.505709) can0 30B#0000010000000080
(1493216808.515577) can0 1FD#0000000000000000
(1493216808.555793) can0 6C7#04010408040000
(1493216808.556003) can0 30B#0000010000000080
(1493216808.556264) can0 5F2#2E00
(1493216808.556376) can0 643#000200
(1493216808.556797) can0 64E#0000000000000000
(1493216808.557092) can0 65E#88082FE46D2A0600
(1493216808.557300) can0 6B8#6D08000000000000
(1493216808.557703) can0 6BC#AA838B51324C0700
(1493216808.575533) can0 1FD#0000000000000000
(1493216808.606803) can0 30B#0000010000000080
(1493216808.607054) can0 630#33C37803E0080272
(1493216808.607291) can0 631#34C37807FE000000
(1493216808.607677) can0 62D#34837801F8000000
(1493216808.615548) can0 6B7#BEB4600B08FF80FE
(1493216808.635558) can0 1FD#0000000000000000
(1493216808.655676) can0 30B#0000010000000080
(1493216808.689705) can0 323#93546309B8BA7A08
(1493216808.695583) can0 1FD#0000000000000000
(1493216808.706759) can0 30B#0000010000000080
(1493216808.747834) can0 1BFC38B1#0000000000000000
(1493216808.748051) can0 1BFC38BB#FFFFFFFFFFFFFFFF
(1493216808.748458) can0 1BFC38BA#0000000700000014
(1493216808.748687) can0 1BFC38B9#000096408008FC68
(1493216808.749063) can0 1BFC38B8#0000000800000000
(1493216808.749451) can0 1BFC38B7#800164842502020E
(1493216808.749638) can0 1BFC38B6#0000005C8383807A
(1493216808.750031) can0 1BFC38B5#0502FF0001020000
(1493216808.750282) can0 1BFC38B4#FF00000000000000
(1493216808.750628) can0 1BFC38B3#8001648432404433
(1493216808.750935) can0 1BFC38B2#800164848383807A
(1493216808.755683) can0 1FD#0000000000000000
(1493216808.755907) can0 30B#0000010000000080
(1493216808.756053) can0 5F2#2E00
(1493216808.806692) can0 30B#0000010000000080
(1493216808.815549) can0 1FD#0000000000000000
(1493216808.855670) can0 30B#0000010000000080
(1493216808.875559) can0 1FD#0000000000000000
(1493216808.889848) can0 467#2D49E900F6EB9C32
(1493216808.906720) can0 30B#0000010000000080
(1493216808.935553) can0 1FD#0000000000000000
(1493216808.955681) can0 30B#0000010000000080
(1493216808.955795) can0 5F2#2F00
(1493216808.995555) can0 1FD#0000000000000000
(1493216808.998712) can0 1BFC38B1#0000000000000000
(1493216808.998925) can0 1BFC38BB#FFFFFFFFFFFFFFFF
(1493216808.999330) can0 1BFC38BA#0000000700000014
(1493216808.999704) can0 1BFC38B9#000096408008FC68
(1493216808.999919) can0 1BFC38B8#0000000800000000
(1493216809.000205) can0 1BFC38B7#800164842502020E
(1493216809.000566) can0 1BFC38B6#0000005E00000000
(1493216809.000880) can0 1BFC38B5#0502FF0001020000
(1493216809.001140) can0 1BFC38B4#FF00000000000000
(1493216809.001585) can0 1BFC38B3#8001648431009988
(1493216809.001771) can0 1BFC38B2#800164848383807A
(1493216809.005688) can0 30B#0000010000000080
(1493216809.055692) can0 1FD#0000000000000000
(1493216809.055929) can0 30B#0000010000000080
(1493216809.056150) can0 65E#880804E6584B0800
(1493216809.090101) can0 35B#
(1493216809.106803) can0 30B#0000010000000080
(1493216809.115677) can0 1FD#0000000000000000
(1493216809.155688) can0 30B#0000010000000080
(1493216809.155787) can0 5F2#2F00
(1493216809.175556) can0 1FD#0000000000000000
(1493216809.206801) can0 30B#0000010000000080
(1493216809.235590) can0 1FD#0000000000000000
(1493216809.247802) can0 1BFC38B1#0000000000000000
(1493216809.248178) can0 1BFC38BB#FFFFFFFFFFFFFFFF
(1493216809.248424) can0 1BFC38BA#0000000700000014
(1493216809.248809) can0 1BFC38B9#000096408008FC68
(1493216809.249061) can0 1BFC38B8#0000000800000000
(1493216809.249505) can0 1BFC38B7#800164842502024A
(1493216809.249627) can0 1BFC38B6#0000006101020000
(1493216809.250052) can0 1BFC38B5#0502FF0001020000
(1493216809.250262) can0 1BFC38B4#FF00000000000000
(1493216809.250657) can0 1BFC38B3#8001648431009988
(1493216809.250917) can0 1BFC38B2#800164848383807A
(1493216809.255670) can0 30B#0000010000000080
(1493216809.290077) can0 1A7#C2C0FE1420
(1493216809.295560) can0 1FD#0000000000000000
(1493216809.306836) can0 30B#0000010000000080
(1493216809.355684) can0 1FD#0000000000000000
(1493216809.355915) can0 30B#0000010000000080
(1493216809.356028) can0 5F2#2F00
(1493216809.406803) can0 30B#0000010000000080
(1493216809.415678) can0 1FD#0000000000000000
(1493216809.415914) can0 6B6#390C1C000C0A
(1493216809.416677) can0 62F#4451000C0A
(1493216809.455678) can0 30B#0000010000000080
(1493216809.475578) can0 1FD#0000000000000000
(1493216809.490179) can0 15F#AAC55F1A1962052D
(1493216809.498694) can0 1BFC38B1#0000000000000000
(1493216809.498930) can0 1BFC38BB#FFFFFFFFFFFFFFFF
(1493216809.499330) can0 1BFC38BA#0000000700000014
(1493216809.499716) can0 1BFC38B9#010296408005A3F4
(1493216809.499934) can0 1BFC38B8#0000000800000000
(1493216809.500180) can0 1BFC38B7#800164842502024A
(1493216809.500552) can0 1BFC38B6#0000006300000000
(1493216809.500789) can0 1BFC38B5#0502FF0001020000
(1493216809.501188) can0 1BFC38B4#FF00000000000000
(1493216809.501428) can0 1BFC38B3#8001648431009988
(1493216809.501784) can0 1BFC38B2#800164848383807A
(1493216809.505652) can0 30B#0000010000000080
(1493216809.535585) can0 1FD#0000000000000000
(1493216809.690462) can0 422#736E8F
(1493216809.890687) can0 752#A874146BAB4ED20B
(1493216810.090979) can0 042#B1F0003F65EB8A30
(1493216810.291076) can0 06A#1DA60539
(1493216810.491353) can0 36E#C8C0A403C986F156
(1493216810.506584) can0 6C7#01010408040000
(1493216810.506771) can0 1FD#0000000000000000
(1493216810.507135) can0 30B#0000000000000080
(1493216810.507140) can0 5F2#0000
(1493216810.507443) can0 643#000200
(1493216810.507641) can0 64E#0000000000000000
(1493216810.508077) can0 65E#0000000000000000
(1493216810.508281) can0 6B8#6D08000000000000
(1493216810.508684) can0 6BC#0000000000000000
(1493216810.514087) can0 630#40000013
(1493216810.518181) can0 630#03C203000F000403
(1493216810.518588) can0 631#04C2030013000301
(1493216810.518802) can0 62D#0482030012000300
(1493216810.519051) can0 62F#0442030011000400
(1493216810.525698) can0 6B7#BEB4600B080080FE
(1493216810.555682) can0 30B#0000000000000080
(1493216810.565823) can0 1FD#0000000000000000
(1493216810.606806) can0 30B#0000000000000080
(1493216810.625684) can0 1FD#0000000000000000
(1493216810.656055) can0 30B#0000000000000080
(1493216810.685832) can0 1FD#0000000000000000
(1493216810.691466) can0 08A#086DAA1931F24D0C
(1493216810.698714) can0 1BFC38B1#0000000000000000
(1493216810.698862) can0 1BFC38BB#FFFFFFFFFFFFFFFF
(1493216810.699285) can0 1BFC38BA#0000000700000014
(1493216810.699560) can0 1BFC38B9#020096408008FC68
(1493216810.699930) can0 1BFC38B8#0000000800000000
(1493216810.700155) can0 1BFC38B7#8001648425020286
(1493216810.700592) can0 1BFC38B6#0000006F00000000
(1493216810.700856) can0 1BFC38B5#0502FF0001020000
(1493216810.701191) can0 1BFC38B4#FF00000000000000
(1493216810.701458) can0 1BFC38B3#800164843100BBAA
(1493216810.701806) can0 1BFC38B2#80016484838300FF
(1493216810.705631) can0 6C7#01010408040000
(1493216810.705791) can0 30B#0000000000000080
(1493216810.706068) can0 5F2#3000
(1493216810.745713) can0 1FD#0000000000000000
(1493216810.756099) can0 30B#0000010000000080
(1493216810.806811) can0 1FD#0000000000000000
(1493216810.807049) can0 30B#0000010000000080
(1493216810.856060) can0 30B#0000010000000080
(1493216810.865929) can0 1FD#0000000000000000
(1493216810.891683) can0 3F0#519FED5B4F355568
(1493216810.906683) can0 6C7#01010408040000
(1493216810.907057) can0 30B#0000010000000080
(1493216810.907169) can0 5F2#3000
(1493216810.925681) can0 1FD#0000000000000000
(1493216810.947780) can0 1BFC38B1#0000000000000000
(1493216810.948146) can0 1BFC38BB#FFFFFFFFFFFFFFFF
(1493216810.948395) can0 1BFC38BA#0000000700000014
(1493216810.948767) can0 1BFC38B9#020096408008FC68
(1493216810.949147) can0 1BFC38B8#0000000800000000
(1493216810.949394) can0 1BFC38B7#8001648425020286
(1493216810.949767) can0 1BFC38B6#0000007200000000
(1493216810.950016) can0 1BFC38B5#0502FF0001020000
(1493216810.950394) can0 1BFC38B4#FF00000000000000
(1493216810.950644) can0 1BFC38B3#80016484324000FF
(1493216810.951019) can0 1BFC38B2#80016484838380F6
(1493216810.955647) can0 30B#0000010000000080
(1493216810.985839) can0 1FD#0000000000000000
(1493216811.006808) can0 30B#0000010000000080
(1493216811.007059) can0 65E#88081EC788730500
(1493216811.045683) can0 1FD#0000000000000000
(1493216811.056055) can0 30B#0000010000000080
(1493216811.091687) can0 043#68975A15659C8B7A
(1493216811.106710) can0 6C7#01010408040000
(1493216811.106915) can0 1FD#0000000000000000
(1493216811.107334) can0 30B#0000010000000080
(1493216811.107437) can0 5F2#3000
(1493216811.156023) can0 30B#0000010000000080
(1493216811.165797) can0 1FD#0000000000000000
(1493216811.198681) can0 1BFC38B1#0000000000000000
(1493216811.198906) can0 1BFC38BB#FFFFFFFFFFFFFFFF
(1493216811.199296) can0 1BFC38BA#0000000700000014
(1493216811.199676) can0 1BFC38B9#020096408008FC68
(1493216811.199924) can0 1BFC38B8#0000000800000000
(1493216811.200169) can0 1BFC38B7#8001648425020286
(1493216811.200508) can0 1BFC38B6#0000007401020000
(1493216811.200878) can0 1BFC38B5#0502FF0001020000
(1493216811.201134) can0 1BFC38B4#FF00000000000000
(1493216811.201551) can0 1BFC38B3#80016484324000FF
(1493216811.201799) can0 1BFC38B2#80016484838380F6
(1493216811.205636) can0 30B#0000010000000080
(1493216811.225693) can0 1FD#0000000000000000
(1493216811.256059) can0 30B#0000010000000080
(1493216811.285810) can0 1FD#0000000000000000
(1493216811.291953) can0 6BE#B9AEAD2D1026FC7E
(1493216811.306719) can0 6C7#01010408040000
(1493216811.307096) can0 30B#0000010000000080
(1493216811.307199) can0 5F2#3000
(1493216811.345686) can0 1FD#0000000000000000
(1493216811.356061) can0 30B#0000010000000080
(1493216811.406810) can0 1FD#0000000000000000
(1493216811.407042) can0 30B#0000010000000080
(1493216811.415683) can0 6B6#390C1C000C0C
(1493216811.416438) can0 62F#4451000C0C
(1493216811.447834) can0 1BFC38B1#0000000000000000
(1493216811.448183) can0 1BFC38BB#FFFFFFFFFFFFFFFF
(1493216811.448432) can0 1BFC38BA#0000000700000014
(1493216811.448807) can0 1BFC38B9#030296408005A3F4
(1493216811.449183) can0 1BFC38B8#0000000800000000
(1493216811.449444) can0 1BFC38B7#80016484250202C2
(1493216811.449790) can0 1BFC38B6#0000007700000000
(1493216811.450040) can0 1BFC38B5#0502FF0001020000
(1493216811.450416) can0 1BFC38B4#FF00000000000000
(1493216811.450663) can0 1BFC38B3#80016484324000FF
(1493216811.451037) can0 1BFC38B2#80016484838380F6
(1493216811.455664) can0 30B#0000010000000080
(1493216811.465813) can0 1FD#0000000000000000
(1493216811.492073) can0 3F4#BB
(1493216811.506700) can0 6C7#04010408040000
(1493216811.507055) can0 30B#0000010000000080
(1493216811.507182) can0 5F2#3000
(1493216811.507436) can0 643#000200
(1493216811.507693) can0 64E#0000000000000000
(1493216811.507901) can0 65E#8808245666640E00
(1493216811.508152) can0 6B8#6D08000000000000
(1493216811.508510) can0 6BC#AA838B51324C0700
(1493216811.525680) can0 1FD#0000000000000000
(1493216811.525933) can0 6B7#BEB4700B08FF80FE
(1493216811.556058) can0 30B#0000010000000080
(1493216811.585821) can0 1FD#0000000000000000
(1493216811.606813) can0 30B#0000010000000080
(1493216811.645720) can0 1FD#0000000000000000
(1493216811.656064) can0 30B#0000010000000080
(1493216811.692198) can0 7E1#9B1739634B202933
(1493216811.698697) can0 1BFC38B1#0000000000000000
(1493216811.698912) can0 1BFC38BB#FFFFFFFFFFFFFFFF
(1493216811.699323) can0 1BFC38BA#535553500000001A
(1493216811.699692) can0 1BFC38B9#030296408005A3F4
(1493216811.699936) can0 1BFC38B8#0000000800000000
(1493216811.700165) can0 1BFC38B7#80016484250202C2
(1493216811.700568) can0 1BFC38B6#0000007900000000
(1493216811.700944) can0 1BFC38B5#0502FF0001020000
(1493216811.701199) can0 1BFC38B4#FF00000000000000
(1493216811.701566) can0 1BFC38B3#80016484324000FF
(1493216811.701821) can0 1BFC38B2#80016484838380F6
(1493216811.705680) can0 6C7#04010408040000
(1493216811.705910) can0 1FD#0000000000000000
(1493216811.706193) can0 30B#0000010000000080
(1493216811.706448) can0 5F2#3000
(1493216811.756092) can0 30B#0000010000000080
(1493216811.765968) can0 1FD#0000000000000000
(1493216811.806808) can0 30B#0000010000000080
(1493216811.825683) can0 1FD#0000000000000000
(1493216811.856060) can0 30B#0000010000000080
(1493216811.885820) can0 1FD#0000000000000000
(1493216811.892306) can0 2B1#1DF530041F9E9A50
(1493216811.906819) can0 6C7#04010408040000
(1493216811.907067) can0 30B#0000010000000080
(1493216811.907182) can0 5F2#3100
(1493216811.945690) can0 1FD#0000000000000000
(1493216811.947947) can0 1BFC38B1#0000000000000000
(1493216811.948136) can0 1BFC38BB#FFFFFFFFFFFFFFFF
(1493216811.948566) can0 1BFC38BA#535553500000001A
(1493216811.948793) can0 1BFC38B9#030296408005A3F4
(1493216811.949183) can0 1BFC38B8#0000000800000000
(1493216811.949441) can0 1BFC38B7#80016484250202C2
(1493216811.949757) can0 1BFC38B6#0000007C00000000
(1493216811.950011) can0 1BFC38B5#0502FF0001020000
(1493216811.950380) can0 1BFC38B4#FF00000000000000
(1493216811.950685) can0 1BFC38B3#8001648431005544
(1493216811.951012) can0 1BFC38B2#800164848383807C
(1493216811.955636) can0 30B#0000010000000080
(1493216812.006854) can0 1FD#0000000000000000
(1493216812.007052) can0 30B#0000010000000080
(1493216812.007444) can0 65E#88080C5248AC0100
(1493216812.056060) can0 30B#0000010000000080
(1493216812.065960) can0 1FD#0000000000000000
(1493216812.092565) can0 503#E9248C278E
(1493216812.106844) can0 6C7#04010408040000
(1493216812.107061) can0 30B#0000010000000080
(1493216812.107185) can0 5F2#3100
(1493216812.125686) can0 1FD#0000000000000000
(1493216812.156107) can0 30B#0000010000000080
(1493216812.185924) can0 1FD#0000000000000000
(1493216812.198685) can0 1BFC38B1#0000000000000000
(1493216812.199042) can0 1BFC38BB#FFFFFFFFFFFFFFFF
(1493216812.199292) can0 1BFC38BA#535553500000001A
(1493216812.199683) can0 1BFC38B9#030296408005A3F4
(1493216812.199932) can0 1BFC38B8#0000000800000000
(1493216812.200321) can0 1BFC38B7#80016484250202C2
(1493216812.200699) can0 1BFC38B6#0000007E000034A8
(1493216812.200934) can0 1BFC38B5#0502FF0001020000
(1493216812.201195) can0 1BFC38B4#FF00000000000000
(1493216812.201569) can0 1BFC38B3#8001648431005544
(1493216812.201789) can0 1BFC38B2#800164848383807C
(1493216812.205794) can0 30B#0000010000000080
(1493216812.245848) can0 1FD#0000000000000000
(1493216812.256072) can0 30B#0000010000000080
(1493216812.292700) can0 370#BF
(1493216812.306938) can0 6C7#04010408040000
(1493216812.307173) can0 1FD#0000000000000000
(1493216812.307588) can0 30B#0000010000000080
(1493216812.307591) can0 5F2#3200
(1493216812.356059) can0 30B#0000010000000080
(1493216812.365984) can0 1FD#0000000000000000
(1493216812.406812) can0 30B#0000010000000080
(1493216812.415680) can0 6B6#390C1C000C0D
(1493216812.416960) can0 62F#4451000C0D
(1493216812.425690) can0 1FD#0000000000000000
(1493216812.447991) can0 1BFC38B1#0000000000000000
(1493216812.448185) can0 1BFC38BB#FFFFFFFFFFFFFFFF
(1493216812.448548) can0 1BFC38BA#535553500000001A
(1493216812.448759) can0 1BFC38B9#040096408008FC68
(1493216812.449137) can0 1BFC38B8#0000000800000000
(1493216812.449382) can0 1BFC38B7#8006CA58250202FD
(1493216812.449762) can0 1BFC38B6#0000008100000000
(1493216812.450135) can0 1BFC38B5#0502FF0001020000
(1493216812.450383) can0 1BFC38B4#FF00000000000000
(1493216812.450761) can0 1BFC38B3#8001648431005544
(1493216812.451006) can0 1BFC38B2#800164848383807C
(1493216812.455697) can0 30B#0000010000000080
(1493216812.485972) can0 1FD#0000000000000000
(1493216812.492833) can0 7BB#AF
(1493216812.506821) can0 6C7#04010408040000
(1493216812.507057) can0 30B#0000010000000080
(1493216812.507333) can0 5F2#3200
(1493216812.507568) can0 630#33C203000F000403
(1493216812.507855) can0 62D#3482030012000300
(1493216812.508061) can0 631#34C2030013000301
(1493216812.508332) can0 643#000200
(1493216812.508579) can0 64E#0000000000000000
(1493216812.508830) can0 65E#880820F5664C0800
(1493216812.509197) can0 6B8#6D08000000000000
(1493216812.509412) can0 6BC#AA838B51324C0700
(1493216812.525715) can0 6B7#BEB4700B08FF80FE
(1493216812.545815) can0 1FD#0000000000000000
(1493216812.556188) can0 30B#0000010000000080
(1493216812.606939) can0 1FD#0000000000000000
(1493216812.607176) can0 30B#0000010000000080
(1493216812.656088) can0 30B#0000010000000080
(1493216812.665946) can0 1FD#0000000000000000
(1493216812.693015) can0 40C#6434E301CB8238
(1493216812.698689) can0 1BFC38B1#0000000000000000
(1493216812.699086) can0 1BFC38BB#FFFFFFFFFFFFFFFF
(1493216812.699451) can0 1BFC38BA#0000000700000014
(1493216812.699676) can0 1BFC38B9#040096408008FC68
(1493216812.700069) can0 1BFC38B8#0000000800000000
(1493216812.700323) can0 1BFC38B7#8006CA58250202FD
(1493216812.700710) can0 1BFC38B6#0000008300000000
(1493216812.700903) can0 1BFC38B5#0502FF0001020000
(1493216812.701292) can0 1BFC38B4#FF00000000000000
(1493216812.701664) can0 1BFC38B3#8001648431005544
(1493216812.701926) can0 1BFC38B2#800164848383807C
(1493216812.705701) can0 6C7#04010408040000
(1493216812.706065) can0 30B#0000010000000080
(1493216812.706192) can0 5F2#3200
(1493216812.725720) can0 1FD#0000000000000000
(1493216812.756104) can0 30B#0000010000000080
(1493216812.785938) can0 1FD#0000000000000000
(1493216812.806938) can0 30B#0000010000000080
(1493216812.845810) can0 1FD#0000000000000000
(1493216812.856187) can0 30B#0000010000000080
(1493216812.893073) can0 1F2#DBA83413E7252A70
(1493216812.906812) can0 6C7#04010408040000
(1493216812.907043) can0 1FD#0000000000000000
(1493216812.907433) can0 30B#0000010000000080
(1493216812.907545) can0 5F2#3300
(1493216812.947938) can0 1BFC38B1#0000000000000000
(1493216812.948326) can0 1BFC38BB#FFFFFFFFFFFFFFFF
(1493216812.948526) can0 1BFC38BA#0000000700000014
(1493216812.948896) can0 1BFC38B9#040096408008FC68
(1493216812.949164) can0 1BFC38B8#0000000800000000
(1493216812.949579) can0 1BFC38B7#8006CA58250202FD
(1493216812.949813) can0 1BFC38B6#0000008600000000
(1493216812.950186) can0 1BFC38B5#0502FF0001020000
(1493216812.950390) can0 1BFC38B4#FF00000000000000
(1493216812.950786) can0 1BFC38B3#8001648431007766
(1493216812.951030) can0 1BFC38B2#80016484838300F1
(1493216812.955823) can0 30B#0000010000000080
(1493216812.965952) can0 1FD#0000000000000000
(1493216813.006939) can0 30B#0000010000000080
(1493216813.007146) can0 65E#880866651C850500
(1493216813.025811) can0 1FD#0000000000000000
(1493216813.056202) can0 30B#0000010000000080
(1493216813.085967) can0 1FD#0000000000000000
(1493216813.093330) can0 67E#1D52D8225FE69C
(1493216813.106813) can0 6C7#04010408040000
(1493216813.107188) can0 30B#0000010000000080
(1493216813.107301) can0 5F2#3300
(1493216813.145813) can0 1FD#0000000000000000
(1493216813.156214) can0 30B#0000010000000080
(1493216813.198776) can0 1BFC38B1#0000000000000000
(1493216813.199018) can0 1BFC38BB#FFFFFFFFFFFFFFFF
(1493216813.199422) can0 1BFC38BA#0000000700000014
(1493216813.199682) can0 1BFC38B9#040096408008FC68
(1493216813.200049) can0 1BFC38B8#0000000800000000
(1493216813.200297) can0 1BFC38B7#8006CA58250202FD
(1493216813.200679) can0 1BFC38B6#0000008801020000
(1493216813.201014) can0 1BFC38B5#0502FF0001020000
(1493216813.201318) can0 1BFC38B4#FF00000000000000
(1493216813.201687) can0 1BFC38B3#8001648431007766
(1493216813.201896) can0 1BFC38B2#80016484838300F1
(1493216813.205790) can0 1FD#0000000000000000
(1493216813.206035) can0 30B#0000010000000080
(1493216813.256238) can0 30B#0000010000000080
(1493216813.265946) can0 1FD#0000000000000000
(1493216813.293423) can0 303#AB06C65DB42D067A
(1493216813.306845) can0 6C7#04010408040000
(1493216813.307189) can0 30B#0000010000000080
(1493216813.307300) can0 5F2#3300
(1493216813.325809) can0 1FD#0000000000000000
(1493216813.356204) can0 30B#0000010000000080
(1493216813.385935) can0 1FD#0000000000000000
(1493216813.406939) can0 30B#0000010000000080
(1493216813.415814) can0 6B6#390C1C000C0E
(1493216813.416683) can0 62F#4451000C0E
(1493216813.445815) can0 1FD#0000000000000000
(1493216813.447944) can0 1BFC38B1#0000000000000000
(1493216813.448313) can0 1BFC38BB#FFFFFFFFFFFFFFFF
(1493216813.448684) can0 1BFC38BA#0000000700000014
(1493216813.448949) can0 1BFC38B9#050296408005A3F4
(1493216813.449338) can0 1BFC38B8#0000000800000000
(1493216813.449684) can0 1BFC38B7#8001648425020239
(1493216813.449953) can0 1BFC38B6#0000008B00000000
(1493216813.450187) can0 1BFC38B5#0502FF0001020000
(1493216813.450562) can0 1BFC38B4#FF00000000000000
(1493216813.450808) can0 1BFC38B3#8001648431007766
(1493216813.451198) can0 1BFC38B2#80016484838300F1
(1493216813.455828) can0 30B#0000010000000080
(1493216813.493587) can0 772#D4CBA04A75D47D78
(1493216813.506856) can0 6C7#04010408040000
(1493216813.507230) can0 1FD#0000000000000000
(1493216813.507429) can0 30B#0000010000000080
(1493216813.507716) can0 5F2#3300
(1493216813.507795) can0 643#000200
(1493216813.508023) can0 64E#0000000000000000
(1493216813.508327) can0 65E#88087AE372C50500
(1493216813.508702) can0 6B8#6D08000000000000
(1493216813.508921) can0 6BC#AA838B51324C0700
(1493216813.525812) can0 6B7#BEB4700B08FF80FE
(1493216813.556213) can0 30B#0000010000000080
(1493216813.565972) can0 1FD#0000000000000000
(1493216813.606953) can0 30B#0000010000000080
(1493216813.625830) can0 1FD#0000000000000000
(1493216813.656193) can0 30B#0000010000000080
(1493216813.685939) can0 1FD#0000000000000000
(1493216813.693687) can0 1AD#03E2286F1D1D5F3B
(1493216813.698810) can0 1BFC38B1#0000000000000000
(1493216813.699226) can0 1BFC38BB#FFFFFFFFFFFFFFFF
(1493216813.699438) can0 1BFC38BA#535553500000001A
(1493216813.699686) can0 1BFC38B9#050296408005A3F4
(1493216813.700077) can0 1BFC38B8#0000000800000000
(1493216813.700442) can0 1BFC38B7#8001648425020239
(1493216813.700703) can0 1BFC38B6#0000008D00000000
(1493216813.701073) can0 1BFC38B5#0502FF0001020000
(1493216813.701361) can0 1BFC38B4#FF00000000000000
(1493216813.701766) can0 1BFC38B3#8001648431007766
(1493216813.701937) can0 1BFC38B2#80016484838300F1
(1493216813.705815) can0 6C7#04010408040000
(1493216813.706059) can0 30B#0000010000000080
(1493216813.706171) can0 5F2#3300
(1493216813.745848) can0 1FD#0000000000000000
(1493216813.756191) can0 30B#0000010000000080
(1493216813.806941) can0 1FD#0000000000000000
(1493216813.807179) can0 30B#0000010000000080
(1493216813.856192) can0 30B#0000010000000080
(1493216813.866061) can0 1FD#0000000000000000
(1493216813.893817) can0 2AE#7D3CD7
(1493216813.906779) can0 6C7#04010408040000
(1493216813.907246) can0 30B#0000010000000080
(1493216813.907441) can0 5F2#3300
(1493216813.925814) can0 1FD#0000000000000000
(1493216813.947992) can0 1BFC38B1#0000000000000000
(1493216813.948274) can0 1BFC38BB#FFFFFFFFFFFFFFFF
(1493216813.948686) can0 1BFC38BA#535553500000001A
(1493216813.948968) can0 1BFC38B9#050296408005A3F4
(1493216813.949316) can0 1BFC38B8#0000000800000000
(1493216813.949571) can0 1BFC38B7#8001648425020239
(1493216813.949937) can0 1BFC38B6#0000009000000000
(1493216813.950147) can0 1BFC38B5#0502FF0001020000
(1493216813.950539) can0 1BFC38B4#FF00000000000000
(1493216813.950789) can0 1BFC38B3#800164843240CCBB
(1493216813.951162) can0 1BFC38B2#8001648483838078
(1493216813.955789) can0 30B#0000010000000080
(1493216813.985981) can0 1FD#0000000000000000
(1493216814.006943) can0 30B#0000010000000080
(1493216814.007176) can0 65E#8808C48245410400
(1493216814.045811) can0 1FD#0000000000000000
(1493216814.056191) can0 30B#0000010000000080
(1493216814.094107) can0 0D4#68DA9A2AE0843C26
(1493216814.106941) can0 6C7#04010408040000
(1493216814.107161) can0 1FD#0000000000000000
(1493216814.107437) can0 30B#0000010000000080
(1493216814.107690) can0 5F2#3300
(1493216814.156198) can0 30B#0000010000000080
(1493216814.166075) can0 1FD#0000000000000000
(1493216814.198822) can0 1BFC38B1#0000000000000000
(1493216814.199142) can0 1BFC38BB#FFFFFFFFFFFFFFFF
(1493216814.199445) can0 1BFC38BA#535553500000001A
(1493216814.199789) can0 1BFC38B9#050296408005A3F4
(1493216814.200143) can0 1BFC38B8#0000000800000000
(1493216814.200448) can0 1BFC38B7#8001648425020239
(1493216814.200817) can0 1BFC38B6#00000092000034A8
(1493216814.201073) can0 1BFC38B5#0502FF0001020000
(1493216814.201445) can0 1BFC38B4#FF00000000000000
(1493216814.201696) can0 1BFC38B3#800164843240CCBB
(1493216814.202070) can0 1BFC38B2#8001648483838078
(1493216814.205970) can0 30B#0000010000000080
(1493216814.225818) can0 1FD#0000000000000000
(1493216814.256193) can0 30B#0000010000000080
(1493216814.285942) can0 1FD#0000000000000000
(1493216814.294188) can0 543#AB07753A356FDE65
(1493216814.306940) can0 6C7#04010408040000
(1493216814.307155) can0 30B#0000010000000080
(1493216814.307440) can0 5F2#3300
(1493216814.345831) can0 1FD#0000000000000000
(1493216814.356238) can0 30B#0000010000000080
(1493216814.406947) can0 1FD#0000000000000000
(1493216814.407312) can0 30B#0000010000000080
(1493216814.415940) can0 6B6#390C1C000C0F
(1493216814.416939) can0 62F#4451000C0F
(1493216814.448099) can0 1BFC38B1#0000000000000000
(1493216814.448306) can0 1BFC38BB#FFFFFFFFFFFFFFFF
(1493216814.448690) can0 1BFC38BA#535553500000001A
(1493216814.448951) can0 1BFC38B9#060096408008FC68
(1493216814.449327) can0 1BFC38B8#0000000800000000
(1493216814.449665) can0 1BFC38B7#8001648425020275
(1493216814.449911) can0 1BFC38B6#0000009500000000
(1493216814.450167) can0 1BFC38B5#0502FF0001020000
(1493216814.450517) can0 1BFC38B4#FF00000000000000
(1493216814.450786) can0 1BFC38B3#800164843240CCBB
(1493216814.451165) can0 1BFC38B2#8001648483838078
(1493216814.455833) can0 30B#0000010000000080
(1493216814.465976) can0 1FD#0000000000000000
(1493216814.494491) can0 1E9#1C95085667F861
(1493216814.506980) can0 6C7#04010408040000
(1493216814.507188) can0 30B#0000010000000080
(1493216814.507482) can0 5F2#3300
(1493216814.507694) can0 630#33C37803E0080272
(1493216814.507980) can0 62D#34837801F8000000
(1493216814.508178) can0 631#34C37807FE000000
(1493216814.508433) can0 643#000200
(1493216814.508683) can0 64E#0000000000000000
(1493216814.508923) can0 65E#88089E95442F0600
(1493216814.509306) can0 6B8#6D08000000000000
(1493216814.509530) can0 6BC#AA838B51324C0700
(1493216814.525817) can0 1FD#0000000000000000
(1493216814.526052) can0 6B7#BEB4700B08FF80FE
(1493216814.555942) can0 30B#0000010000000080
(1493216814.585944) can0 1FD#0000000000000000
(1493216814.607059) can0 30B#0000010000000080
(1493216814.645835) can0 1FD#0000000000000000
(1493216814.655944) can0 30B#0000010000000080
(1493216814.694657) can0 61E#C7DEFE4E21517F53
(1493216814.698971) can0 1BFC38B1#0000000000000000
(1493216814.699155) can0 1BFC38BB#FFFFFFFFFFFFFFFF
(1493216814.699584) can0 1BFC38BA#0000000700000014
(1493216814.699838) can0 1BFC38B9#060096408008FC68
(1493216814.700208) can0 1BFC38B8#0000000800000000
(1493216814.700442) can0 1BFC38B7#8001648425020275
(1493216814.700827) can0 1BFC38B6#0000009700000000
(1493216814.701167) can0 1BFC38B5#0502FF0001020000
(1493216814.701439) can0 1BFC38B4#FF00000000000000
(1493216814.701841) can0 1BFC38B3#800164843240CCBB
(1493216814.702033) can0 1BFC38B2#8001648483838078
(1493216814.705950) can0 1FD#0000000000000000
(1493216814.706208) can0 30B#0000010000000080
(1493216814.706417) can0 5F2#3300
(1493216814.755969) can0 30B#0000010000000080
(1493216814.766099) can0 1FD#0000000000000000
(1493216814.807204) can0 30B#0000010000000080
(1493216814.826319) can0 1FD#0000000000000000
(1493216814.855973) can0 30B#0000010000000080
(1493216814.886087) can0 1FD#0000000000000000
(1493216814.894837) can0 0F3#D67E
(1493216814.907097) can0 30B#0000010000000080
(1493216814.907103) can0 5F2#3300
(1493216814.945829) can0 1FD#0000000000000000
(1493216814.948070) can0 1BFC38B1#0000000000000000
(1493216814.948439) can0 1BFC38BB#FFFFFFFFFFFFFFFF
(1493216814.948845) can0 1BFC38BA#0000000700000014
(1493216814.949064) can0 1BFC38B9#060096408008FC68
(1493216814.949453) can0 1BFC38B8#0000000800000000
(1493216814.949696) can0 1BFC38B7#8001648425020275
(1493216814.950076) can0 1BFC38B6#0000009A00000000
(1493216814.950330) can0 1BFC38B5#0502FF0001020000
(1493216814.950691) can0 1BFC38B4#FF00000000000000
(1493216814.950944) can0 1BFC38B3#8001648431001100
(1493216814.951285) can0 1BFC38B2#800164848383807E
(1493216814.955937) can0 30B#0000010000000080
(1493216815.007076) can0 1FD#0000000000000000
(1493216815.007307) can0 30B#0000010000000080
(1493216815.007692) can0 65E#8808385746070800
(1493216815.055990) can0 30B#0000010000000080
(1493216815.066071) can0 1FD#0000000000000000
(1493216815.094960) can0 13A#DA4CC019E7928878
(1493216815.107081) can0 30B#0000010000000080
(1493216815.107187) can0 5F2#3300
(1493216815.125945) can0 1FD#0000000000000000
(1493216815.155968) can0 30B#0000010000000080
(1493216815.186093) can0 1FD#0000000000000000
(1493216815.198943) can0 1BFC38B1#0000000000000000
(1493216815.199287) can0 1BFC38BB#FFFFFFFFFFFFFFFF
(1493216815.199537) can0 1BFC38BA#0000000700000014
(1493216815.199953) can0 1BFC38B9#060096408008FC68
(1493216815.200202) can0 1BFC38B8#0000000800000000
(1493216815.200581) can0 1BFC38B7#8001648425020275
(1493216815.200831) can0 1BFC38B6#0000009C01020000
(1493216815.201221) can0 1BFC38B5#0502FF0001020000
(1493216815.201440) can0 1BFC38B4#FF00000000000000
(1493216815.201832) can0 1BFC38B3#8001648431001100
(1493216815.202075) can0 1BFC38B2#800164848383807E
(1493216815.206102) can0 30B#0000010000000080
(1493216815.245922) can0 1FD#0000000000000000
(1493216815.255972) can0 30B#0000010000000080
(1493216815.295028) can0 367#04B0E73315BEB63D
(1493216815.307157) can0 1FD#0000000000000000
(1493216815.307396) can0 30B#0000010000000080
(1493216815.307522) can0 5F2#3300
(1493216815.355906) can0 30B#0000010000000080
(1493216815.366018) can0 1FD#0000000000000000
(1493216815.407020) can0 30B#0000010000000080
(1493216815.415896) can0 6B6#390C1C000C10
(1493216815.417266) can0 62F#4451000C10
(1493216815.425946) can0 1FD#0000000000000000
(1493216815.448084) can0 1BFC38B1#0000000000000000
(1493216815.448443) can0 1BFC38BB#FFFFFFFFFFFFFFFF
(1493216815.448812) can0 1BFC38BA#0000000700000014
(1493216815.449054) can0 1BFC38B9#070296408005A3F4
(1493216815.449431) can0 1BFC38B8#0000000800000000
(1493216815.449680) can0 1BFC38B7#80016484250202B1
(1493216815.450015) can0 1BFC38B6#0000009F00000000
(1493216815.450301) can0 1BFC38B5#0502FF0001020000
(1493216815.450642) can0 1BFC38B4#FF00000000000000
(1493216815.450930) can0 1BFC38B3#8001648431001100
(1493216815.451308) can0 1BFC38B2#800164848383807E
(1493216815.455975) can0 30B#0000010000000080
(1493216815.486110) can0 1FD#0000000000000000
(1493216815.495335) can0 0A1#7E
(1493216815.695590) can0 5AD#55165072F0FA
(1493216815.895703) can0 1B2#25
(1493216816.095817) can0 688#03D4
(1493216816.295912) can0 67C#C7ED9A396F37EA3A
(1493216816.356801) can0 6C7#01010408040000
(1493216816.357037) can0 1FD#0000000000000000
(1493216816.357440) can0 30B#0000000000000080
(1493216816.357558) can0 5F2#0000
(1493216816.357817) can0 643#000200
(1493216816.358080) can0 64E#0000000000000000
(1493216816.358315) can0 65E#0000000000000000
(1493216816.358704) can0 6B8#6D08000000000000
(1493216816.358938) can0 6BC#0000000000000000
(1493216816.407117) can0 30B#0000000000000080
(1493216816.413210) can0 630#40000013
(1493216816.416355) can0 1FD#0000000000000000
(1493216816.416510) can0 6B6#390C1C000C11
(1493216816.417098) can0 630#03C203000F000403
(1493216816.417316) can0 631#04C2030013000301
(1493216816.417572) can0 62D#0482030012000300
(1493216816.417807) can0 62F#0442030011000400
(1493216816.425965) can0 6B7#BEB4800B080080FE
(1493216816.456321) can0 30B#0000000000000080
(1493216816.475948) can0 1FD#0000000000000000
(1493216816.496076) can0 03C#D4AF2C5C76790343
(1493216816.507100) can0 30B#0000000000000080
(1493216816.535945) can0 1FD#0000000000000000
(1493216816.548078) can0 1BFC38B1#0000000000000000
(1493216816.548443) can0 1BFC38BB#FFFFFFFFFFFFFFFF
(1493216816.548820) can0 1BFC38BA#0000000700000014
(1493216816.549058) can0 1BFC38B9#000096408008FC68
(1493216816.549473) can0 1BFC38B8#0000000800000000
(1493216816.549693) can0 1BFC38B7#80016484250202ED
(1493216816.550068) can0 1BFC38B6#000000AA8008FC68
(1493216816.550318) can0 1BFC38B5#0502FF0001020000
(1493216816.550708) can0 1BFC38B4#FF00000000000000
(1493216816.550952) can0 1BFC38B3#8001648431003322
(1493216816.551332) can0 1BFC38B2#80016484838300C3
(1493216816.555845) can0 6C7#01010408040000
(1493216816.556214) can0 30B#0000000000000080
(1493216816.556336) can0 5F2#3300
(1493216816.595954) can0 1FD#0000000000000000
(1493216816.607101) can0 30B#0000000000000080
(1493216816.656363) can0 1FD#0000000000000000
(1493216816.656655) can0 30B#0000000000000080
(1493216816.696313) can0 747#5D0C8C3BAEF29929
(1493216816.707099) can0 30B#0000000000000080
(1493216816.716453) can0 1FD#0000000000000000
(1493216816.756320) can0 6C7#01010408040000
(1493216816.756560) can0 30B#0000010000000080
(1493216816.756672) can0 5F2#3300
(1493216816.775949) can0 1FD#0000000000000000
(1493216816.798951) can0 1BFC38B1#0000000000000000
(1493216816.799360) can0 1BFC38BB#FFFFFFFFFFFFFFFF
(1493216816.799693) can0 1BFC38BA#0000000700000014
(1493216816.799937) can0 1BFC38B9#000096408008FC68
(1493216816.800191) can0 1BFC38B8#0000000800000000
(1493216816.800577) can0 1BFC38B7#80016484250202ED
(1493216816.800831) can0 1BFC38B6#000000AC8383801A
(1493216816.801192) can0 1BFC38B5#0502FF0001020000
(1493216816.801591) can0 1BFC38B4#FF00000000000000
(1493216816.801830) can0 1BFC38B3#8001648431003322
(1493216816.802221) can0 1BFC38B2#800164848383801A
(1493216816.805985) can0 30B#0000010000000080
(1493216816.835950) can0 1FD#0000000000000000
(1493216816.856318) can0 30B#0000010000000080
(1493216816.856695) can0 65E#88084EB463810700
(1493216816.896011) can0 1FD#0000000000000000
(1493216816.896445) can0 38C#C3
(1493216816.907217) can0 30B#0000010000000080
(1493216816.956324) can0 6C7#01010408040000
(1493216816.956531) can0 1FD#0000000000000000
(1493216816.956823) can0 30B#0000010000000080
(1493216816.957070) can0 5F2#3300
(1493216817.007081) can0 30B#0000010000000080
(1493216817.016119) can0 1FD#0000000000000000
(1493216817.048197) can0 1BFC38B1#0000000000000000
(1493216817.048448) can0 1BFC38BB#FFFFFFFFFFFFFFFF
(1493216817.048822) can0 1BFC38BA#0000000700000014
(1493216817.049072) can0 1BFC38B9#000096408008FC68
(1493216817.049443) can0 1BFC38B8#0000000800000000
(1493216817.049723) can0 1BFC38B7#80016484250202ED
(1493216817.050052) can0 1BFC38B6#000000AF01020000
(1493216817.050429) can0 1BFC38B5#0502FF0001020000
(1493216817.050678) can0 1BFC38B4#FF00000000000000
(1493216817.051051) can0 1BFC38B3#8001648432408877
(1493216817.051297) can0 1BFC38B2#800164848383801A
(1493216817.055930) can0 30B#0000010000000080
(1493216817.075953) can0 1FD#0000000000000000
(1493216817.096587) can0 0E2#A2CD
(1493216817.107200) can0 30B#0000010000000080
(1493216817.135948) can0 1FD#0000000000000000
(1493216817.156332) can0 6C7#01010408040000
(1493216817.156707) can0 30B#0000010000000080
(1493216817.156710) can0 5F2#3300
(1493216817.195994) can0 1FD#0000000000000000
(1493216817.207227) can0 30B#0000010000000080
(1493216817.256462) can0 1FD#0000000000000000
(1493216817.256686) can0 30B#0000010000000080
(1493216817.296756) can0 428#7F21C65ADB75F20B
(1493216817.299198) can0 1BFC38B1#0000000000000000
(1493216817.299598) can0 1BFC38BA#0000000700000014
(1493216817.299823) can0 1BFC38BB#FFFFFFFFFFFFFFFF
(1493216817.300196) can0 1BFC38B9#000096408008FC68
(1493216817.300441) can0 1BFC38B8#0000000800000000
(1493216817.300829) can0 1BFC38B7#8001648425020229
(1493216817.301208) can0 1BFC38B6#000000B101020000
(1493216817.301451) can0 1BFC38B5#0502FF0001020000
(1493216817.301829) can0 1BFC38B4#FF00000000000000
(1493216817.302066) can0 1BFC38B3#8001648432408877
(1493216817.302405) can0 1BFC38B2#800164848383801A
(1493216817.306213) can0 30B#0000010000000080
(1493216817.316086) can0 1FD#0000000000000000
(1493216817.356333) can0 6C7#04010408040000
(1493216817.356728) can0 30B#0000010000000080
(1493216817.356730) can0 5F2#3300
(1493216817.356900) can0 643#000200
(1493216817.357352) can0 64E#0000000000000000
(1493216817.357615) can0 65E#8808B8C632B20700
(1493216817.357877) can0 6B8#6D08000000000000
(1493216817.358074) can0 6BC#AA838B51324C0700
(1493216817.376073) can0 1FD#0000000000000000
(1493216817.407214) can0 30B#0000010000000080
(1493216817.416078) can0 6B6#390C1C000C12
(1493216817.416990) can0 62F#4451000C12
(1493216817.425914) can0 6B7#BEB4800B08FF80FE
(1493216817.435952) can0 1FD#0000000000000000
(1493216817.456452) can0 30B#0000010000000080
(1493216817.495957) can0 1FD#0000000000000000
(1493216817.496874) can0 1F9#76511420
(1493216817.507196) can0 30B#0000010000000080
(1493216817.548204) can0 1BFC38B1#0000000000000000
(1493216817.548575) can0 1BFC38BB#FFFFFFFFFFFFFFFF
(1493216817.548811) can0 1BFC38BA#535553500000001A
(1493216817.549199) can0 1BFC38B9#010296408005A3F4
(1493216817.549448) can0 1BFC38B8#0000000800000000
(1493216817.549823) can0 1BFC38B7#8001648425020229
(1493216817.550074) can0 1BFC38B6#000000B48005A3F4
(1493216817.550456) can0 1BFC38B5#0502FF0001020000
(1493216817.550803) can0 1BFC38B4#FF00000000000000
(1493216817.551065) can0 1BFC38B3#8001648432408877
(1493216817.551426) can0 1BFC38B2#800164848383801A
(1493216817.555951) can0 6C7#04010408040000
(1493216817.556333) can0 1FD#0000000000000000
(1493216817.556571) can0 30B#0000010000000080
(1493216817.556671) can0 5F2#3300
(1493216817.607202) can0 30B#0000010000000080
(1493216817.616100) can0 1FD#0000000000000000
(1493216817.656452) can0 30B#0000010000000080
(1493216817.676072) can0 1FD#0000000000000000
(1493216817.696932) can0 2E6#276D94456271E346
(1493216817.707227) can0 30B#0000010000000080
(1493216817.735998) can0 1FD#0000000000000000
(1493216817.756327) can0 6C7#04010408040000
(1493216817.756707) can0 30B#0000010000000080
(1493216817.756710) can0 5F2#3300
(1493216817.796113) can0 1FD#0000000000000000
(1493216817.799071) can0 1BFC38B1#0000000000000000
(1493216817.799305) can0 1BFC38BB#FFFFFFFFFFFFFFFF
(1493216817.799697) can0 1BFC38BA#535553500000001A
(1493216817.799951) can0 1BFC38B9#010296408005A3F4
(1493216817.800350) can0 1BFC38B8#0000000800000000
(1493216817.800695) can0 1BFC38B7#8001648425020229
(1493216817.800948) can0 1BFC38B6#000000B683838070
(1493216817.801198) can0 1BFC38B5#0502FF0001020000
(1493216817.801586) can0 1BFC38B4#FF00000000000000
(1493216817.801808) can0 1BFC38B3#8001648432408877
(1493216817.802179) can0 1BFC38B2#8001648483838070
(1493216817.806026) can0 30B#0000010000000080
(1493216817.856452) can0 1FD#0000000000000000
(1493216817.856683) can0 30B#0000010000000080
(1493216817.856950) can0 65E#8808158426300400
(1493216817.897102) can0 043#D1A8CD017F706214
(1493216817.907199) can0 30B#0000010000000080
(1493216817.916073) can0 1FD#0000000000000000
(1493216817.956328) can0 6C7#04010408040000
(1493216817.956684) can0 30B#0000010000000080
(1493216817.956797) can0 5F2#3300
(1493216817.976062) can0 1FD#0000000000000000
(1493216818.007225) can0 30B#0000010000000080
(1493216818.036035) can0 1FD#0000000000000000
(1493216818.048234) can0 1BFC38B1#0000000000000000
(1493216818.048608) can0 1BFC38BB#FFFFFFFFFFFFFFFF
(1493216818.048829) can0 1BFC38BA#535553500000001A
(1493216818.049201) can0 1BFC38B9#010296408005A3F4
(1493216818.049442) can0 1BFC38B8#0000000800000000
(1493216818.049821) can0 1BFC38B7#8001648425020229
(1493216818.050074) can0 1BFC38B6#000000B9000034A8
(1493216818.050455) can0 1BFC38B5#0502FF0001020000
(1493216818.050706) can0 1BFC38B4#FF00000000000000
(1493216818.051043) can0 1BFC38B3#800164843100DDCC
(1493216818.051311) can0 1BFC38B2#8001648483838070
(1493216818.056091) can0 30B#0000010000000080
(1493216818.096117) can0 1FD#0000000000000000
(1493216818.097210) can0 78C#F5E96557D3
(1493216818.107203) can0 30B#0000010000000080
(1493216818.156353) can0 6C7#04010408040000
(1493216818.156730) can0 1FD#0000000000000000
(1493216818.156952) can0 30B#0000010000000080
(1493216818.157074) can0 5F2#3300
(1493216818.207242) can0 30B#0000010000000080
(1493216818.216692) can0 1FD#0000000000000000
(1493216818.256465) can0 30B#0000010000000080
(1493216818.276075) can0 1FD#0000000000000000
(1493216818.297466) can0 554#8271
(1493216818.299072) can0 1BFC38B1#0000000000000000
(1493216818.299316) can0 1BFC38BB#FFFFFFFFFFFFFFFF
(1493216818.299729) can0 1BFC38BA#535553500000001A
(1493216818.299923) can0 1BFC38B9#010296408005A3F4
(1493216818.300332) can0 1BFC38B8#0000000800000000
(1493216818.300707) can0 1BFC38B7#8001648425020265
(1493216818.300922) can0 1BFC38B6#000000BB000034A8
(1493216818.301210) can0 1BFC38B5#0502FF0001020000
(1493216818.301603) can0 1BFC38B4#FF00000000000000
(1493216818.301960) can0 1BFC38B3#800164843100DDCC
(1493216818.302163) can0 1BFC38B2#8001648483838070
(1493216818.306090) can0 30B#0000010000000080
(1493216818.336077) can0 1FD#0000000000000000
(1493216818.356323) can0 6C7#04010408040000
(1493216818.356726) can0 30B#0000010000000080
(1493216818.356829) can0 5F2#3300
(1493216818.357066) can0 643#000200
(1493216818.357336) can0 64E#0000000000000000
(1493216818.357601) can0 65E#8808E5E6689C0800
(1493216818.357821) can0 6B8#6D08000000000000
(1493216818.358211) can0 6BC#AA838B51324C0700
(1493216818.396077) can0 1FD#0000000000000000
(1493216818.407203) can0 30B#0000010000000080
(1493216818.407571) can0 630#33C203000F000403
(1493216818.407813) can0 62D#3482030012000300
(1493216818.408068) can0 631#34C2030013000301
(1493216818.416108) can0 6B6#390C1C000C13
(1493216818.417576) can0 62F#4451000C13
(1493216818.426073) can0 6B7#BEB4800B08FF80FE
(1493216818.456453) can0 1FD#0000000000000000
(1493216818.456690) can0 30B#0000010000000080
(1493216818.497625) can0 2B3#0EBD9E4C95
(1493216818.507191) can0 30B#0000010000000080
(1493216818.516109) can0 1FD#0000000000000000
(1493216818.548206) can0 1BFC38B1#0000000000000000
(1493216818.548574) can0 1BFC38BB#FFFFFFFFFFFFFFFF
(1493216818.548834) can0 1BFC38BA#0000000700000014
(1493216818.549200) can0 1BFC38B9#020096408008FC68
(1493216818.549574) can0 1BFC38B8#0000000800000000
(1493216818.549775) can0 1BFC38B7#8001648425020265
(1493216818.550155) can0 1BFC38B6#000000BE8008FC68
(1493216818.550421) can0 1BFC38B5#0502FF0001020000
(1493216818.550809) can0 1BFC38B4#FF00000000000000
(1493216818.551047) can0 1BFC38B3#800164843100DDCC
(1493216818.551419) can0 1BFC38B2#8001648483838070
(1493216818.555935) can0 6C7#04010408040000
(1493216818.556307) can0 30B#0000010000000080
(1493216818.556427) can0 5F2#3300
(1493216818.576037) can0 1FD#0000000000000000
(1493216818.607213) can0 30B#0000010000000080
(1493216818.636079) can0 1FD#0000000000000000
(1493216818.656460) can0 30B#0000010000000080
(1493216818.696087) can0 1FD#0000000000000000
(1493216818.697702) can0 387#
(1493216818.707217) can0 30B#0000010000000080
(1493216818.756383) can0 6C7#04010408040000
(1493216818.756703) can0 1FD#0000000000000000
(1493216818.756962) can0 30B#0000010000000080
(1493216818.757111) can0 5F2#3300
(1493216818.799098) can0 1BFC38B1#0000000000000000
(1493216818.799281) can0 1BFC38BB#FFFFFFFFFFFFFFFF
(1493216818.799715) can0 1BFC38BA#0000000700000014
(1493216818.799951) can0 1BFC38B9#020096408008FC68
(1493216818.800335) can0 1BFC38B8#0000000800000000
(1493216818.800696) can0 1BFC38B7#8001648425020265
(1493216818.800943) can0 1BFC38B6#000000C0838300D5
(1493216818.801319) can0 1BFC38B5#0502FF0001020000
(1493216818.801574) can0 1BFC38B4#FF00000000000000
(1493216818.801942) can0 1BFC38B3#800164843100DDCC
(1493216818.802192) can0 1BFC38B2#80016484838300D5
(1493216818.806121) can0 30B#0000010000000080
(1493216818.816080) can0 1FD#0000000000000000
(1493216818.856457) can0 30B#0000010000000080
(1493216818.856704) can0 65E#88081E055A130600
(1493216818.876122) can0 1FD#0000000000000000
(1493216818.897834) can0 6A8#8BD59D
(1493216818.907293) can0 30B#0000010000000080
(1493216818.936081) can0 1FD#0000000000000000
(1493216818.956445) can0 6C7#04010408040000
(1493216818.956654) can0 30B#0000010000000080
(1493216818.956785) can0 5F2#3300
(1493216818.996038) can0 1FD#0000000000000000
(1493216819.007209) can0 30B#0000010000000080
(1493216819.048257) can0 1BFC38B1#0000000000000000
(1493216819.048578) can0 1BFC38BB#FFFFFFFFFFFFFFFF
(1493216819.048955) can0 1BFC38BA#0000000700000014
(1493216819.049197) can0 1BFC38B9#020096408008FC68
(1493216819.049576) can0 1BFC38B8#0000000800000000
(1493216819.049831) can0 1BFC38B7#8001648425020265
(1493216819.050205) can0 1BFC38B6#000000C301020000
(1493216819.050440) can0 1BFC38B5#0502FF0001020000
(1493216819.050801) can0 1BFC38B4#FF00000000000000
(1493216819.051085) can0 1BFC38B3#800164843100FFEE
(1493216819.051421) can0 1BFC38B2#80016484838300D5
(1493216819.056108) can0 1FD#0000000000000000
(1493216819.056342) can0 30B#0000010000000080
(1493216819.098116) can0 748#22
(1493216819.107214) can0 30B#0000010000000080
(1493216819.116213) can0 1FD#0000000000000000
(1493216819.156491) can0 6C7#04010408040000
(1493216819.156704) can0 30B#0000010000000080
(1493216819.156830) can0 5F2#3400
(1493216819.176078) can0 1FD#0000000000000000
(1493216819.207192) can0 30B#0000010000000080
(1493216819.236121) can0 1FD#0000000000000000
(1493216819.256466) can0 30B#0000010000000080
(1493216819.296087) can0 1FD#0000000000000000
(1493216819.298206) can0 47B#912B9821BE246537
(1493216819.299214) can0 1BFC38B1#0000000000000000
(1493216819.299429) can0 1BFC38BB#FFFFFFFFFFFFFFFF
(1493216819.299826) can0 1BFC38BA#0000000700000014
(1493216819.300029) can0 1BFC38B9#020096408008FC68
(1493216819.300459) can0 1BFC38B8#0000000800000000
(1493216819.300692) can0 1BFC38B7#80016484250202A1
(1493216819.301045) can0 1BFC38B6#000000C501020000
(1493216819.301302) can0 1BFC38B5#0502FF0001020000
(1493216819.301651) can0 1BFC38B4#FF00000000000000
(1493216819.302074) can0 1BFC38B3#800164843100FFEE
(1493216819.302333) can0 1BFC38B2#80016484838300D5
(1493216819.306212) can0 30B#0000010000000080
(1493216819.356471) can0 6C7#04010408040000
(1493216819.356698) can0 1FD#0000000000000000
(1493216819.356955) can0 30B#0000010000000080
(1493216819.357191) can0 5F2#3400
(1493216819.357323) can0 643#000200
(1493216819.357702) can0 64E#0000000000000000
(1493216819.357952) can0 65E#88081D410B800400
(1493216819.358188) can0 6B8#6D08000000000000
(1493216819.358435) can0 6BC#AA838B51324C0700
(1493216819.407219) can0 30B#0000010000000080
(1493216819.416157) can0 1FD#0000000000000000
(1493216819.416402) can0 6B6#390C1C000C14
(1493216819.417313) can0 62F#4451000C14
(1493216819.426083) can0 6B7#BEB4900B08FF80FE
(1493216819.456444) can0 30B#0000010000000080
(1493216819.476086) can0 1FD#0000000000000000
(1493216819.498324) can0 138#3E95
(1493216819.507209) can0 30B#0000010000000080
(1493216819.536087) can0 1FD#0000000000000000
(1493216819.548365) can0 1BFC38B1#0000000000000000
(1493216819.548715) can0 1BFC38BB#FFFFFFFFFFFFFFFF
(1493216819.548955) can0 1BFC38BA#535553500000001A
(1493216819.549206) can0 1BFC38B9#030296408005A3F4
(1493216819.549577) can0 1BFC38B8#0000000800000000
(1493216819.549829) can0 1BFC38B7#80016484250202A1
(1493216819.550202) can0 1BFC38B6#000000C88005A3F4
(1493216819.550464) can0 1BFC38B5#0502FF0001020000
(1493216819.550778) can0 1BFC38B4#FF00000000000000
(1493216819.551071) can0 1BFC38B3#800164843100FFEE
(1493216819.551437) can0 1BFC38B2#80016484838300D5
(1493216819.556061) can0 6C7#04010408040000
(1493216819.556323) can0 30B#0000010000000080
(1493216819.556435) can0 5F2#3400
(1493216819.596093) can0 1FD#0000000000000000
(1493216819.607254) can0 30B#0000010000000080
(1493216819.656450) can0 1FD#0000000000000000
(1493216819.656797) can0 30B#0000010000000080
(1493216819.698495) can0 508#974F05
(1493216819.707342) can0 30B#0000010000000080
(1493216819.716358) can0 1FD#0000000000000000
(1493216819.756463) can0 6C7#04010408040000
(1493216819.756698) can0 30B#0000010000000080
(1493216819.756909) can0 5F2#3400
(1493216819.776119) can0 1FD#0000000000000000
(1493216819.799486) can0 1BFC38B1#0000000000000000
(1493216819.799867) can0 1BFC38B9#030296408005A3F4
(1493216819.800067) can0 1BFC38BA#535553500000001A
(1493216819.800456) can0 1BFC38B8#0000000800000000
(1493216819.800705) can0 1BFC38B7#80016484250202A1
(1493216819.801078) can0 1BFC38B6#000000CA8383803C
(1493216819.801450) can0 1BFC38B5#0502FF0001020000
(1493216819.801720) can0 1BFC38B4#FF00000000000000
(1493216819.802079) can0 1BFC38B3#800164843100FFEE
(1493216819.802330) can0 1BFC38B2#800164848383803C
(1493216819.802682) can0 1BFC38BB#FFFFFFFFFFFFFFFF
(1493216819.806452) can0 30B#0000010000000080
(1493216819.836220) can0 1FD#0000000000000000
(1493216819.856586) can0 30B#0000010000000080
(1493216819.856835) can0 65E#8808193335DF0500
(1493216819.896093) can0 1FD#0000000000000000
(1493216819.898727) can0 586#3C03052839288538
(1493216819.907362) can0 30B#0000010000000080
(1493216819.956442) can0 6C7#04010408040000
(1493216819.956655) can0 1FD#0000000000000000
(1493216819.957047) can0 30B#0000010000000080
(1493216819.957176) can0 5F2#3500
(1493216820.007361) can0 30B#0000010000000080
(1493216820.016344) can0 1FD#0000000000000000
(1493216820.048334) can0 1BFC38B1#0000000000000000
(1493216820.048665) can0 1BFC38BB#FFFFFFFFFFFFFFFF
(1493216820.048974) can0 1BFC38BA#535553500000001A
(1493216820.049179) can0 1BFC38B9#030296408005A3F4
(1493216820.049581) can0 1BFC38B8#0000000800000000
(1493216820.049830) can0 1BFC38B7#80016484250202A1
(1493216820.050211) can0 1BFC38B6#000000CD000034A8
(1493216820.050577) can0 1BFC38B5#0502FF0001020000
(1493216820.050827) can0 1BFC38B4#FF00000000000000
(1493216820.051212) can0 1BFC38B3#8001648432404433
(1493216820.051442) can0 1BFC38B2#800164848383803C
(1493216820.056166) can0 30B#0000010000000080
(1493216820.076106) can0 1FD#0000000000000000
(1493216820.098709) can0 35F#CF831D12E6B68204
(1493216820.107348) can0 30B#0000010000000080
(1493216820.136080) can0 1FD#0000000000000000
(1493216820.156492) can0 6C7#04010408040000
(1493216820.156706) can0 30B#0000010000000080
(1493216820.156968) can0 5F2#3600
(1493216820.196102) can0 1FD#0000000000000000
(1493216820.207356) can0 30B#0000010000000080
(1493216820.256624) can0 1FD#0000000000000000
(1493216820.256825) can0 30B#0000010000000080
(1493216820.298976) can0 2FB#96162E
(1493216820.299185) can0 1BFC38B1#0000000000000000
(1493216820.299578) can0 1BFC38BB#FFFFFFFFFFFFFFFF
(1493216820.299945) can0 1BFC38BA#535553500000001A
(1493216820.300205) can0 1BFC38B9#030296408005A3F4
(1493216820.300606) can0 1BFC38B8#0000000800000000
(1493216820.300848) can0 1BFC38B7#80016484250202DD
(1493216820.301227) can0 1BFC38B6#000000CF000034A8
(1493216820.301453) can0 1BFC38B5#0502FF0001020000
(1493216820.301852) can0 1BFC38B4#FF00000000000000
(1493216820.302078) can0 1BFC38B3#8001648432404433
(1493216820.302474) can0 1BFC38B2#800164848383803C
(1493216820.306185) can0 30B#0000010000000080
(1493216820.316435) can0 1FD#0000000000000000
(1493216820.356466) can0 6C7#04010408040000
(1493216820.356703) can0 30B#0000010000000080
(1493216820.356964) can0 5F2#3700
(1493216820.357024) can0 643#000200
(1493216820.357484) can0 64E#0000000000000000
(1493216820.357689) can0 65E#8808407482430700
(1493216820.357998) can0 6B8#6D08000000000000
(1493216820.358210) can0 6BC#AA838B51324C0700
(1493216820.376192) can0 1FD#0000000000000000
(1493216820.407376) can0 30B#0000010000000080
(1493216820.407703) can0 630#33C37803E0080272
(1493216820.407968) can0 631#34C37807FE000000
(1493216820.408186) can0 62D#34837801F8000000
(1493216820.416251) can0 6B6#390C1C000C15
(1493216820.417203) can0 62F#4451000C15
(1493216820.426235) can0 6B7#BEB4900B08FF80FE
(1493216820.436209) can0 1FD#0000000000000000
(1493216820.456228) can0 30B#0000010000000080
(1493216820.496226) can0 1FD#0000000000000000
(1493216820.499219) can0 197#45
(1493216820.507482) can0 30B#0000010000000080
(1493216820.548368) can0 1BFC38B1#0000000000000000
(1493216820.548707) can0 1BFC38BB#FFFFFFFFFFFFFFFF
(1493216820.549098) can0 1BFC38BA#0000000700000014
(1493216820.549304) can0 1BFC38B9#040096408008FC68
(1493216820.549704) can0 1BFC38B8#0000000800000000
(1493216820.549959) can0 1BFC38B7#80016484250202DD
(1493216820.550331) can0 1BFC38B6#000000D28008FC68
(1493216820.550675) can0 1BFC38B5#0502FF0001020000
(1493216820.550936) can0 1BFC38B4#FF00000000000000
(1493216820.551194) can0 1BFC38B3#8001648432404433
(1493216820.551560) can0 1BFC38B2#800164848383803C
(1493216820.556216) can0 1FD#0000000000000000
(1493216820.556456) can0 30B#0000010000000080
(1493216820.556712) can0 5F2#3800
(1493216820.607458) can0 30B#0000010000000080
(1493216820.616333) can0 1FD#0000000000000000
(1493216820.656210) can0 30B#0000010000000080
(1493216820.676208) can0 1FD#0000000000000000
(1493216820.699411) can0 323#0D93BE719E5FC8
(1493216820.707488) can0 30B#0000010000000080
(1493216820.736209) can0 1FD#0000000000000000
(1493216820.756211) can0 30B#0000010000000080
(1493216820.756443) can0 5F2#3800
(1493216820.796214) can0 1FD#0000000000000000
(1493216820.799330) can0 1BFC38B1#0000000000000000
(1493216820.799707) can0 1BFC38BB#FFFFFFFFFFFFFFFF
(1493216820.799952) can0 1BFC38BA#0000000700000014
(1493216820.800189) can0 1BFC38B9#040096408008FC68
(1493216820.800581) can0 1BFC38B8#0000000800000000
(1493216820.800826) can0 1BFC38B7#80016484250202DD
(1493216820.801220) can0 1BFC38B6#000000D483838072
(1493216820.801591) can0 1BFC38B5#0502FF0001020000
(1493216820.801847) can0 1BFC38B4#FF00000000000000
(1493216820.802232) can0 1BFC38B3#8001648432404433
(1493216820.802437) can0 1BFC38B2#8001648483838072
(1493216820.806344) can0 30B#0000010000000080
(1493216820.856191) can0 1FD#0000000000000000
(1493216820.856595) can0 30B#0000010000000080
(1493216820.856821) can0 65E#8808A5423FB80500
(1493216820.899511) can0 1B1#5C842D43E9225C3A
(1493216820.907468) can0 30B#0000010000000080
(1493216820.916340) can0 1FD#0000000000000000
(1493216820.956200) can0 30B#0000010000000080
(1493216820.956442) can0 5F2#3800
(1493216820.976220) can0 1FD#0000000000000000
(1493216821.007466) can0 30B#0000010000000080
(1493216821.036237) can0 1FD#0000000000000000
(1493216821.048463) can0 1BFC38B1#0000000000000000
(1493216821.048695) can0 1BFC38BB#FFFFFFFFFFFFFFFF
(1493216821.049082) can0 1BFC38BA#0000000700000014
(1493216821.049311) can0 1BFC38B9#040096408008FC68
(1493216821.049655) can0 1BFC38B8#0000000800000000
(1493216821.049949) can0 1BFC38B7#80016484250202DD
(1493216821.050322) can0 1BFC38B6#000000D701020000
(1493216821.050688) can0 1BFC38B5#0502FF0001020000
(1493216821.050923) can0 1BFC38B4#FF00000000000000
(1493216821.051307) can0 1BFC38B3#8001648431009988
(1493216821.051676) can0 1BFC38B2#8001648483838072
(1493216821.056154) can0 30B#0000010000000080
(1493216821.096246) can0 1FD#0000000000000000
(1493216821.099586) can0 301#ADF3CA1409C01C38
(1493216821.107466) can0 30B#0000010000000080
(1493216821.156311) can0 1FD#0000000000000000
(1493216821.156585) can0 30B#0000010000000080
(1493216821.156708) can0 5F2#3800
(1493216821.207469) can0 30B#0000010000000080
(1493216821.217477) can0 1FD#0000000000000000
(1493216821.256333) can0 30B#0000010000000080
(1493216821.276211) can0 1FD#0000000000000000
(1493216821.299205) can0 1BFC38B1#0000000000000000
(1493216821.299560) can0 1BFC38BB#FFFFFFFFFFFFFFFF
(1493216821.299660) can0 0CE#6542640D
(1493216821.299942) can0 1BFC38BA#0000000700000014
(1493216821.300283) can0 1BFC38B9#040096408008FC68
(1493216821.300657) can0 1BFC38B8#0000000800000000
(1493216821.300946) can0 1BFC38B7#8001648425020219
(1493216821.301328) can0 1BFC38B6#000000D901020000
(1493216821.301703) can0 1BFC38B5#0502FF0001020000
