(1493280493.702059) can0 30B#5F00110000000098
(1493280493.712279) can0 3C0#6A7E1335
(1493280493.731440) can0 1FD#0000000000000000
(1493280493.752582) can0 30B#5F00110000000098
(1493280493.791448) can0 1FD#0000000000000000
(1493280493.793700) can0 1BFC38B1#0000000000000000
(1493280493.793950) can0 1BFC38BB#FFFFFFFFFFFFFFFF
(1493280493.794349) can0 1BFC38BA#535553500000001A
(1493280493.794574) can0 1BFC38B9#010296408005A3F4
(1493280493.794959) can0 1BFC38B8#0000000800000000
(1493280493.795213) can0 1BFC38B7#8001648425020210
(1493280493.795588) can0 1BFC38B6#0000132500000000
(1493280493.795833) can0 1BFC38B5#0502FF9202028292
(1493280493.796203) can0 1BFC38B4#00010101001F0003
(1493280493.796441) can0 1BFC38B3#8001648431009988
(1493280493.796805) can0 1BFC38B2#8001648483838039
(1493280493.802804) can0 30B#5F00110000000098
(1493280493.815665) can0 3C0#6A7E1335
(1493280493.852452) can0 6C7#04051101020001
(1493280493.852827) can0 1FD#0000000000000000
(1493280493.853072) can0 30B#5F00110000000098
(1493280493.853192) can0 5F2#CC00
(1493280493.902077) can0 30B#5F00110000000098
(1493280493.911828) can0 1FD#0000000000000000
(1493280493.919187) can0 3C0#6A7E1335
(1493280493.952584) can0 30B#5F00110000000098
(1493280493.971484) can0 1FD#0000000000000000
(1493280494.002084) can0 30B#5F00110000000098
(1493280494.022692) can0 3C0#6A7E1335
(1493280494.031459) can0 1FD#0000000000000000
(1493280494.045090) can0 1BFC38B1#0000000000000000
(1493280494.045303) can0 1BFC38BB#FFFFFFFFFFFFFFFF
(1493280494.045699) can0 1BFC38BA#535553500000001A
(1493280494.045925) can0 1BFC38B9#010296408005A3F4
(1493280494.046315) can0 1BFC38B8#0000000800000000
(1493280494.046571) can0 1BFC38B7#8001648425020210
(1493280494.046938) can0 1BFC38B6#00001328001F0003
(1493280494.047174) can0 1BFC38B5#0502FF9202028292
(1493280494.047566) can0 1BFC38B4#00010101001F0003
(1493280494.047959) can0 1BFC38B3#800164843100BBAA
(1493280494.048244) can0 1BFC38B2#80016484838300BE
(1493280494.051488) can0 6C7#04051101020001
(1493280494.051835) can0 30B#5F00110000000098
(1493280494.051951) can0 5F2#CD00
(1493280494.052078) can0 643#000200
(1493280494.052466) can0 64E#00B1040000000000
(1493280494.052689) can0 65E#880848E393780800
(1493280494.052943) can0 6B8#6D08000000000000
(1493280494.053313) can0 6BC#92823651324C07BF
(1493280494.062463) can0 62D#348F00
(1493280494.091495) can0 1FD#0000000000000000
(1493280494.102091) can0 30B#5F00110000000098
(1493280494.126424) can0 3C0#6A7E1335
(1493280494.152716) can0 1FD#0000000000000000
(1493280494.152965) can0 30B#5F00110000000098
(1493280494.153073) can0 631#34D400
(1493280494.161713) can0 6B6#390C1C000E0B
(1493280494.161958) can0 6B7#BEB4000008FF80FE
(1493280494.202093) can0 30B#5F00110000000098
(1493280494.211620) can0 1FD#0000000000000000
(1493280494.230095) can0 3C0#6A7E1335
(1493280494.252608) can0 6C7#04051101020001
(1493280494.252980) can0 30B#5F00110000000098
(1493280494.253101) can0 5F2#CD00
(1493280494.271453) can0 1FD#0000000000000000
(1493280494.293722) can0 1BFC38B1#0000000000000000
(1493280494.294097) can0 1BFC38BB#FFFFFFFFFFFFFFFF
(1493280494.294329) can0 1BFC38BA#535553500000001A
(1493280494.294623) can0 1BFC38B9#010296408005A3F4
(1493280494.294995) can0 1BFC38B8#0000000800000000
(1493280494.295346) can0 1BFC38B7#8001648425020210
(1493280494.295613) can0 1BFC38B6#0000132A001F34A8
(1493280494.295994) can0 1BFC38B5#0502FF9202028292
(1493280494.296206) can0 1BFC38B4#00010101001F0003
(1493280494.296606) can0 1BFC38B3#800164843100BBAA
(1493280494.296838) can0 1BFC38B2#80016484838300BE
(1493280494.302857) can0 30B#5F00110000000098
(1493280494.331508) can0 1FD#0000000000000000
(1493280494.333725) can0 3C0#6A7E1335
(1493280494.352880) can0 30B#5F00110000000098
(1493280494.391635) can0 1FD#0000000000000000
(1493280494.402106) can0 30B#5F00110000000098
(1493280494.437184) can0 3C0#6A7E1335
(1493280494.452741) can0 6C7#04051101020001
(1493280494.452974) can0 1FD#0000000000000000
(1493280494.453234) can0 30B#5F00110000000098
(1493280494.453496) can0 5F2#CD00
(1493280494.502099) can0 30B#5F00110000000098
(1493280494.511891) can0 1FD#0000000000000000
(1493280494.541367) can0 3C0#6A7E1335
(1493280494.545014) can0 1BFC38B1#0000000000000000
(1493280494.545375) can0 1BFC38BB#FFFFFFFFFFFFFFFF
(1493280494.545603) can0 1BFC38BA#535553500000001A
(1493280494.545993) can0 1BFC38B9#020096408008FC68
(1493280494.546340) can0 1BFC38B8#0000000800000000
(1493280494.546580) can0 1BFC38B7#800164842502024C
(1493280494.546954) can0 1BFC38B6#0000132D00000000
(1493280494.547207) can0 1BFC38B5#0502FF9202028292
(1493280494.547579) can0 1BFC38B4#00010101001F0003
(1493280494.547813) can0 1BFC38B3#800164843100BBAA
(1493280494.548214) can0 1BFC38B2#80016484838300BE
(1493280494.553249) can0 30B#5F00110000000098
(1493280494.553469) can0 65E#8808713575DB0700
(1493280494.562829) can0 62F#4451000E0C
(1493280494.571614) can0 1FD#0000000000000000
(1493280494.602144) can0 30B#5F00110000000098
(1493280494.631648) can0 1FD#0000000000000000
(1493280494.645230) can0 3C0#6A7E1335
(1493280494.652647) can0 6C7#04051101020001
(1493280494.652861) can0 30B#5F00110000000098
(1493280494.653145) can0 5F2#CD00
(1493280494.691620) can0 1FD#0000000000000000
(1493280494.702138) can0 30B#5F00110000000098
(1493280494.748854) can0 3C0#6A7E1335
(1493280494.752733) can0 1FD#0000000000000000
(1493280494.752973) can0 30B#5F00110000000098
(1493280494.793869) can0 1BFC38B1#0000000000000000
(1493280494.794119) can0 1BFC38BB#FFFFFFFFFFFFFFFF
(1493280494.794368) can0 1BFC38BA#0000000700000014
(1493280494.794756) can0 1BFC38B9#020096408008FC68
(1493280494.795131) can0 1BFC38B8#0000000800000000
(1493280494.795383) can0 1BFC38B7#800164842502024C
(1493280494.795703) can0 1BFC38B6#0000132F00000000
(1493280494.796004) can0 1BFC38B5#0502FF9202028292
(1493280494.796400) can0 1BFC38B4#00010101001F0003
(1493280494.796770) can0 1BFC38B3#800164843100BBAA
(1493280494.796993) can0 1BFC38B2#80016484838300BE
(1493280494.803010) can0 30B#5F00110000000098
(1493280494.811628) can0 1FD#0000000000000000
(1493280494.852523) can0 3C0#6A7E1335
(1493280494.852527) can0 6C7#04051101020001
(1493280494.852840) can0 30B#5F00110000000098
(1493280494.853076) can0 5F2#CD00
(1493280494.871633) can0 1FD#0000000000000000
(1493280494.902150) can0 30B#5F00110000000098
(1493280494.931644) can0 1FD#0000000000000000
(1493280494.952789) can0 30B#5F00110000000098
(1493280494.956495) can0 3C0#6A7E1335
(1493280494.991660) can0 1FD#0000000000000000
(1493280495.002281) can0 30B#5F00110000000098
(1493280495.045010) can0 1BFC38B1#0000000000000000
(1493280495.045394) can0 1BFC38BB#FFFFFFFFFFFFFFFF
(1493280495.045773) can0 1BFC38BA#0000000700000014
(1493280495.046004) can0 1BFC38B9#020096408008FC68
(1493280495.046382) can0 1BFC38B8#0000000800000000
(1493280495.046658) can0 1BFC38B7#800164842502024C
(1493280495.047004) can0 1BFC38B6#00001332001F0003
(1493280495.047252) can0 1BFC38B5#0502FF9202028292
(1493280495.047630) can0 1BFC38B4#00010101001F0003
(1493280495.047882) can0 1BFC38B3#80016484324000FF
(1493280495.048225) can0 1BFC38B2#80016484838380F5
(1493280495.053108) can0 6C7#04051101020001
(1493280495.053486) can0 1FD#0000000000000000
(1493280495.053748) can0 30B#5F00110000000098
(1493280495.053838) can0 5F2#CD00
(1493280495.054154) can0 643#000200
(1493280495.054338) can0 64E#00B1040000000000
(1493280495.054612) can0 65E#88085AF38F8E0800
(1493280495.054985) can0 6B8#6D08000000000000
(1493280495.055252) can0 6BC#92823651324C07C0
(1493280495.060120) can0 3C0#6A7E1335
(1493280495.102267) can0 30B#5F00110000000098
(1493280495.111667) can0 1FD#0000000000000000
(1493280495.152887) can0 30B#5F00110000000098
(1493280495.162127) can0 6B6#390C1C000E0C
(1493280495.162500) can0 6B7#BEB4000008FF80FE
(1493280495.163717) can0 3C0#6A7E1335
(1493280495.171619) can0 1FD#0000000000000000
(1493280495.202147) can0 30B#5F00110000000098
(1493280495.231639) can0 1FD#0000000000000000
(1493280495.252891) can0 6C7#04051101020001
(1493280495.253091) can0 30B#5F00110000000098
(1493280495.253219) can0 5F2#CD00
(1493280495.267354) can0 3C0#6A7E1335
(1493280495.291678) can0 1FD#0000000000000000
(1493280495.293891) can0 1BFC38B1#0000000000000000
(1493280495.294156) can0 1BFC38BB#FFFFFFFFFFFFFFFF
(1493280495.294524) can0 1BFC38BA#0000000700000014
(1493280495.294753) can0 1BFC38B9#020096408008FC68
(1493280495.295155) can0 1BFC38B8#0000000800000000
(1493280495.295385) can0 1BFC38B7#800164842502024C
(1493280495.295774) can0 1BFC38B6#0000133402028292
(1493280495.295981) can0 1BFC38B5#0502FF9202028292
(1493280495.296404) can0 1BFC38B4#00010101001F0003
(1493280495.296657) can0 1BFC38B3#80016484324000FF
(1493280495.296998) can0 1BFC38B2#80016484838380F5
(1493280495.303034) can0 30B#5F00110000000098
(1493280495.352656) can0 1FD#0000000000000000
(1493280495.352981) can0 30B#5F00110000000098
(1493280495.371003) can0 3C0#6A7E1335
(1493280495.402304) can0 30B#5F00110000000098
(1493280495.411933) can0 1FD#0000000000000000
(1493280495.452612) can0 6C7#04051101020001
(1493280495.452973) can0 30B#5F00110000000098
(1493280495.453097) can0 5F2#CC00
(1493280495.471637) can0 1FD#0000000000000000
(1493280495.474871) can0 3C0#6A7E1335
(1493280495.502291) can0 30B#5F00110000000098
(1493280495.531657) can0 1FD#0000000000000000
(1493280495.545153) can0 1BFC38B1#0000000000000000
(1493280495.545352) can0 1BFC38BB#FFFFFFFFFFFFFFFF
(1493280495.545775) can0 1BFC38BA#0000000700000014
(1493280495.546027) can0 1BFC38B9#030296408005A3F4
(1493280495.546357) can0 1BFC38B8#0000000800000000
(1493280495.546602) can0 1BFC38B7#8001648425020288
(1493280495.546979) can0 1BFC38B6#0000133700000000
(1493280495.547228) can0 1BFC38B5#0502FF9202028292
(1493280495.547602) can0 1BFC38B4#00010101001F0003
(1493280495.547855) can0 1BFC38B3#80016484324000FF
(1493280495.548225) can0 1BFC38B2#80016484838380F5
(1493280495.553289) can0 30B#5F00110000000098
(1493280495.553486) can0 65E#88082658BEFF0600
(1493280495.562771) can0 62F#4451000E0D
(1493280495.578884) can0 3C0#6A7E1335
(1493280495.591641) can0 1FD#0000000000000000
(1493280495.602313) can0 30B#5F00110000000098
(1493280495.652698) can0 6C7#04051101020001
(1493280495.653056) can0 1FD#0000000000000000
(1493280495.653306) can0 30B#5F00110000000098
(1493280495.653418) can0 5F2#CC00
(1493280495.653660) can0 630#33CF00
(1493280495.682544) can0 3C0#6A7E1335
(1493280495.702303) can0 30B#5F00110000000098
(1493280495.711907) can0 1FD#0000000000000000
(1493280495.752802) can0 30B#5F00110000000098
(1493280495.771683) can0 1FD#0000000000000000
(1493280495.786505) can0 3C0#6A7E1335
(1493280495.793922) can0 1BFC38B1#0000000000000000
(1493280495.794111) can0 1BFC38BB#FFFFFFFFFFFFFFFF
(1493280495.794509) can0 1BFC38BA#535553500000001A
(1493280495.794885) can0 1BFC38B9#030296408005A3F4
(1493280495.795131) can0 1BFC38B8#0000000800000000
(1493280495.795393) can0 1BFC38B7#8001648425020288
(1493280495.795769) can0 1BFC38B6#0000133900000000
(1493280495.795992) can0 1BFC38B5#0502FF9202028292
(1493280495.796397) can0 1BFC38B4#00010101001F0003
(1493280495.796647) can0 1BFC38B3#80016484324000FF
(1493280495.797020) can0 1BFC38B2#80016484838380F5
(1493280495.803050) can0 30B#5F00110000000098
(1493280495.831665) can0 1FD#0000000000000000
(1493280495.852633) can0 6C7#04051101020001
(1493280495.852927) can0 30B#5F00110000000098
(1493280495.853169) can0 5F2#CC00
(1493280495.890522) can0 3C0#6A7E1335
(1493280495.891629) can0 1FD#0000000000000000
(1493280495.902309) can0 30B#5F00110000000098
(1493280495.952925) can0 1FD#0000000000000000
(1493280495.953047) can0 30B#5F00110000000098
(1493280495.994552) can0 3C0#6A7E1335
(1493280496.002314) can0 30B#5F00110000000098
(1493280496.012252) can0 1FD#0000000000000000
(1493280496.045191) can0 1BFC38B1#0000000000000000
(1493280496.045609) can0 1BFC38BB#FFFFFFFFFFFFFFFF
(1493280496.045974) can0 1BFC38BA#535553500000001A
(1493280496.046168) can0 1BFC38B9#030296408005A3F4
(1493280496.046546) can0 1BFC38B8#0000000800000000
(1493280496.046829) can0 1BFC38B7#8001648425020288
(1493280496.047167) can0 1BFC38B6#0000133C001F0003
(1493280496.047411) can0 1BFC38B5#0502FF9202028292
(1493280496.047792) can0 1BFC38B4#00010101001F0003
(1493280496.048062) can0 1BFC38B3#8001648431005544
(1493280496.048435) can0 1BFC38B2#800164848383807B
(1493280496.053339) can0 6C7#04051101020001
(1493280496.053720) can0 30B#5F00110000000098
(1493280496.053885) can0 5F2#CC00
(1493280496.054015) can0 643#000200
(1493280496.054316) can0 64E#00B1040000000000
(1493280496.054527) can0 65E#8808F155618A0300
(1493280496.054938) can0 6B8#6D08000000000000
(1493280496.055145) can0 6BC#92823651324C07C1
(1493280496.062927) can0 62D#3490205200
(1493280496.071667) can0 1FD#0000000000000000
(1493280496.098264) can0 3C0#6A7E1335
(1493280496.102335) can0 30B#5F00110000000098
(1493280496.131687) can0 1FD#0000000000000000
(1493280496.152954) can0 30B#5F00110000000098
(1493280496.153267) can0 631#34D500
(1493280496.162704) can0 6B6#390C1C000E0D
(1493280496.163009) can0 6B7#BEB4000008FF80FE
(1493280496.191701) can0 1FD#0000000000000000
(1493280496.202180) can0 3C0#6A7E1335
(1493280496.202297) can0 30B#5F00110000000098
(1493280496.252939) can0 6C7#04051101020001
(1493280496.253139) can0 1FD#0000000000000000
(1493280496.253397) can0 30B#5F00110000000098
(1493280496.253513) can0 5F2#CC00
(1493280496.293982) can0 1BFC38B1#0000000000000000
(1493280496.294183) can0 1BFC38BB#FFFFFFFFFFFFFFFF
(1493280496.294606) can0 1BFC38BA#535553500000001A
(1493280496.294939) can0 1BFC38B9#030296408005A3F4
(1493280496.295185) can0 1BFC38B8#0000000800000000
(1493280496.295438) can0 1BFC38B7#8001648425020288
(1493280496.295775) can0 1BFC38B6#0000133E001F34A8
(1493280496.296019) can0 1BFC38B5#0502FF9202028292
(1493280496.296419) can0 1BFC38B4#00010101001F0003
(1493280496.296789) can0 1BFC38B3#8001648431005544
(1493280496.297055) can0 1BFC38B2#800164848383807B
(1493280496.303047) can0 30B#5F00110000000098
(1493280496.306282) can0 3C0#6A7E1335
(1493280496.311849) can0 1FD#0000000000000000
(1493280496.352822) can0 30B#5F00110000000098
(1493280496.371702) can0 1FD#0000000000000000
(1493280496.402321) can0 30B#5F00110000000098
(1493280496.410048) can0 3C0#6A7E1335
(1493280496.431712) can0 1FD#0000000000000000
(1493280496.452736) can0 6C7#04051101020001
(1493280496.453101) can0 30B#5F00110000000098
(1493280496.453207) can0 5F2#CC00
(1493280496.491683) can0 1FD#0000000000000000
(1493280496.502340) can0 30B#5F00110000000098
(1493280496.514066) can0 3C0#6A7E1335
(1493280496.545218) can0 1BFC38B1#0000000000000000
(1493280496.545591) can0 1BFC38BB#FFFFFFFFFFFFFFFF
(1493280496.545962) can0 1BFC38BA#535553500000001A
(1493280496.546244) can0 1BFC38B9#040096408008FC68
(1493280496.546441) can0 1BFC38B8#0000000800000000
(1493280496.546835) can0 1BFC38B7#80016484250202C4
(1493280496.547081) can0 1BFC38B6#0000134100000000
(1493280496.547428) can0 1BFC38B5#0502FF9202028292
(1493280496.547678) can0 1BFC38B4#00010101001F0003
(1493280496.548056) can0 1BFC38B3#8001648431005544
(1493280496.548469) can0 1BFC38B2#800164848383807B
(1493280496.553345) can0 1FD#0000000000000000
(1493280496.553709) can0 30B#5F00110000000098
(1493280496.553927) can0 65E#88087BA663530500
(1493280496.562839) can0 62F#4451000E0E
(1493280496.602314) can0 30B#5F00110000000098
(1493280496.611923) can0 1FD#0000000000000000
(1493280496.617913) can0 3C0#6A7E1335
(1493280496.652708) can0 6C7#04051101020001
(1493280496.652943) can0 30B#5F00110000000098
(1493280496.653232) can0 5F2#CC00
(1493280496.671834) can0 1FD#0000000000000000
(1493280496.702337) can0 30B#5F00110000000098
(1493280496.721677) can0 3C0#6A7E1335
(1493280496.731823) can0 1FD#0000000000000000
(1493280496.752978) can0 30B#5F00110000000098
(1493280496.791806) can0 1FD#0000000000000000
(1493280496.793918) can0 1BFC38B1#0000000000000000
(1493280496.794284) can0 1BFC38BB#FFFFFFFFFFFFFFFF
(1493280496.794536) can0 1BFC38BA#0000000700000014
(1493280496.794929) can0 1BFC38B9#040096408008FC68
(1493280496.795159) can0 1BFC38B8#0000000800000000
(1493280496.795567) can0 1BFC38B7#80016484250202C4
(1493280496.795982) can0 1BFC38B6#0000134300000000
(1493280496.796228) can0 1BFC38B5#0502FF9202028292
(1493280496.796455) can0 1BFC38B4#00010101001F0003
(1493280496.796850) can0 1BFC38B3#8001648431005544
(1493280496.797099) can0 1BFC38B2#800164848383807B
(1493280496.803191) can0 30B#5F00110000000098
(1493280496.825605) can0 3C0#6A7E1335
(1493280496.852843) can0 6C7#04051101020001
(1493280496.853087) can0 1FD#0000000000000000
(1493280496.853337) can0 30B#5F00110000000098
(1493280496.853582) can0 5F2#CC00
(1493280496.902349) can0 30B#5F00110000000098
(1493280496.912137) can0 1FD#0000000000000000
(1493280496.929329) can0 3C0#6A7E1335
(1493280496.952845) can0 30B#5F00110000000098
(1493280496.971865) can0 1FD#0000000000000000
(1493280497.002349) can0 30B#5F00110000000098
(1493280497.031832) can0 1FD#0000000000000000
(1493280497.033357) can0 3C0#6A7E1335
(1493280497.045370) can0 1BFC38B1#0000000000000000
(1493280497.045723) can0 1BFC38BB#FFFFFFFFFFFFFFFF
(1493280497.046059) can0 1BFC38BA#0000000700000014
(1493280497.046332) can0 1BFC38B9#040096408008FC68
(1493280497.046704) can0 1BFC38B8#0000000800000000
(1493280497.046952) can0 1BFC38B7#80016484250202C4
(1493280497.047328) can0 1BFC38B6#00001346001F0003
(1493280497.047575) can0 1BFC38B5#0502FF9202028292
(1493280497.047978) can0 1BFC38B4#00010101001F0003
(1493280497.048212) can0 1BFC38B3#8001648431007766
(1493280497.048607) can0 1BFC38B2#80016484838300B0
(1493280497.051831) can0 6C7#04051101020001
(1493280497.052133) can0 30B#5F00110000000098
(1493280497.052244) can0 5F2#CC00
(1493280497.052468) can0 643#000200
(1493280497.052703) can0 64E#00B1040000000000
(1493280497.052952) can0 65E#880898968EF00900
(1493280497.053325) can0 6B8#6D08000000000000
(1493280497.053590) can0 6BC#92823651324C07C3
(1493280497.091869) can0 1FD#0000000000000000
(1493280497.102392) can0 30B#5F00110000000098
(1493280497.136841) can0 3C0#6A7E1335
(1493280497.153101) can0 1FD#0000000000000000
(1493280497.153358) can0 30B#5F00110000000098
(1493280497.162379) can0 6B6#390C1C000E0E
(1493280497.162600) can0 6B7#BEB4000008FF80FE
(1493280497.202353) can0 30B#5F00110000000098
(1493280497.212014) can0 1FD#0000000000000000
(1493280497.240622) can0 3C0#6A7E1335
(1493280497.253122) can0 6C7#04051101020001
(1493280497.253361) can0 30B#5F00110000000098
(1493280497.253492) can0 5F2#CC00
(1493280497.271858) can0 1FD#0000000000000000
(1493280497.294012) can0 1BFC38B1#0000000000000000
(1493280497.294354) can0 1BFC38BB#FFFFFFFFFFFFFFFF
(1493280497.294608) can0 1BFC38BA#0000000700000014
(1493280497.294993) can0 1BFC38B9#040096408008FC68
(1493280497.295367) can0 1BFC38B8#0000000800000000
(1493280497.295623) can0 1BFC38B7#80016484250202C4
(1493280497.295988) can0 1BFC38B6#0000134802028292
(1493280497.296267) can0 1BFC38B5#0502FF9202028292
(1493280497.296635) can0 1BFC38B4#00010101001F0003
(1493280497.296866) can0 1BFC38B3#8001648431007766
(1493280497.297239) can0 1BFC38B2#80016484838300B0
(1493280497.303265) can0 30B#5F00110000000098
(1493280497.331872) can0 1FD#0000000000000000
(1493280497.344594) can0 3C0#6A7E1335
(1493280497.352988) can0 30B#5F00110000000098
(1493280497.391865) can0 1FD#0000000000000000
(1493280497.402367) can0 30B#5F00110000000098
(1493280497.447943) can0 3C0#6A7E1335
(1493280497.452864) can0 6C7#04051101020001
(1493280497.453120) can0 1FD#0000000000000000
(1493280497.453517) can0 30B#5F00110000000098
(1493280497.453621) can0 5F2#CC00
(1493280497.502371) can0 30B#5F00110000000098
(1493280497.512151) can0 1FD#0000000000000000
(1493280497.545257) can0 1BFC38B1#0000000000000000
(1493280497.545620) can0 1BFC38BB#FFFFFFFFFFFFFFFF
(1493280497.545996) can0 1BFC38BA#0000000700000014
(1493280497.546251) can0 1BFC38B9#050296408005A3F4
(1493280497.546622) can0 1BFC38B8#0000000800000000
(1493280497.546998) can0 1BFC38B7#8001648425020200
(1493280497.547231) can0 1BFC38B6#0000134B00000000
(1493280497.547461) can0 1BFC38B5#0502FF9202028292
(1493280497.547838) can0 1BFC38B4#00010101001F0003
(1493280497.548076) can0 1BFC38B3#8001648431007766
(1493280497.548475) can0 1BFC38B2#80016484838300B0
(1493280497.551710) can0 3C0#6A7E1335
(1493280497.553519) can0 30B#5F00110000000098
(1493280497.553741) can0 65E#880866B5759C0600
(1493280497.563150) can0 62F#4451000E0F
(1493280497.571895) can0 1FD#0000000000000000
(1493280497.602375) can0 30B#5F00110000000098
(1493280497.631877) can0 1FD#0000000000000000
(1493280497.653003) can0 6C7#04051101020001
(1493280497.653255) can0 30B#5F00110000000098
(1493280497.653338) can0 5F2#CC00
(1493280497.653571) can0 630#33D03F0102
(1493280497.655131) can0 3C0#6A7E1335
(1493280497.691881) can0 1FD#0000000000000000
(1493280497.702506) can0 30B#5F00110000000098
(1493280497.753168) can0 1FD#0000000000000000
(1493280497.753368) can0 30B#5F00110000000098
(1493280497.758719) can0 3C0#6A7E1335
(1493280497.794025) can0 1BFC38B1#0000000000000000
(1493280497.794368) can0 1BFC38BB#FFFFFFFFFFFFFFFF
(1493280497.794785) can0 1BFC38BA#535553500000001A
(1493280497.794991) can0 1BFC38B9#050296408005A3F4
(1493280497.795365) can0 1BFC38B8#0000000800000000
(1493280497.795613) can0 1BFC38B7#8001648425020200
(1493280497.796025) can0 1BFC38B6#0000134D00000000
(1493280497.796261) can0 1BFC38B5#0502FF9202028292
(1493280497.796662) can0 1BFC38B4#00010101001F0003
(1493280497.797046) can0 1BFC38B3#8001648431007766
(1493280497.797241) can0 1BFC38B2#80016484838300B0
(1493280497.803286) can0 30B#5F00110000000098
(1493280497.811889) can0 1FD#0000000000000000
(1493280497.853045) can0 6C7#04051101020001
(1493280497.853260) can0 30B#5F00110000000098
(1493280497.853504) can0 5F2#CC00
(1493280497.862349) can0 3C0#6A7E1335
(1493280497.871892) can0 1FD#0000000000000000
(1493280497.902514) can0 30B#5F00110000000098
(1493280497.931883) can0 1FD#0000000000000000
(1493280497.953141) can0 30B#5F00110000000098
(1493280497.966131) can0 3C0#6A7E1335
(1493280497.991986) can0 1FD#0000000000000000
(1493280498.002773) can0 30B#5F00110000000098
(1493280498.045424) can0 1BFC38B1#0000000000000000
(1493280498.045643) can0 1BFC38BB#FFFFFFFFFFFFFFFF
(1493280498.046019) can0 1BFC38BA#535553500000001A
(1493280498.046406) can0 1BFC38B9#050296408005A3F4
(1493280498.046641) can0 1BFC38B8#0000000800000000
(1493280498.047019) can0 1BFC38B7#8001648425020200
(1493280498.047268) can0 1BFC38B6#00001350001F0003
(1493280498.047643) can0 1BFC38B5#0502FF9202028292
(1493280498.048034) can0 1BFC38B4#00010101001F0003
(1493280498.048270) can0 1BFC38B3#800164843240CCBB
(1493280498.048529) can0 1BFC38B2#8001648483838037
(1493280498.053533) can0 6C7#04051101020001
(1493280498.053773) can0 1FD#0000000000000000
(1493280498.054031) can0 30B#5F00110000000098
(1493280498.054292) can0 5F2#CC00
(1493280498.054400) can0 643#000200
(1493280498.054613) can0 64E#00B1040000000000
(1493280498.054999) can0 65E#8808CF365BA70600
(1493280498.055262) can0 6B8#6D08000000000000
(1493280498.055507) can0 6BC#92823651324C07C6
(1493280498.063250) can0 62D#3491023601
(1493280498.069887) can0 3C0#6A7E1335
(1493280498.102550) can0 30B#5F00110000000098
(1493280498.112053) can0 1FD#0000000000000000
(1493280498.153147) can0 30B#5F00110000000098
(1493280498.153771) can0 631#34D602
(1493280498.162149) can0 6B6#390C1C000E0F
(1493280498.162387) can0 6B7#BEB4000008FF80FE
(1493280498.171979) can0 1FD#0000000000000000
(1493280498.173517) can0 3C0#6A7E1335
(1493280498.202536) can0 30B#5F00110000000098
(1493280498.231903) can0 1FD#0000000000000000
(1493280498.253029) can0 6C7#04051101020001
(1493280498.253441) can0 30B#5F00110000000098
(1493280498.253517) can0 5F2#CC00
(1493280498.276999) can0 3C0#6A7E1335
(1493280498.291992) can0 1FD#0000000000000000
(1493280498.294155) can0 1BFC38B1#0000000000000000
(1493280498.294400) can0 1BFC38BB#FFFFFFFFFFFFFFFF
(1493280498.294762) can0 1BFC38BA#535553500000001A
(1493280498.295009) can0 1BFC38B9#050296408005A3F4
(1493280498.295421) can0 1BFC38B8#0000000800000000
(1493280498.295775) can0 1BFC38B7#8001648425020200
(1493280498.296013) can0 1BFC38B6#00001352001F34A8
(1493280498.296435) can0 1BFC38B5#0502FF9202028292
(1493280498.296655) can0 1BFC38B4#00010101001F0003
(1493280498.297040) can0 1BFC38B3#800164843240CCBB
(1493280498.297259) can0 1BFC38B2#8001648483838037
(1493280498.303309) can0 30B#5F00110000000098
(1493280498.353037) can0 1FD#0000000000000000
(1493280498.353283) can0 30B#5F00110000000098
(1493280498.380403) can0 3C0#6A7E1335
(1493280498.402535) can0 30B#5F00110000000098
(1493280498.412161) can0 1FD#0000000000000000
(1493280498.453034) can0 6C7#04051101020001
(1493280498.453288) can0 30B#5F00110000000098
(1493280498.453403) can0 5F2#CC00
(1493280498.472036) can0 1FD#0000000000000000
(1493280498.483754) can0 3C0#6A7E1335
(1493280498.502555) can0 30B#5F00110000000098
(1493280498.532005) can0 1FD#0000000000000000
(1493280498.545420) can0 1BFC38B1#0000000000000000
(1493280498.545789) can0 1BFC38BB#FFFFFFFFFFFFFFFF
(1493280498.546040) can0 1BFC38BA#535553500000001A
(1493280498.546427) can0 1BFC38B9#060096408008FC68
(1493280498.546692) can0 1BFC38B8#0000000800000000
(1493280498.547052) can0 1BFC38B7#800164842502023C
(1493280498.547270) can0 1BFC38B6#0000135500000000
(1493280498.547649) can0 1BFC38B5#0502FF9202028292
(1493280498.548042) can0 1BFC38B4#00010101001F0003
(1493280498.548283) can0 1BFC38B3#800164843240CCBB
(1493280498.548563) can0 1BFC38B2#8001648483838037
(1493280498.553676) can0 30B#5F00110000000098
(1493280498.553878) can0 65E#880832A89D410A00
(1493280498.563175) can0 62F#4451000E10
(1493280498.587391) can0 3C0#6A7E1335
(1493280498.592011) can0 1FD#0000000000000000
(1493280498.602584) can0 30B#5F00110000000098
(1493280498.653049) can0 6C7#04051101020001
(1493280498.653266) can0 1FD#0000000000000000
(1493280498.653547) can0 30B#5F00110000000098
(1493280498.653797) can0 5F2#CC00
(1493280498.691255) can0 3C0#6A7E1335
(1493280498.702548) can0 30B#5F00110000000098
(1493280498.712198) can0 1FD#0000000000000000
(1493280498.753055) can0 30B#5F00110000000098
(1493280498.772051) can0 1FD#0000000000000000
(1493280498.794163) can0 1BFC38B1#0000000000000000
(1493280498.794546) can0 3C0#6A7E1335
(1493280498.794550) can0 1BFC38BB#FFFFFFFFFFFFFFFF
(1493280498.794755) can0 1BFC38BA#0000000700000014
(1493280498.795263) can0 1BFC38B9#060096408008FC68
(1493280498.795518) can0 1BFC38B8#0000000800000000
(1493280498.795896) can0 1BFC38B7#800164842502023C
(1493280498.796290) can0 1BFC38B6#0000135700000000
(1493280498.796550) can0 1BFC38B5#0502FF9202028292
(1493280498.796939) can0 1BFC38B4#00010101001F0003
(1493280498.797200) can0 1BFC38B3#800164843240CCBB
(1493280498.797565) can0 1BFC38B2#8001648483838037
(1493280498.803284) can0 30B#5F00110000000098
(1493280498.832036) can0 1FD#0000000000000000
(1493280498.853086) can0 6C7#04051101020001
(1493280498.853291) can0 30B#5F00110000000098
(1493280498.853423) can0 5F2#CC00
(1493280498.879521) can0 387#07E0FD426DCA574F
(1493280498.892023) can0 1FD#0000000000000000
(1493280498.898140) can0 3C0#6A7E1335
(1493280498.902521) can0 30B#5F00110000000098
(1493280498.929699) can0 54F#41F2887B88D6DB
(1493280498.953091) can0 1FD#0000000000000000
(1493280498.953467) can0 30B#5F00110000000098
(1493280498.979965) can0 430#C8583475D5BD
(1493280499.001938) can0 3C0#6A7E1335
(1493280499.002518) can0 30B#5F00110000000098
(1493280499.012337) can0 1FD#0000000000000000
(1493280499.030064) can0 280#D5C46A26D87F6E5C
(1493280499.045435) can0 1BFC38B1#0000000000000000
(1493280499.045814) can0 1BFC38BB#FFFFFFFFFFFFFFFF
(1493280499.046045) can0 1BFC38BA#0000000700000014
(1493280499.046441) can0 1BFC38B9#060096408008FC68
(1493280499.046690) can0 1BFC38B8#0000000800000000
(1493280499.047072) can0 1BFC38B7#800164842502023C
(1493280499.047328) can0 1BFC38B6#0000135A001F0003
(1493280499.047693) can0 1BFC38B5#0502FF9202028292
(1493280499.048073) can0 1BFC38B4#00010101001F0003
(1493280499.048331) can0 1BFC38B3#8001648431001100
(1493280499.048747) can0 1BFC38B2#800164848383807D
(1493280499.053569) can0 6C7#04051101020001
(1493280499.053940) can0 30B#5F00110000000098
(1493280499.054055) can0 5F2#CC00
(1493280499.054315) can0 643#000200
(1493280499.054565) can0 64E#00B1040000000000
(1493280499.054810) can0 65E#880895E85B780700
(1493280499.055060) can0 6B8#6D08000000000000
(1493280499.055307) can0 6BC#92823651324C07C9
(1493280499.072049) can0 1FD#0000000000000000
(1493280499.080218) can0 563#87B9591E994AA312
(1493280499.102571) can0 30B#5F00110000000098
(1493280499.105428) can0 3C0#6A7E1335
(1493280499.130332) can0 2CF#16CD2C1D6C95BA3D
(1493280499.132066) can0 1FD#0000000000000000
(1493280499.153194) can0 30B#5F00110000000098
(1493280499.162224) can0 6B6#390C1C000E10
(1493280499.162582) can0 6B7#BEB4000008FF80FE
(1493280499.180448) can0 60B#ED2F2468DDA9550D
(1493280499.192073) can0 1FD#0000000000000000
(1493280499.202574) can0 30B#5F00110000000098
(1493280499.208808) can0 3C0#6A7E1335
(1493280499.230657) can0 18E#
(1493280499.253077) can0 6C7#04051101020001
(1493280499.253464) can0 1FD#0000000000000000
(1493280499.253658) can0 30B#5F00110000000098
(1493280499.254005) can0 5F2#CC00
(1493280499.280959) can0 35E#
(1493280499.294203) can0 1BFC38B1#0000000000000000
(1493280499.294574) can0 1BFC38BB#FFFFFFFFFFFFFFFF
(1493280499.294813) can0 1BFC38BA#0000000700000014
(1493280499.295198) can0 1BFC38B9#060096408008FC68
(1493280499.295450) can0 1BFC38B8#0000000800000000
(1493280499.295825) can0 1BFC38B7#800164842502023C
(1493280499.296203) can0 1BFC38B6#0000135C02028292
(1493280499.296447) can0 1BFC38B5#0502FF9202028292
(1493280499.296804) can0 1BFC38B4#00010101001F0003
(1493280499.297055) can0 1BFC38B3#8001648431001100
(1493280499.297428) can0 1BFC38B2#800164848383807D
(1493280499.303344) can0 30B#5F00110000000098
(1493280499.312079) can0 1FD#0000000000000000
(1493280499.312704) can0 3C0#6A7E1335
(1493280499.331053) can0 457#3547D5
(1493280499.353081) can0 30B#5F00110000000098
(1493280499.372082) can0 1FD#0000000000000000
(1493280499.381349) can0 2CA#5C2E843C4ACDF364
(1493280499.402582) can0 30B#5F00110000000098
(1493280499.416329) can0 3C0#6A7E1335
(1493280499.431472) can0 218#22
(1493280499.432124) can0 1FD#0000000000000000
(1493280499.453080) can0 6C7#04051101020001
(1493280499.453343) can0 30B#5F00110000000098
(1493280499.453445) can0 5F2#CC00
(1493280499.481464) can0 31A#1412CF36EA250D6E
(1493280499.492116) can0 1FD#0000000000000000
(1493280499.502619) can0 30B#5F00110000000098
(1493280499.520453) can0 3C0#6A7E1335
(1493280499.531752) can0 7D3#56BBC72BDE5D5658
(1493280499.545489) can0 1BFC38B1#0000000000000000
(1493280499.545837) can0 1BFC38BB#FFFFFFFFFFFFFFFF
(1493280499.546214) can0 1BFC38BA#0000000700000014
(1493280499.546458) can0 1BFC38B9#070296408005A3F4
(1493280499.546845) can0 1BFC38B8#0000000800000000
(1493280499.547098) can0 1BFC38B7#8001648425020278
(1493280499.547466) can0 1BFC38B6#0000135F00000000
(1493280499.547731) can0 1BFC38B5#0502FF9202028292
(1493280499.548079) can0 1BFC38B4#00010101001F0003
(1493280499.548319) can0 1BFC38B3#8001648431001100
(1493280499.548693) can0 1BFC38B2#800164848383807D
(1493280499.553743) can0 1FD#0000000000000000
(1493280499.554120) can0 30B#5F00110000000098
(1493280499.554230) can0 65E#880848455C990800
(1493280499.563237) can0 62F#4451000E11
(1493280499.581866) can0 032#BC07AC
(1493280499.602600) can0 30B#5F00110000000098
(1493280499.612094) can0 1FD#0000000000000000
(1493280499.623932) can0 3C0#6A7E1335
(1493280499.632102) can0 663#D5A6C36CC1
(1493280499.653468) can0 6C7#04051101020001
(1493280499.653706) can0 30B#5F00110000000098
(1493280499.653827) can0 5F2#CC00
(1493280499.654097) can0 630#33D203D2
(1493280499.662338) can0 64E#00A1150000000000
(1493280499.672474) can0 1FD#0000000000000000
(1493280499.682097) can0 655#6EB21765AC8A3517
(1493280499.702720) can0 30B#5F00110000000098
(1493280499.727177) can0 3C0#6A7E1335
(1493280499.732083) can0 1FD#0000000000000000
(1493280499.732322) can0 01B#33FBF939
(1493280499.752219) can0 30B#5F00110000000098
(1493280499.782474) can0 1A2#2F307D4EBA8B096D
(1493280499.792225) can0 1FD#0000000000000000
(1493280499.794374) can0 1BFC38B1#0000000000000000
(1493280499.794589) can0 1BFC38BB#FFFFFFFFFFFFFFFF
(1493280499.794990) can0 1BFC38BA#535553500000001A
(1493280499.795208) can0 1BFC38B9#070296408005A3F4
(1493280499.795585) can0 1BFC38B8#0000000800000000
(1493280499.795846) can0 1BFC38B7#8001648425020278
(1493280499.796213) can0 1BFC38B6#0000136100000000
(1493280499.796461) can0 1BFC38B5#0502FF9202028292
(1493280499.796838) can0 1BFC38B4#00010101001F0003
(1493280499.797097) can0 1BFC38B3#8001648431001100
(1493280499.797429) can0 1BFC38B2#800164848383807D
(1493280499.802507) can0 30B#5F00110000000098
(1493280499.830567) can0 3C0#6A7E1335
(1493280499.832677) can0 4C1#3653
(1493280499.853226) can0 6C7#04051101020001
(1493280499.853477) can0 1FD#0000000000000000
(1493280499.853878) can0 30B#5F00110000000098
(1493280499.854101) can0 5F2#CC00
(1493280499.882729) can0 3FC#C575C562CF43F446
(1493280499.902731) can0 30B#5F00110000000098
(1493280499.912481) can0 1FD#0000000000000000
(1493280499.932846) can0 475#AEA14A1FA74CA318
(1493280499.933847) can0 3C0#6A7E1335
(1493280499.953356) can0 30B#5F00110000000098
(1493280499.972105) can0 1FD#0000000000000000
(1493280499.983123) can0 45E#686E597DC1B24D26
(1493280500.002737) can0 30B#5F00110000000098
(1493280500.032114) can0 1FD#0000000000000000
(1493280500.033292) can0 46F#82F46B3EC41A2118
(1493280500.037222) can0 3C0#6A7E1335
(1493280500.045734) can0 1BFC38B1#0000000000000000
(1493280500.046108) can0 1BFC38BB#FFFFFFFFFFFFFFFF
(1493280500.046497) can0 1BFC38BA#535553500000001A
(1493280500.046716) can0 1BFC38B9#070296408005A3F4
(1493280500.047112) can0 1BFC38B8#0000000800000000
(1493280500.047354) can0 1BFC38B7#8001648425020278
(1493280500.047714) can0 1BFC38B6#000013640000A115
(1493280500.047956) can0 1BFC38B5#0502FF9202028292
(1493280500.048382) can0 1BFC38B4#110F01010000A115
(1493280500.048623) can0 1BFC38B3#8001648431003322
(1493280500.049008) can0 1BFC38B2#80016484838300C2
(1493280500.052061) can0 6C7#04051101020001
(1493280500.052499) can0 30B#5F00110000000098
(1493280500.052575) can0 5F2#CB00
(1493280500.052885) can0 643#000200
(1493280500.053073) can0 64E#00A1150000000000
(1493280500.053351) can0 65E#8808CF66AB710700
(1493280500.053589) can0 6B8#6D08000000000000
(1493280500.053840) can0 6BC#92823651324C07CB
(1493280500.063141) can0 62D#349220C900
(1493280500.083368) can0 395#70
(1493280500.092146) can0 1FD#0000000000000000
(1493280500.102765) can0 30B#5F00110000000098
(1493280500.133499) can0 095#96A6E6
(1493280500.141089) can0 3C0#6A7E1335
(1493280500.153372) can0 1FD#0000000000000000
(1493280500.153738) can0 30B#5F00110000000098
(1493280500.153999) can0 631#34C2030013000301
(1493280500.162648) can0 6B6#390C1C000E11
(1493280500.162880) can0 6B7#BEB4000008FF80FE
(1493280500.183634) can0 232#F1C57035F3E6
(1493280500.202741) can0 30B#5F00110000000098
(1493280500.212370) can0 1FD#0000000000000000
(1493280500.233747) can0 418#CF36F42D14D8DE
(1493280500.244728) can0 3C0#6A7E1335
(1493280500.253213) can0 6C7#04051101020001
(1493280500.253460) can0 30B#5F00110000000098
(1493280500.253569) can0 5F2#CB00
(1493280500.272119) can0 1FD#0000000000000000
(1493280500.284023) can0 672#E31BD343
(1493280500.294400) can0 1BFC38B1#0000000000000000
(1493280500.294622) can0 1BFC38BB#FFFFFFFFFFFFFFFF
(1493280500.294997) can0 1BFC38BA#535553500000001A
(1493280500.295233) can0 1BFC38B9#070296408005A3F4
(1493280500.295620) can0 1BFC38B8#0000000800000000
(1493280500.295869) can0 1BFC38B7#8001648425020278
(1493280500.296258) can0 1BFC38B6#00001366000034A8
(1493280500.296516) can0 1BFC38B5#0502FF9202028292
(1493280500.296883) can0 1BFC38B4#110F01010000A115
(1493280500.297115) can0 1BFC38B3#8001648431003322
(1493280500.297512) can0 1BFC38B2#80016484838300C2
(1493280500.303632) can0 30B#5F00110000000098
(1493280500.332155) can0 1FD#0000000000000000
(1493280500.334137) can0 5B0#8E
(1493280500.348514) can0 3C0#6A7E1335
(1493280500.353281) can0 30B#5F00110000000098
(1493280500.384289) can0 6FB#D0AC0D686A43
(1493280500.392147) can0 1FD#0000000000000000
(1493280500.402903) can0 30B#5F00110000000098
(1493280500.434368) can0 334#2E5E
(1493280500.452244) can0 3C0#6A7E1335
(1493280500.453365) can0 6C7#04051101020001
(1493280500.453597) can0 1FD#0000000000000000
(1493280500.453838) can0 30B#5F00110000000098
(1493280500.454086) can0 5F2#CB00
(1493280500.484583) can0 043#7AE2671ED8E86D74
(1493280500.503114) can0 30B#5F00110000000098
(1493280500.512416) can0 1FD#0000000000000000
(1493280500.534584) can0 441#0F
(1493280500.545635) can0 1BFC38B1#0000000000000000
(1493280500.546047) can0 1BFC38BB#FFFFFFFFFFFFFFFF
(1493280500.546247) can0 1BFC38BA#535553500000001A
(1493280500.546634) can0 1BFC38B9#000096408008FC68
(1493280500.546874) can0 1BFC38B8#0000000800000000
(1493280500.547242) can0 1BFC38B7#80016484250202AF
(1493280500.547505) can0 1BFC38B6#0000136900000000
(1493280500.547883) can0 1BFC38B5#0502FF9202028292
(1493280500.548159) can0 1BFC38B4#110F01010000A115
(1493280500.548506) can0 1BFC38B3#8001648431003322
(1493280500.548743) can0 1BFC38B2#80016484838300C2
(1493280500.553896) can0 30B#5F00110000000098
(1493280500.554128) can0 65E#880857F58CBA0800
(1493280500.556240) can0 3C0#6A7E1335
(1493280500.563489) can0 62F#4451000E12
(1493280500.572128) can0 1FD#0000000000000000
(1493280500.584758) can0 7D7#67
(1493280500.602856) can0 30B#5F00110000000098
(1493280500.632145) can0 1FD#0000000000000000
(1493280500.635025) can0 228#038CD4549A80
(1493280500.653634) can0 6C7#04051101020001
(1493280500.654004) can0 30B#5F00110000000098
(1493280500.654121) can0 5F2#CB00
(1493280500.659717) can0 3C0#6A7E1335
(1493280500.685317) can0 0CB#814341727B16
(1493280500.692171) can0 1FD#0000000000000000
(1493280500.702889) can0 30B#5F00110000000098
(1493280500.735409) can0 578#
(1493280500.753525) can0 1FD#0000000000000000
(1493280500.753753) can0 30B#5F00110000000098
(1493280500.763598) can0 3C0#6A7E1335
(1493280500.785519) can0 106#DE0F2D383A64FB20
(1493280500.794391) can0 1BFC38B1#0000000000000000
(1493280500.794640) can0 1BFC38BB#FFFFFFFFFFFFFFFF
(1493280500.795031) can0 1BFC38BA#0000000700000014
(1493280500.795371) can0 1BFC38B9#000096408008FC68
(1493280500.795626) can0 1BFC38B8#0000000800000000
(1493280500.795972) can0 1BFC38B7#80016484250202AF
(1493280500.796286) can0 1BFC38B6#0000136B00000000
(1493280500.796701) can0 1BFC38B5#0502FF9202028292
(1493280500.796889) can0 1BFC38B4#110F01010000A115
(1493280500.797284) can0 1BFC38B3#8001648431003322
(1493280500.797510) can0 1BFC38B2#80016484838300C2
(1493280500.803551) can0 30B#5F00110000000098
(1493280500.812156) can0 1FD#0000000000000000
(1493280500.835686) can0 6AC#0403067AEFA65F16
(1493280500.853523) can0 6C7#04051101020001
(1493280500.853753) can0 30B#5F00110000000098
(1493280500.853864) can0 5F2#CB00
(1493280500.866883) can0 3C0#6A7E1335
(1493280500.872157) can0 1FD#0000000000000000
(1493280500.885831) can0 1AB#C88FCD0AEC158845
(1493280500.902911) can0 30B#5F00110000000098
(1493280500.932148) can0 1FD#0000000000000000
(1493280500.935966) can0 68F#6084722A66CE6E
(1493280500.953405) can0 30B#5F00110000000098
(1493280500.970918) can0 3C0#6A7E1335
(1493280500.986067) can0 3D8#55826408019ED472
(1493280500.992292) can0 1FD#0000000000000000
(1493280501.002909) can0 30B#5F00110000000098
(1493280501.036155) can0 5FE#9B1E6B3AC99E8771
(1493280501.045663) can0 1BFC38B1#0000000000000000
(1493280501.046046) can0 1BFC38BB#FFFFFFFFFFFFFFFF
(1493280501.046360) can0 1BFC38BA#0000000700000014
(1493280501.046708) can0 1BFC38B9#000096408008FC68
(1493280501.047074) can0 1BFC38B8#0000000800000000
(1493280501.047267) can0 1BFC38B7#80016484250202AF
(1493280501.047655) can0 1BFC38B6#0000136E0000A115
(1493280501.047922) can0 1BFC38B5#0502FF9202028292
(1493280501.048281) can0 1BFC38B4#110F01010000A115
(1493280501.048534) can0 1BFC38B3#8001648432408877
(1493280501.048933) can0 1BFC38B2#8001648483838059
(1493280501.053909) can0 6C7#04051101020001
(1493280501.054153) can0 1FD#0000000000000000
(1493280501.054532) can0 30B#5F00110000000098
(1493280501.054639) can0 5F2#CB00
(1493280501.054769) can0 643#000200
(1493280501.055167) can0 64E#00A1150000000000
(1493280501.055405) can0 65E#880803C58F0A0700
(1493280501.055661) can0 6B8#6D08000000000000
(1493280501.055916) can0 6BC#92823651324C07CC
(1493280501.074497) can0 3C0#6A7E1335
(1493280501.086282) can0 63F#44B5A26DB71BA671
(1493280501.102912) can0 30B#5F00110000000098
(1493280501.112435) can0 1FD#0000000000000000
(1493280501.136547) can0 52D#2AE87F5533867258
(1493280501.153675) can0 30B#5F00110000000098
(1493280501.163182) can0 6B6#390C1C000E12
(1493280501.163370) can0 6B7#BEB4000008FF80FE
(1493280501.172308) can0 1FD#0000000000000000
(1493280501.178270) can0 3C0#6A7E1335
(1493280501.186661) can0 327#6EEA6D79D3E1C81D
(1493280501.202913) can0 30B#5F00110000000098
(1493280501.232182) can0 1FD#0000000000000000
(1493280501.236792) can0 615#C388
(1493280501.253541) can0 6C7#04051101020001
(1493280501.253945) can0 30B#5F00110000000098
(1493280501.253948) can0 5F2#CB00
(1493280501.282144) can0 3C0#6A7E1335
(1493280501.286931) can0 2F0#ACED423880419E71
(1493280501.292319) can0 1FD#0000000000000000
(1493280501.294411) can0 1BFC38B1#0000000000000000
(1493280501.294771) can0 1BFC38BB#FFFFFFFFFFFFFFFF
(1493280501.295147) can0 1BFC38BA#0000000700000014
(1493280501.295394) can0 1BFC38B9#000096408008FC68
(1493280501.295773) can0 1BFC38B8#0000000800000000
(1493280501.296045) can0 1BFC38B7#80016484250202AF
(1493280501.296435) can0 1BFC38B6#0000137002028292
(1493280501.296683) can0 1BFC38B5#0502FF9202028292
(1493280501.297057) can0 1BFC38B4#110F01010000A115
(1493280501.297277) can0 1BFC38B3#8001648432408877
(1493280501.297645) can0 1BFC38B2#8001648483838059
(1493280501.303696) can0 30B#5F00110000000098
(1493280501.337180) can0 362#E60F0D223B678140
(1493280501.353556) can0 1FD#0000000000000000
(1493280501.353976) can0 30B#5F00110000000098
(1493280501.385665) can0 3C0#6A7E1335
(1493280501.387263) can0 3D5#3C055633D3B10140
(1493280501.402950) can0 30B#5F00110000000098
(1493280501.412304) can0 1FD#0000000000000000
(1493280501.437425) can0 094#9D508931D3568B
(1493280501.453424) can0 6C7#04051101020001
(1493280501.453664) can0 30B#5F00110000000098
(1493280501.453783) can0 5F2#CA00
(1493280501.472316) can0 1FD#0000000000000000
(1493280501.487545) can0 5F4#8A
(1493280501.489170) can0 3C0#6A7E1335
(1493280501.502938) can0 30B#5F00110000000098
(1493280501.532327) can0 1FD#0000000000000000
(1493280501.537821) can0 3AF#55C11B55D7
(1493280501.545924) can0 1BFC38B1#0000000000000000
(1493280501.546175) can0 1BFC38BB#FFFFFFFFFFFFFFFF
(1493280501.546551) can0 1BFC38BA#0000000700000014
(1493280501.546791) can0 1BFC38B9#010296408005A3F4
(1493280501.547177) can0 1BFC38B8#0000000800000000
(1493280501.547428) can0 1BFC38B7#80016484250202EB
(1493280501.547802) can0 1BFC38B6#0000137300000000
(1493280501.548195) can0 1BFC38B5#0502FF9202028292
(1493280501.548425) can0 1BFC38B4#110F01010000A115
(1493280501.548678) can0 1BFC38B3#8001648432408877
(1493280501.549049) can0 1BFC38B2#8001648483838059
(1493280501.552302) can0 30B#5F00110000000098
(1493280501.552574) can0 65E#88087C8273520B00
(1493280501.563571) can0 62F#4451000E13
(1493280501.587946) can0 2BD#AA30D9
(1493280501.592296) can0 3C0#6A7E1335
(1493280501.592299) can0 1FD#0000000000000000
(1493280501.602916) can0 30B#5F00110000000098
(1493280501.638071) can0 135#92906777256CDF4D
(1493280501.653832) can0 6C7#04051101020001
(1493280501.654236) can0 1FD#0000000000000000
(1493280501.654423) can0 30B#5F00110000000098
(1493280501.654677) can0 5F2#CA00
(1493280501.654783) can0 630#33DCFF0F01
(1493280501.688351) can0 1F8#A5AD7D3F5B9D9033
(1493280501.698820) can0 3C0#6A7E1335
(1493280501.703089) can0 30B#5F00110000000098
(1493280501.712462) can0 1FD#0000000000000000
(1493280501.738442) can0 04C#96041274213CAE3D
(1493280501.753820) can0 30B#5F00110000000098
(1493280501.772316) can0 1FD#0000000000000000
(1493280501.788566) can0 7C8#F4ED
(1493280501.794423) can0 1BFC38B1#0000000000000000
(1493280501.794767) can0 1BFC38BB#FFFFFFFFFFFFFFFF
(1493280501.795178) can0 1BFC38BA#535553500000001A
(1493280501.795393) can0 1BFC38B9#010296408005A3F4
(1493280501.795763) can0 1BFC38B8#0000000800000000
(1493280501.796014) can0 1BFC38B7#80016484250202EB
(1493280501.796396) can0 1BFC38B6#0000137500000000
(1493280501.796638) can0 1BFC38B5#0502FF9202028292
(1493280501.797015) can0 1BFC38B4#110F01010000A115
(1493280501.797314) can0 1BFC38B3#8001648432408877
(1493280501.797653) can0 1BFC38B2#8001648483838059
(1493280501.799657) can0 3C0#6A7E1335
(1493280501.803830) can0 30B#5F00110000000098
(1493280501.832347) can0 1FD#0000000000000000
(1493280501.838852) can0 5A9#30
(1493280501.853834) can0 6C7#04051101020001
(1493280501.854217) can0 30B#5F00110000000098
(1493280501.854325) can0 5F2#CA00
(1493280501.888935) can0 473#BFEE3F2C22100F19
(1493280501.892319) can0 1FD#0000000000000000
(1493280501.902923) can0 30B#5F00110000000098
(1493280501.903647) can0 3C0#6A7E1335
(1493280501.939186) can0 46F#F95E1F35
(1493280501.953823) can0 1FD#0000000000000000
(1493280501.954061) can0 30B#5F00110000000098
(1493280501.989368) can0 3D7#FF1F201C
(1493280502.002953) can0 30B#5F00110000000098
(1493280502.007163) can0 3C0#6A7E1335
(1493280502.012357) can0 1FD#0000000000000000
(1493280502.039455) can0 111#3261
(1493280502.045956) can0 1BFC38B1#0000000000000000
(1493280502.046320) can0 1BFC38BB#FFFFFFFFFFFFFFFF
(1493280502.046582) can0 1BFC38BA#535553500000001A
(1493280502.046964) can0 1BFC38B9#010296408005A3F4
(1493280502.047353) can0 1BFC38B8#0000000800000000
(1493280502.047574) can0 1BFC38B7#80016484250202EB
(1493280502.047967) can0 1BFC38B6#000013780000A115
(1493280502.048192) can0 1BFC38B5#0502FF9202028292
(1493280502.048603) can0 1BFC38B4#110F01010000A115
(1493280502.048859) can0 1BFC38B3#800164843100DDCC
(1493280502.049200) can0 1BFC38B2#800164848383807F
(1493280502.052337) can0 6C7#04051101020001
(1493280502.052724) can0 30B#5F00110000000098
(1493280502.052832) can0 5F2#CA00
(1493280502.053100) can0 643#000200
(1493280502.053324) can0 64E#00A1150000000000
(1493280502.053585) can0 65E#8808F8F67D690500
(1493280502.053831) can0 6B8#6D08000000000000
(1493280502.054214) can0 6BC#92823651324C07CF
(1493280502.063436) can0 62D#349302E900
(1493280502.072309) can0 1FD#0000000000000000
(1493280502.089762) can0 6D1#65B8823D1D1F92
(1493280502.102957) can0 30B#5F00110000000098
(1493280502.110823) can0 3C0#6A7E1335
(1493280502.132329) can0 1FD#0000000000000000
(1493280502.139708) can0 463#3E5B40132B1CC70C
(1493280502.153722) can0 30B#5F00110000000098
(1493280502.154106) can0 631#34C37807FE000000
(1493280502.163343) can0 6B6#390C1C000E13
(1493280502.163580) can0 6B7#BEB4000008FF80FE
(1493280502.189822) can0 6CD#880C
(1493280502.192344) can0 1FD#0000000000000000
(1493280502.202977) can0 30B#5F00110000000098
(1493280502.214699) can0 3C0#6A7E1335
(1493280502.239960) can0 7C4#14A8BC1D37CC8E0E
(1493280502.253586) can0 6C7#04051101020001
(1493280502.253836) can0 1FD#0000000000000000
(1493280502.254201) can0 30B#5F00110000000098
(1493280502.254336) can0 5F2#CA00
(1493280502.290233) can0 572#59DC9D27
(1493280502.294584) can0 1BFC38B1#0000000000000000
(1493280502.294838) can0 1BFC38BB#FFFFFFFFFFFFFFFF
(1493280502.295217) can0 1BFC38BA#535553500000001A
(1493280502.295462) can0 1BFC38B9#010296408005A3F4
(1493280502.295834) can0 1BFC38B8#0000000800000000
(1493280502.296222) can0 1BFC38B7#80016484250202EB
(1493280502.296475) can0 1BFC38B6#0000137A000034A8
(1493280502.296701) can0 1BFC38B5#0502FF9202028292
(1493280502.297094) can0 1BFC38B4#110F01010000A115
(1493280502.297396) can0 1BFC38B3#800164843100DDCC
(1493280502.297790) can0 1BFC38B2#800164848383807F
(1493280502.303715) can0 30B#5F00110000000098
(1493280502.312340) can0 1FD#0000000000000000
(1493280502.318200) can0 3C0#6A7E1335
(1493280502.340353) can0 6E8#0F898C
(1493280502.353588) can0 30B#5F00110000000098
(1493280502.372341) can0 1FD#0000000000000000
(1493280502.390467) can0 2F7#CC97202D0814B028
(1493280502.402970) can0 30B#5F00110000000098
(1493280502.421461) can0 3C0#6A7E1335
(1493280502.432372) can0 1FD#0000000000000000
(1493280502.440673) can0 1A0#122FA23271886601
(1493280502.453467) can0 6C7#04051101020001
(1493280502.453721) can0 30B#5F00110000000098
(1493280502.453978) can0 5F2#CA00
(1493280502.490732) can0 7D6#8EA7F85639D4ED
(1493280502.492379) can0 1FD#0000000000000000
(1493280502.502975) can0 30B#5F00110000000098
(1493280502.525343) can0 3C0#6A7E1335
(1493280502.540849) can0 472#65F0B4393F6BB67A
(1493280502.545887) can0 1BFC38B1#0000000000000000
(1493280502.546263) can0 1BFC38BB#FFFFFFFFFFFFFFFF
(1493280502.546437) can0 1BFC38BA#535553500000001A
(1493280502.546690) can0 1BFC38B9#020096408008FC68
(1493280502.547077) can0 1BFC38B8#0000000800000000
(1493280502.547326) can0 1BFC38B7#8001648425020227
(1493280502.547703) can0 1BFC38B6#0000137D00000000
(1493280502.547937) can0 1BFC38B5#0502FF9202028292
(1493280502.548367) can0 1BFC38B4#110F01010000A115
(1493280502.548646) can0 1BFC38B3#800164843100DDCC
(1493280502.548997) can0 1BFC38B2#800164848383807F
(1493280502.554006) can0 1FD#0000000000000000
(1493280502.554362) can0 30B#5F00110000000098
(1493280502.554590) can0 65E#8808A4E38FC10600
(1493280502.563600) can0 62F#4451000E14
(1493280502.591122) can0 3FF#B65FDC68C3D3523B
(1493280502.602990) can0 30B#5F00110000000098
(1493280502.612490) can0 1FD#0000000000000000
(1493280502.629216) can0 3C0#6A7E1335
(1493280502.641225) can0 0A5#FA9FE149175EC73D
(1493280502.653738) can0 6C7#04051101020001
(1493280502.654102) can0 30B#5F00110000000098
(1493280502.654192) can0 5F2#CA00
(1493280502.672381) can0 1FD#0000000000000000
(1493280502.691382) can0 69E#F97FE0
(1493280502.702990) can0 30B#5F00110000000098
(1493280502.732354) can0 1FD#0000000000000000
(1493280502.733345) can0 3C0#6A7E1335
(1493280502.741485) can0 7A6#47882B379D82F219
(1493280502.753766) can0 30B#5F00110000000098
(1493280502.791748) can0 217#A696A2
(1493280502.792358) can0 1FD#0000000000000000
(1493280502.794609) can0 1BFC38B1#0000000000000000
(1493280502.795023) can0 1BFC38BB#FFFFFFFFFFFFFFFF
(1493280502.795236) can0 1BFC38BA#0000000700000014
(1493280502.795610) can0 1BFC38B9#020096408008FC68
(1493280502.795862) can0 1BFC38B8#0000000800000000
(1493280502.796250) can0 1BFC38B7#8001648425020227
(1493280502.796487) can0 1BFC38B6#0000137F00000000
(1493280502.796865) can0 1BFC38B5#0502FF9202028292
(1493280502.797139) can0 1BFC38B4#110F01010000A115
(1493280502.797514) can0 1BFC38B3#800164843100DDCC
(1493280502.797697) can0 1BFC38B2#800164848383807F
(1493280502.803740) can0 30B#5F00110000000098
(1493280502.836722) can0 3C0#6A7E1335
(1493280502.841858) can0 112#2994B42DE820521D
(1493280502.853893) can0 6C7#04051101020001
(1493280502.854155) can0 1FD#0000000000000000
(1493280502.854341) can0 30B#5F00110000000098
(1493280502.854640) can0 5F2#CA00
(1493280502.891988) can0 530#21F53F4AA25123
(1493280502.903005) can0 30B#5F00110000000098
(1493280502.912503) can0 1FD#0000000000000000
(1493280502.940200) can0 3C0#6A7E1335
(1493280502.942106) can0 684#E2BCD901838A
(1493280502.953864) can0 30B#5F00110000000098
(1493280502.972400) can0 1FD#0000000000000000
(1493280502.992259) can0 273#465E62251833DB69
(1493280503.003117) can0 30B#5F00110000000098
(1493280503.032374) can0 1FD#0000000000000000
(1493280503.042358) can0 462#
(1493280503.043707) can0 3C0#6A7E1335
(1493280503.046033) can0 1BFC38B1#0000000000000000
(1493280503.046243) can0 1BFC38BB#FFFFFFFFFFFFFFFF
(1493280503.046604) can0 1BFC38BA#0000000700000014
(1493280503.046976) can0 1BFC38B9#020096408008FC68
(1493280503.047225) can0 1BFC38B8#0000000800000000
(1493280503.047601) can0 1BFC38B7#8001648425020227
(1493280503.047847) can0 1BFC38B6#000013820000A115
(1493280503.048256) can0 1BFC38B5#0502FF9202028292
(1493280503.048506) can0 1BFC38B4#110F01010000A115
(1493280503.048885) can0 1BFC38B3#800164843100FFEE
(1493280503.049252) can0 1BFC38B2#80016484838300D4
(1493280503.052405) can0 6C7#04051101020001
(1493280503.052662) can0 30B#5F00110000000098
(1493280503.052876) can0 5F2#CA00
(1493280503.052966) can0 643#000200
(1493280503.053350) can0 64E#00A1150000000000
(1493280503.053613) can0 65E#8808A7F6A7F80600
(1493280503.053850) can0 6B8#6D08000000000000
(1493280503.054226) can0 6BC#92823651324C07D0
(1493280503.092385) can0 293#88A8D25D3A32002F
(1493280503.092388) can0 1FD#0000000000000000
(1493280503.103002) can0 30B#5F00110000000098
(1493280503.142608) can0 232#D7B4F24849CC090E
(1493280503.147613) can0 3C0#6A7E1335
(1493280503.153628) can0 1FD#0000000000000000
(1493280503.154000) can0 30B#5F00110000000098
(1493280503.163154) can0 6B6#390C1C000E14
(1493280503.163378) can0 6B7#BEB4000008FF80FE
(1493280503.192754) can0 0E2#00D8573AF469796A
(1493280503.203029) can0 30B#5F00110000000098
(1493280503.212662) can0 1FD#0000000000000000
(1493280503.243024) can0 136#DC8ACB0766BE4366
(1493280503.251850) can0 3C0#6A7E1335
(1493280503.253662) can0 6C7#04051101020001
(1493280503.253851) can0 30B#5F00110000000098
(1493280503.254136) can0 5F2#CA00
(1493280503.272415) can0 1FD#0000000000000000
(1493280503.293146) can0 7E1#0810676D65E69F5B
(1493280503.294632) can0 1BFC38B1#0000000000000000
(1493280503.295006) can0 1BFC38BB#FFFFFFFFFFFFFFFF
(1493280503.295248) can0 1BFC38BA#0000000700000014
(1493280503.295630) can0 1BFC38B9#020096408008FC68
(1493280503.295882) can0 1BFC38B8#0000000800000000
(1493280503.296258) can0 1BFC38B7#8001648425020227
(1493280503.296506) can0 1BFC38B6#0000138402028292
(1493280503.296881) can0 1BFC38B5#0502FF9202028292
(1493280503.297264) can0 1BFC38B4#110F01010000A115
(1493280503.297517) can0 1BFC38B3#800164843100FFEE
(1493280503.297752) can0 1BFC38B2#80016484838300D4
(1493280503.303914) can0 30B#5F00110000000098
(1493280503.332388) can0 1FD#0000000000000000
(1493280503.343253) can0 584#E870AF45F8471834
(1493280503.353520) can0 30B#5F00110000000098
(1493280503.355491) can0 3C0#6A7E1335
(1493280503.392541) can0 1FD#0000000000000000
(1493280503.393525) can0 182#107BF31DE50D464B
(1493280503.403139) can0 30B#5F00110000000098
(1493280503.443592) can0 56E#
(1493280503.453554) can0 6C7#04051101020001
(1493280503.453768) can0 1FD#0000000000000000
(1493280503.454015) can0 30B#5F00110000000098
(1493280503.454260) can0 5F2#CA00
(1493280503.459488) can0 3C0#6A7E1335
(1493280503.493774) can0 56A#3B7A196A9C370942
(1493280503.503142) can0 30B#5F00110000000098
(1493280503.512776) can0 1FD#0000000000000000
(1493280503.544060) can0 23D#E50313
(1493280503.545920) can0 1BFC38B1#0000000000000000
(1493280503.546274) can0 1BFC38BB#FFFFFFFFFFFFFFFF
(1493280503.546520) can0 1BFC38BA#0000000700000014
(1493280503.546892) can0 1BFC38B9#030296408005A3F4
(1493280503.547268) can0 1BFC38B8#0000000800000000
(1493280503.547519) can0 1BFC38B7#8001648425020263
(1493280503.547737) can0 1BFC38B6#0000138700000000
(1493280503.548154) can0 1BFC38B5#0502FF9202028292
(1493280503.548404) can0 1BFC38B4#110F01010000A115
(1493280503.548749) can0 1BFC38B3#800164843100FFEE
(1493280503.549028) can0 1BFC38B2#80016484838300D4
(1493280503.554151) can0 30B#5F00110000000098
(1493280503.554377) can0 65E#8808FE6188DA0900
(1493280503.562763) can0 3C0#6A7E1335
(1493280503.563610) can0 62F#4451000E15
(1493280503.572553) can0 1FD#0000000000000000
(1493280503.594185) can0 290#1465BF63C6
(1493280503.603145) can0 30B#5F00110000000098
(1493280503.632526) can0 1FD#0000000000000000
(1493280503.644277) can0 00F#
(1493280503.654394) can0 6C7#04051101020001
(1493280503.654632) can0 30B#5F00110000000098
(1493280503.654893) can0 5F2#CA00
(1493280503.655141) can0 630#33E601000100
(1493280503.662769) can0 64E#00A1210000000000
(1493280503.666354) can0 3C0#6A7E1335
(1493280503.692560) can0 1FD#0000000000000000
(1493280503.694455) can0 7EE#55D6D03A73
(1493280503.703403) can0 30B#5F00110000000098
(1493280503.747237) can0 71F#6B1DAF47A2105E5C
(1493280503.754326) can0 1FD#0000000000000000
(1493280503.754510) can0 30B#5F00110000000098
(1493280503.770042) can0 3C0#6A7E1335
(1493280503.794658) can0 1BFC38B1#0000000000000000
(1493280503.795026) can0 1BFC38BB#FFFFFFFFFFFFFFFF
(1493280503.795270) can0 1BFC38BA#535553500000001A
(1493280503.795647) can0 1BFC38B9#030296408005A3F4
(1493280503.795904) can0 1BFC38B8#0000000800000000
(1493280503.796288) can0 1BFC38B7#8001648425020263
(1493280503.796547) can0 1BFC38B6#0000138900000000
(1493280503.796920) can0 1BFC38B5#0502FF9202028292
(1493280503.797279) can0 1BFC38B4#110F01010000A115
(1493280503.797558) can0 66B#871EA427D9E3E745
(1493280503.797561) can0 1BFC38B3#800164843100FFEE
(1493280503.797743) can0 1BFC38B2#80016484838300D4
(1493280503.802917) can0 30B#5F00110000000098
(1493280503.812796) can0 1FD#0000000000000000
(1493280503.847658) can0 4BC#DA2B010126C2514D
(1493280503.853785) can0 6C7#04051101020001
(1493280503.854023) can0 30B#5F00110000000098
(1493280503.854276) can0 5F2#CA00
(1493280503.872526) can0 1FD#0000000000000000
(1493280503.873277) can0 3C0#6A7E1335
(1493280503.897787) can0 0DB#C2F95A0F1813
(1493280503.903284) can0 30B#5F00110000000098
(1493280503.932542) can0 1FD#0000000000000000
(1493280503.947905) can0 529#370E0E19B94FC8
(1493280503.953693) can0 30B#5F00110000000098
(1493280503.976918) can0 3C0#6A7E1335
(1493280503.992538) can0 1FD#0000000000000000
(1493280503.998082) can0 18C#80DB431C9B21505C
(1493280504.003287) can0 30B#5F00110000000098
(1493280504.046041) can0 1BFC38B1#0000000000000000
(1493280504.046456) can0 1BFC38BB#FFFFFFFFFFFFFFFF
(1493280504.046626) can0 1BFC38BA#535553500000001A
(1493280504.047047) can0 1BFC38B9#030296408005A3F4
(1493280504.047306) can0 1BFC38B8#0000000800000000
(1493280504.047692) can0 1BFC38B7#8001648425020263
(1493280504.047889) can0 1BFC38B6#0000138C0000A121
(1493280504.048174) can0 33C#8B11813B2AD3EE25
(1493280504.048177) can0 1BFC38B5#0502FF9202028292
(1493280504.048821) can0 1BFC38B4#110F01010000A121
(1493280504.049085) can0 1BFC38B3#8001648432404433
(1493280504.049420) can0 1BFC38B2#800164848383807B
(1493280504.052549) can0 6C7#04051101020001
(1493280504.052831) can0 1FD#0000000000000000
(1493280504.053040) can0 30B#5F00110000000098
(1493280504.053307) can0 5F2#CA00
(1493280504.053425) can0 643#000200
(1493280504.053682) can0 64E#00A1210000000000
(1493280504.054049) can0 65E#88084CB5748E0800
(1493280504.054319) can0 6B8#6D08000000000000
(1493280504.054521) can0 6BC#92823651324C0701
(1493280504.063522) can0 62D#3482030012000300
(1493280504.080534) can0 3C0#6A7E1335
(1493280504.098297) can0 7E1#
(1493280504.103326) can0 30B#5F00110000000098
(1493280504.112917) can0 1FD#0000000000000000
(1493280504.148462) can0 71D#A3B7EE3388456462
(1493280504.153710) can0 30B#5F00110000000098
(1493280504.154175) can0 631#34C414
(1493280504.162926) can0 6B6#390C1C000E15
(1493280504.163301) can0 6B7#BEB4000008FF80FE
(1493280504.172549) can0 1FD#0000000000000000
(1493280504.184290) can0 3C0#6A7E1335
(1493280504.198583) can0 684#61294C2840031012
(1493280504.203330) can0 30B#5F00110000000098
(1493280504.232550) can0 1FD#0000000000000000
(1493280504.248668) can0 597#66C5615F722E2E30
(1493280504.253688) can0 6C7#04051101020001
(1493280504.253929) can0 30B#5F00110000000098
(1493280504.254178) can0 5F2#CA00
(1493280504.288432) can0 3C0#6A7E1335
(1493280504.292583) can0 1FD#0000000000000000
(1493280504.294712) can0 1BFC38B1#0000000000000000
(1493280504.295053) can0 1BFC38BB#FFFFFFFFFFFFFFFF
(1493280504.295408) can0 1BFC38BA#535553500000001A
(1493280504.295670) can0 1BFC38B9#030296408005A3F4
(1493280504.296038) can0 1BFC38B8#0000000800000000
(1493280504.296310) can0 1BFC38B7#8001648425020263
(1493280504.296690) can0 1BFC38B6#0000138E000034A8
(1493280504.296916) can0 1BFC38B5#0502FF9202028292
(1493280504.297283) can0 1BFC38B4#110F01010000A121
(1493280504.297658) can0 1BFC38B3#8001648432404433
(1493280504.297916) can0 1BFC38B2#800164848383807B
(1493280504.298797) can0 352#8A41F64F7BD08E32
(1493280504.304025) can0 30B#5F00110000000098
(1493280504.348946) can0 4CF#34
(1493280504.353710) can0 1FD#0000000000000000
(1493280504.354088) can0 30B#5F00110000000098
(1493280504.391794) can0 3C0#6A7E1335
(1493280504.402461) can0 30D#F7B75314
(1493280504.403288) can0 30B#5F00110000000098
(1493280504.412810) can0 1FD#0000000000000000
(1493280504.449219) can0 161#73F9
(1493280504.453684) can0 6C7#04051101020001
(1493280504.454058) can0 30B#5F00110000000098
(1493280504.454171) can0 5F2#CA00
(1493280504.472575) can0 1FD#0000000000000000
(1493280504.495271) can0 3C0#6A7E1335
(1493280504.499321) can0 163#43
(1493280504.503700) can0 30B#5F00110000000098
(1493280504.532563) can0 1FD#0000000000000000
(1493280504.546065) can0 1BFC38B1#0000000000000000
(1493280504.546441) can0 1BFC38BB#FFFFFFFFFFFFFFFF
(1493280504.546706) can0 1BFC38BA#535553500000001A
(1493280504.546937) can0 1BFC38B9#040096408008FC68
(1493280504.547325) can0 1BFC38B8#0000000800000000
(1493280504.547696) can0 1BFC38B7#800164842502029D
(1493280504.547957) can0 1BFC38B6#0000139100000000
(1493280504.548337) can0 1BFC38B5#0502FF9202028292
(1493280504.548591) can0 1BFC38B4#110F01010000A121
(1493280504.548998) can0 1BFC38B3#8001648432404433
(1493280504.549193) can0 1BFC38B2#800164848383807B
(1493280504.549445) can0 019#09265D1F9DC6
(1493280504.552576) can0 30B#5F00110000000098
(1493280504.552956) can0 65E#88089DE346C10600
(1493280504.563705) can0 62F#4451000E16
(1493280504.592582) can0 1FD#0000000000000000
(1493280504.598655) can0 3C0#6A7E1335
(1493280504.599530) can0 610#DDC9BA27A79B3B3A
(1493280504.603347) can0 30B#5F00110000000098
(1493280504.649838) can0 4A6#19CA69
(1493280504.653958) can0 6C7#04051101020001
(1493280504.654319) can0 1FD#0000000000000000
(1493280504.654569) can0 30B#5F00110000000098
(1493280504.654819) can0 5F2#CA00
(1493280504.699963) can0 66B#7370ED
(1493280504.701937) can0 3C0#6A7E1335
(1493280504.703412) can0 30B#5F00110000000098
(1493280504.712693) can0 1FD#0000000000000000
(1493280504.750076) can0 365#96A1077C721E3609
(1493280504.753825) can0 30B#5F00110000000098
(1493280504.772580) can0 1FD#0000000000000000
(1493280504.794830) can0 1BFC38B1#0000000000000000
(1493280504.795068) can0 1BFC38BB#FFFFFFFFFFFFFFFF
(1493280504.795453) can0 1BFC38BA#0000000700000014
(1493280504.795828) can0 1BFC38B9#040096408008FC68
(1493280504.796075) can0 1BFC38B8#0000000800000000
(1493280504.796477) can0 1BFC38B7#800164842502029D
(1493280504.796735) can0 1BFC38B6#0000139300000000
(1493280504.797154) can0 1BFC38B5#0502FF9202028292
(1493280504.797328) can0 1BFC38B4#110F01010000A121
(1493280504.797702) can0 1BFC38B3#8001648432404433
(1493280504.797969) can0 1BFC38B2#800164848383807B
(1493280504.800261) can0 45C#BB446057BDAD7D60
(1493280504.804073) can0 30B#5F00110000000098
(1493280504.805291) can0 3C0#6A7E1335
(1493280504.832577) can0 1FD#0000000000000000
(1493280504.850368) can0 30F#004F452372D45626
(1493280504.853701) can0 6C7#04051101020001
(1493280504.853953) can0 30B#5F00110000000098
(1493280504.854195) can0 5F2#CA00
(1493280504.892626) can0 1FD#0000000000000000
(1493280504.900465) can0 03F#F3B44F
(1493280504.903578) can0 30B#5F00110000000098
(1493280504.909200) can0 3C0#6A7E1335
(1493280504.950717) can0 72A#F60E963D3A6DBE35
(1493280504.953972) can0 1FD#0000000000000000
(1493280504.954158) can0 30B#5F00110000000098
(1493280505.000838) can0 266#E208FA6F
(1493280505.003335) can0 30B#5F00110000000098
(1493280505.012942) can0 3C0#6A7E1335
(1493280505.012946) can0 1FD#0000000000000000
(1493280505.046087) can0 1BFC38B1#0000000000000000
(1493280505.046457) can0 1BFC38BB#FFFFFFFFFFFFFFFF
(1493280505.046701) can0 1BFC38BA#0000000700000014
(1493280505.047087) can0 1BFC38B9#040096408008FC68
(1493280505.047306) can0 1BFC38B8#0000000800000000
(1493280505.047693) can0 1BFC38B7#800164842502029D
(1493280505.047961) can0 1BFC38B6#000013960000A121
(1493280505.048361) can0 1BFC38B5#0502FF9202028292
(1493280505.048559) can0 1BFC38B4#110F01010000A121
(1493280505.048946) can0 1BFC38B3#8001648431009988
(1493280505.049203) can0 1BFC38B2#8001648483838071
(1493280505.050962) can0 017#056FAB4083B64662
(1493280505.054474) can0 6C7#04051101020001
(1493280505.054676) can0 30B#5F00110000000098
(1493280505.054834) can0 5F2#CA00
(1493280505.055093) can0 643#000200
(1493280505.055310) can0 64E#00A1210000000000
(1493280505.055567) can0 65E#8808774542260800
(1493280505.055977) can0 6B8#6D08000000000000
(1493280505.056178) can0 6BC#92823651324C0702
(1493280505.072603) can0 1FD#0000000000000000
(1493280505.101234) can0 69F#BDC14A26043A2838
(1493280505.103341) can0 30B#5F00110000000098
(1493280505.116753) can0 3C0#6A7E1335
(1493280505.132598) can0 1FD#0000000000000000
(1493280505.151321) can0 021#76585E
(1493280505.154093) can0 30B#5F00110000000098
(1493280505.163342) can0 6B6#390C1C000E16
(1493280505.163581) can0 6B7#BEB4000008FF80FE
(1493280505.192596) can0 1FD#0000000000000000
(1493280505.201485) can0 4E0#3B
(1493280505.203469) can0 30B#5F00110000000098
(1493280505.220350) can0 3C0#6A7E1335
(1493280505.251549) can0 35F#62B434399FBB4F5D
(1493280505.253988) can0 6C7#04051101020001
(1493280505.254352) can0 1FD#0000000000000000
(1493280505.254621) can0 30B#5F00110000000098
(1493280505.254624) can0 5F2#CA00
(1493280505.294849) can0 1BFC38B1#0000000000000000
(1493280505.295224) can0 1BFC38BB#FFFFFFFFFFFFFFFF
(1493280505.295462) can0 1BFC38BA#0000000700000014
(1493280505.295857) can0 1BFC38B9#040096408008FC68
(1493280505.296107) can0 1BFC38B8#0000000800000000
(1493280505.296504) can0 1BFC38B7#800164842502029D
(1493280505.296735) can0 1BFC38B6#0000139802028292
(1493280505.297132) can0 1BFC38B5#0502FF9202028292
(1493280505.297392) can0 1BFC38B4#110F01010000A121
(1493280505.297757) can0 1BFC38B3#8001648431009988
(1493280505.297992) can0 1BFC38B2#8001648483838071
(1493280505.301784) can0 07E#F8033B05A8
(1493280505.304225) can0 30B#5F00110000000098
(1493280505.312861) can0 1FD#0000000000000000
(1493280505.324342) can0 3C0#6A7E1335
(1493280505.351837) can0 451#E394C035B86E8769
(1493280505.353978) can0 30B#5F00110000000098
(1493280505.372608) can0 1FD#0000000000000000
(1493280505.401978) can0 3C2#C53DD424DA
(1493280505.403853) can0 30B#5F00110000000098
(1493280505.427855) can0 3C0#6A7E1335
(1493280505.432635) can0 1FD#0000000000000000
(1493280505.452093) can0 0C0#5D0AD6765F4FE214
(1493280505.453855) can0 6C7#04051101020001
(1493280505.454088) can0 30B#5F00110000000098
(1493280505.454362) can0 5F2#CA00
(1493280505.492645) can0 1FD#0000000000000000
(1493280505.502444) can0 443#63890A4D64FCF51D
(1493280505.503369) can0 30B#5F00110000000098
(1493280505.531574) can0 3C0#6A7E1335
(1493280505.546114) can0 1BFC38B1#0000000000000000
(1493280505.546486) can0 1BFC38BB#FFFFFFFFFFFFFFFF
(1493280505.546763) can0 1BFC38BA#0000000700000014
(1493280505.547116) can0 1BFC38B9#050296408005A3F4
(1493280505.547341) can0 1BFC38B8#0000000800000000
(1493280505.547715) can0 1BFC38B7#8006BD00550505D8
(1493280505.547948) can0 1BFC38B6#0000139B00000000
(1493280505.548366) can0 1BFC38B5#0502FF9202028292
(1493280505.548618) can0 1BFC38B4#110F01010000A121
(1493280505.548997) can0 1BFC38B3#8001648431009988
(1493280505.549366) can0 1BFC38B2#8001648483838071
(1493280505.552389) can0 76E#E2F8B2504EEC2072
(1493280505.554513) can0 1FD#0000000000000000
(1493280505.554749) can0 30B#5F00110000000098
(1493280505.554994) can0 65E#88080355914C0800
(1493280505.563885) can0 62F#4451000E17
(1493280505.602634) can0 70A#3ECCFE046A5A5F0B
(1493280505.603362) can0 30B#5F00110000000098
(1493280505.612993) can0 1FD#0000000000000000
(1493280505.635192) can0 3C0#6A7E1335
(1493280505.652795) can0 458#09
(1493280505.654395) can0 6C7#04051101020001
(1493280505.654616) can0 30B#5F00110000000098
(1493280505.654714) can0 5F2#CA00
(1493280505.655220) can0 630#33E90500
(1493280505.672767) can0 1FD#0000000000000000
(1493280505.703032) can0 1F6#7F
(1493280505.703615) can0 30B#5F00110000000098
(1493280505.732648) can0 1FD#0000000000000000
(1493280505.738487) can0 3C0#6A7E1335
(1493280505.753019) can0 4EF#009D
(1493280505.754278) can0 30B#5F00110000000098
(1493280505.792638) can0 1FD#0000000000000000
(1493280505.794868) can0 1BFC38B1#0000000000000000
(1493280505.795250) can0 1BFC38BB#FFFFFFFFFFFFFFFF
(1493280505.795488) can0 1BFC38BA#535553500000001A
(1493280505.795870) can0 1BFC38B9#050296408005A3F4
(1493280505.796124) can0 1BFC38B8#0000000800000000
(1493280505.796498) can0 1BFC38B7#8006BD00550505D8
(1493280505.796742) can0 1BFC38B6#0000139D00000000
(1493280505.797105) can0 1BFC38B5#0502FF9202028292
(1493280505.797392) can0 1BFC38B4#110F01010000A121
(1493280505.797709) can0 1BFC38B3#8001648431009988
(1493280505.797978) can0 1BFC38B2#8001648483838071
(1493280505.803095) can0 727#8C6C6C6DE7
(1493280505.804144) can0 30B#5F00110000000098
(1493280505.842339) can0 3C0#6A7E1335
(1493280505.853363) can0 78F#4747097FD313DD4B
(1493280505.854212) can0 6C7#04051101020001
(1493280505.854453) can0 1FD#0000000000000000
(1493280505.854833) can0 30B#5F00110000000098
(1493280505.854968) can0 5F2#CA00
(1493280505.903351) can0 30B#5F00110000000098
(1493280505.903466) can0 303#3710D3697172D640
(1493280505.912758) can0 1FD#0000000000000000
(1493280505.946003) can0 3C0#6A7E1335
(1493280505.953656) can0 284#C05EF7328E31A401
(1493280505.954266) can0 30B#5F00110000000098
(1493280505.972784) can0 1FD#0000000000000000
(1493280506.003382) can0 30B#5F00110000000098
(1493280506.003772) can0 436#F88B030D8E48E138
(1493280506.032775) can0 1FD#0000000000000000
(1493280506.046143) can0 1BFC38B1#0000000000000000
(1493280506.046508) can0 1BFC38BB#FFFFFFFFFFFFFFFF
(1493280506.046865) can0 1BFC38BA#535553500000001A
(1493280506.047111) can0 1BFC38B9#050296408005A3F4
(1493280506.047464) can0 1BFC38B8#0000000800000000
(1493280506.047723) can0 1BFC38B7#8006BD00550505D8
(1493280506.048086) can0 1BFC38B6#000013A00000A121
(1493280506.048331) can0 1BFC38B5#0502FF9202028292
(1493280506.048708) can0 1BFC38B4#110F01010000A121
(1493280506.048960) can0 1BFC38B3#800164843100BBAA
(1493280506.049329) can0 1BFC38B2#80016484838300E6
(1493280506.050088) can0 3C0#6A7E1335
(1493280506.053856) can0 39F#65
(1493280506.054343) can0 6C7#04051101020001
(1493280506.054597) can0 30B#5F00110000000098
(1493280506.054847) can0 5F2#CA00
(1493280506.054954) can0 643#000200
(1493280506.055344) can0 64E#00A1210000000000
(1493280506.055595) can0 65E#88082BE55BBA0800
(1493280506.055846) can0 6B8#6D08000000000000
(1493280506.056099) can0 6BC#92823651324C0708
(1493280506.063927) can0 62D#34837801F8000000
(1493280506.092751) can0 1FD#0000000000000000
(1493280506.103346) can0 30B#5F00110000000098
(1493280506.104041) can0 402#DEC3CA4A
(1493280506.153776) can0 3C0#6A7E1335
(1493280506.153970) can0 1FD#0000000000000000
(1493280506.154083) can0 346#A401356D6D3A5004
(1493280506.154473) can0 30B#5F00110000000098
(1493280506.154719) can0 631#34CD00
(1493280506.162915) can0 6B6#390C1C000E17
(1493280506.163262) can0 6B7#BEB4000008FF80FE
(1493280506.203392) can0 30B#5F00110000000098
(1493280506.204264) can0 3A3#
(1493280506.212769) can0 1FD#0000000000000000
(1493280506.253895) can0 6C7#04051101020001
(1493280506.254287) can0 30B#5F00110000000098
(1493280506.254302) can0 519#05D721701C284740
(1493280506.254349) can0 5F2#CA00
(1493280506.257891) can0 3C0#6A7E1335
(1493280506.272796) can0 1FD#0000000000000000
(1493280506.294896) can0 1BFC38B1#0000000000000000
(1493280506.295265) can0 1BFC38BB#FFFFFFFFFFFFFFFF
(1493280506.295514) can0 1BFC38BA#535553500000001A
(1493280506.295908) can0 1BFC38B9#050296408005A3F4
(1493280506.296150) can0 1BFC38B8#0000000800000000
(1493280506.296543) can0 1BFC38B7#8006BD00550505D8
(1493280506.296760) can0 1BFC38B6#000013A2000034A8
(1493280506.297140) can0 1BFC38B5#0502FF9202028292
(1493280506.297438) can0 1BFC38B4#110F01010000A121
(1493280506.297808) can0 1BFC38B3#800164843100BBAA
(1493280506.298019) can0 1BFC38B2#80016484838300E6
(1493280506.304158) can0 30B#5F00110000000098
(1493280506.304704) can0 246#8E9A1D01CAFC1014
(1493280506.332803) can0 1FD#0000000000000000
(1493280506.353896) can0 30B#5F00110000000098
(1493280506.354772) can0 056#582EB5158D9CEE32
(1493280506.361600) can0 3C0#6A7E1335
(1493280506.392803) can0 1FD#0000000000000000
(1493280506.403397) can0 30B#5F00110000000098
(1493280506.404978) can0 44C#1B
(1493280506.453781) can0 6C7#04051101020001
(1493280506.454184) can0 1FD#0000000000000000
(1493280506.454365) can0 30B#5F00110000000098
(1493280506.454477) can0 5F2#CB00
(1493280506.455039) can0 452#
(1493280506.465278) can0 3C0#6A7E1335
(1493280506.503403) can0 30B#5F00110000000098
(1493280506.505238) can0 464#
(1493280506.513181) can0 1FD#0000000000000000
(1493280506.546161) can0 1BFC38B1#0000000000000000
(1493280506.546528) can0 1BFC38BB#FFFFFFFFFFFFFFFF
(1493280506.546905) can0 1BFC38BA#535553500000001A
(1493280506.547159) can0 1BFC38B9#060096408008FC68
(1493280506.547547) can0 1BFC38B8#0000000800000000
(1493280506.547770) can0 1BFC38B7#8001648425020214
(1493280506.548147) can0 1BFC38B6#000013A500000000
(1493280506.548403) can0 1BFC38B5#0502FF9202028292
(1493280506.548780) can0 1BFC38B4#110F01010000A121
(1493280506.549031) can0 1BFC38B3#800164843100BBAA
(1493280506.549407) can0 1BFC38B2#80016484838300E6
(1493280506.554418) can0 30B#5F00110000000098
(1493280506.554622) can0 65E#880827A59D470B00
(1493280506.555274) can0 23E#1712CE27E1C59C62
(1493280506.563945) can0 62F#4451000E18
(1493280506.568769) can0 3C0#6A7E1335
(1493280506.572814) can0 1FD#0000000000000000
(1493280506.603405) can0 30B#5F00110000000098
(1493280506.605425) can0 11B#1389E10634561A17
(1493280506.632801) can0 1FD#0000000000000000
(1493280506.654041) can0 6C7#04051101020001
(1493280506.654404) can0 30B#5F00110000000098
(1493280506.654515) can0 5F2#CB00
(1493280506.655536) can0 607#507E61574D085A3D
(1493280506.672792) can0 3C0#6A7E1335
(1493280506.692823) can0 1FD#0000000000000000
(1493280506.703410) can0 30B#5F00110000000098
(1493280506.705744) can0 756#17056B51AC377365
(1493280506.753923) can0 1FD#0000000000000000
(1493280506.754129) can0 30B#5F00110000000098
(1493280506.755820) can0 22C#
(1493280506.776910) can0 3C0#6A7E1335
(1493280506.795042) can0 1BFC38B1#0000000000000000
(1493280506.795263) can0 1BFC38BB#FFFFFFFFFFFFFFFF
(1493280506.795653) can0 1BFC38BA#0000000700000014
(1493280506.795903) can0 1BFC38B9#060096408008FC68
(1493280506.796317) can0 1BFC38B8#0000000800000000
(1493280506.796541) can0 1BFC38B7#8001648425020214
(1493280506.796935) can0 1BFC38B6#000013A700000000
(1493280506.797129) can0 1BFC38B5#0502FF9202028292
(1493280506.797525) can0 1BFC38B4#110F01010000A121
(1493280506.797770) can0 1BFC38B3#800164843100BBAA
(1493280506.798127) can0 1BFC38B2#80016484838300E6
(1493280506.804193) can0 30B#5F00110000000098
(1493280506.805978) can0 5C1#6506D45A13
(1493280506.812795) can0 1FD#0000000000000000
(1493280506.853926) can0 6C7#04051101020001
(1493280506.854152) can0 30B#5F00110000000098
(1493280506.854444) can0 5F2#CB00
(1493280506.856058) can0 3D5#68624C1E3A38A4
(1493280506.872795) can0 1FD#0000000000000000
(1493280506.880799) can0 3C0#6A7E1335
(1493280506.903459) can0 30B#5F00110000000098
(1493280506.906203) can0 547#E40F2264851FE837
(1493280506.932798) can0 1FD#0000000000000000
(1493280506.953929) can0 30B#5F00110000000098
(1493280506.956394) can0 69A#66E5841AB5D77704
(1493280506.984424) can0 3C0#6A7E1335
(1493280506.992832) can0 1FD#0000000000000000
(1493280507.003426) can0 30B#5F00110000000098
(1493280507.006597) can0 668#E92D921B6F24FB25
(1493280507.046303) can0 1BFC38B1#0000000000000000
(1493280507.046534) can0 1BFC38BB#FFFFFFFFFFFFFFFF
(1493280507.046929) can0 1BFC38BA#0000000700000014
(1493280507.047174) can0 1BFC38B9#060096408008FC68
(1493280507.047549) can0 1BFC38B8#0000000800000000
(1493280507.047930) can0 1BFC38B7#8001648425020214
(1493280507.048134) can0 1BFC38B6#000013AA0000A121
(1493280507.048511) can0 1BFC38B5#0502FF9202028292
(1493280507.048763) can0 1BFC38B4#110F01010000A121
(1493280507.049191) can0 1BFC38B3#80016484324000FF
(1493280507.049426) can0 1BFC38B2#800164848383807D
(1493280507.054415) can0 6C7#04051101020001
(1493280507.054689) can0 1FD#0000000000000000
(1493280507.055061) can0 30B#5F00110000000098
(1493280507.055186) can0 5F2#CB00
(1493280507.055437) can0 643#000200
(1493280507.055673) can0 64E#00A1210000000000
(1493280507.055925) can0 65E#88088A675BF80400
(1493280507.056168) can0 6B8#6D08000000000000
(1493280507.056410) can0 6BC#92823651324C0709
(1493280507.056642) can0 692#BD2C5563E8156269
(1493280507.087765) can0 3C0#6A7E1335
(1493280507.103434) can0 30B#5F00110000000098
(1493280507.106835) can0 518#954DD54E
(1493280507.112932) can0 1FD#0000000000000000
(1493280507.154053) can0 30B#5F00110000000098
(1493280507.157105) can0 544#BE0DA6500553B925
(1493280507.163438) can0 6B6#390C1C000E18
(1493280507.163846) can0 6B7#BEB4000008FF80FE
(1493280507.172812) can0 1FD#0000000000000000
(1493280507.191662) can0 3C0#6A7E1335
(1493280507.203471) can0 30B#5F00110000000098
(1493280507.207216) can0 323#199DFD
(1493280507.232815) can0 1FD#0000000000000000
(1493280507.254061) can0 6C7#04051101020001
(1493280507.254302) can0 30B#5F00110000000098
(1493280507.254412) can0 5F2#CB00
(1493280507.257353) can0 00A#33
(1493280507.292779) can0 1FD#0000000000000000
(1493280507.295036) can0 1BFC38B1#0000000000000000
(1493280507.295420) can0 3C0#6A7E1335
(1493280507.295424) can0 1BFC38BB#FFFFFFFFFFFFFFFF
(1493280507.295658) can0 1BFC38BA#0000000700000014
(1493280507.296206) can0 1BFC38B9#060096408008FC68
(1493280507.296411) can0 1BFC38B8#0000000800000000
(1493280507.296783) can0 1BFC38B7#8001648425020214
(1493280507.297034) can0 1BFC38B6#000013AC02028292
(1493280507.297419) can0 1BFC38B5#0502FF9202028292
(1493280507.297658) can0 1BFC38B4#110F01010000A121
(1493280507.298046) can0 1BFC38B3#80016484324000FF
(1493280507.298293) can0 1BFC38B2#800164848383807D
(1493280507.304345) can0 30B#5F00110000000098
(1493280507.353953) can0 1FD#0000000000000000
(1493280507.354174) can0 30B#5F00110000000098
(1493280507.399533) can0 3C0#6A7E1335
(1493280507.403474) can0 30B#5F00110000000098
(1493280507.413479) can0 1FD#0000000000000000
(1493280507.453945) can0 6C7#04051101020001
(1493280507.454197) can0 30B#5F00110000000098
(1493280507.454433) can0 5F2#CB00
(1493280507.472836) can0 1FD#0000000000000000
(1493280507.503449) can0 30B#5F00110000000098
(1493280507.503524) can0 3C0#6A7E1335
(1493280507.532853) can0 1FD#0000000000000000
(1493280507.546450) can0 1BFC38B1#0000000000000000
(1493280507.546684) can0 1BFC38BB#FFFFFFFFFFFFFFFF
(1493280507.546951) can0 1BFC38BA#0000000700000014
(1493280507.547323) can0 1BFC38B9#070296408005A3F4
(1493280507.547695) can0 1BFC38B8#0000000800000000
(1493280507.547966) can0 1BFC38B7#8001648425020250
(1493280507.548321) can0 1BFC38B6#000013AF00000000
(1493280507.548602) can0 1BFC38B5#0502FF9202028292
(1493280507.548952) can0 1BFC38B4#110F01010000A121
(1493280507.549202) can0 1BFC38B3#80016484324000FF
(1493280507.549578) can0 1BFC38B2#800164848383807D
(1493280507.554588) can0 30B#5F00110000000098
(1493280507.554845) can0 65E#88084C72B40D0C00
(1493280507.564089) can0 62F#4451000E19
(1493280507.592840) can0 1FD#0000000000000000
(1493280507.603468) can0 30B#5F00110000000098
(1493280507.607430) can0 3C0#6A7E1335
(1493280507.654206) can0 6C7#04051101020001
(1493280507.654582) can0 1FD#0000000000000000
(1493280507.654830) can0 30B#5F00110000000098
(1493280507.654943) can0 5F2#CB00
(1493280507.655207) can0 630#33EA010000
(1493280507.703588) can0 30B#5F00110000000098
(1493280507.710824) can0 3C0#6A7E1335
(1493280507.713244) can0 1FD#0000000000000000
(1493280507.754087) can0 30B#5F00110000000098
(1493280507.772840) can0 1FD#0000000000000000
(1493280507.795086) can0 1BFC38B1#0000000000000000
(1493280507.795494) can0 1BFC38BB#FFFFFFFFFFFFFFFF
(1493280507.795707) can0 1BFC38BA#535553500000001A
(1493280507.796162) can0 1BFC38B9#070296408005A3F4
(1493280507.796504) can0 1BFC38B8#0000000800000000
(1493280507.796710) can0 1BFC38B7#8001648425020250
(1493280507.796962) can0 1BFC38B6#000013B100000000
(1493280507.797338) can0 1BFC38B5#0502FF9202028292
(1493280507.797587) can0 1BFC38B4#110F01010000A121
(1493280507.797960) can0 1BFC38B3#80016484324000FF
(1493280507.798207) can0 1BFC38B2#800164848383807D
(1493280507.804223) can0 30B#5F00110000000098
(1493280507.814447) can0 3C0#6A7E1335
(1493280507.832901) can0 1FD#0000000000000000
(1493280507.854091) can0 6C7#04051101020001
(1493280507.854464) can0 30B#5F00110000000098
(1493280507.854574) can0 5F2#CC00
(1493280507.892976) can0 1FD#0000000000000000
(1493280507.903590) can0 30B#5F00110000000098
(1493280507.918220) can0 3C0#6A7E1335
(1493280507.954126) can0 1FD#0000000000000000
(1493280507.954467) can0 30B#5F00110000000098
(1493280508.003478) can0 30B#5F00110000000098
(1493280508.013101) can0 1FD#0000000000000000
(1493280508.021584) can0 3C0#6A7E1335
(1493280508.046471) can0 1BFC38B1#0000000000000000
(1493280508.046715) can0 1BFC38BB#FFFFFFFFFFFFFFFF
(1493280508.047098) can0 1BFC38BA#535553500000001A
(1493280508.047332) can0 1BFC38B9#070296408005A3F4
(1493280508.047737) can0 1BFC38B8#0000000800000000
(1493280508.047972) can0 1BFC38B7#8001648425020250
(1493280508.048378) can0 1BFC38B6#000013B40000A121
(1493280508.048628) can0 1BFC38B5#0502FF9202028292
(1493280508.049006) can0 1BFC38B4#110F01010000A121
(1493280508.049266) can0 1BFC38B3#8001648431005544
(1493280508.049629) can0 1BFC38B2#80016484838380F3
(1493280508.054630) can0 6C7#04051101020001
(1493280508.054856) can0 30B#5F00110000000098
(1493280508.054976) can0 5F2#CC00
(1493280508.055237) can0 643#000200
(1493280508.055605) can0 64E#00A1210000000000
(1493280508.055848) can0 65E#88080E357B3A0500
(1493280508.056095) can0 6B8#6D08000000000000
(1493280508.056486) can0 6BC#92823651324C070B
(1493280508.063861) can0 62D#348414
(1493280508.072865) can0 1FD#0000000000000000
(1493280508.103479) can0 30B#5F00110000000098
(1493280508.125093) can0 3C0#6A7E1335
(1493280508.132977) can0 1FD#0000000000000000
(1493280508.154011) can0 30B#5F00110000000098
(1493280508.154367) can0 631#34CE01
(1493280508.163856) can0 6B6#390C1C000E19
(1493280508.164229) can0 6B7#BEB4000008FF80FE
(1493280508.193025) can0 1FD#0000000000000000
(1493280508.203635) can0 30B#5F00110000000098
(1493280508.228862) can0 3C0#6A7E1335
(1493280508.253988) can0 6C7#04051101020001
(1493280508.254354) can0 1FD#0000000000000000
(1493280508.254596) can0 30B#5F00110000000098
(1493280508.254700) can0 5F2#CC00
(1493280508.295113) can0 1BFC38B1#0000000000000000
(1493280508.295502) can0 1BFC38BB#FFFFFFFFFFFFFFFF
(1493280508.295722) can0 1BFC38BA#535553500000001A
(1493280508.296112) can0 1BFC38B9#070296408005A3F4
(1493280508.296512) can0 1BFC38B8#0000000800000000
(1493280508.296738) can0 1BFC38B7#8001648425020250
(1493280508.297001) can0 1BFC38B6#000013B6000034A8
(1493280508.297368) can0 1BFC38B5#0502FF9202028292
(1493280508.297596) can0 1BFC38B4#110F01010000A121
(1493280508.297964) can0 1BFC38B3#8001648431005544
(1493280508.298213) can0 1BFC38B2#80016484838380F3
(1493280508.304371) can0 30B#5F00110000000098
(1493280508.312992) can0 1FD#0000000000000000
(1493280508.332480) can0 3C0#6A7E1335
(1493280508.354145) can0 30B#5F00110000000098
(1493280508.372990) can0 1FD#0000000000000000
(1493280508.403647) can0 30B#5F00110000000098
(1493280508.432997) can0 1FD#0000000000000000
(1493280508.435830) can0 3C0#6A7E1335
(1493280508.454105) can0 6C7#04051101020001
(1493280508.454367) can0 30B#5F00110000000098
(1493280508.454482) can0 5F2#CC00
(1493280508.492999) can0 1FD#0000000000000000
(1493280508.503654) can0 30B#5F00110000000098
(1493280508.539841) can0 3C0#6A7E1335
(1493280508.546535) can0 1BFC38B1#0000000000000000
(1493280508.546883) can0 1BFC38BB#FFFFFFFFFFFFFFFF
(1493280508.547083) can0 1BFC38BA#535553500000001A
(1493280508.547481) can0 1BFC38B9#000096408008FC68
(1493280508.547850) can0 1BFC38B8#0000000800000000
(1493280508.548154) can0 1BFC38B7#800164842502028C
(1493280508.548519) can0 1BFC38B6#000013B900000000
(1493280508.548750) can0 1BFC38B5#0502FF9202028292
(1493280508.549143) can0 1BFC38B4#110F01010000A121
(1493280508.549368) can0 1BFC38B3#8001648431005544
(1493280508.549728) can0 1BFC38B2#80016484838380F3
(1493280508.553027) can0 1FD#0000000000000000
(1493280508.553402) can0 30B#5F00110000000098
(1493280508.553601) can0 65E#880899E26DF00900
(1493280508.564148) can0 62F#4451000E1A
(1493280508.603623) can0 30B#5F00110000000098
(1493280508.613247) can0 1FD#0000000000000000
(1493280508.643111) can0 3C0#6A7E1335
(1493280508.654287) can0 6C7#04051101020001
(1493280508.654655) can0 30B#5F00110000000098
(1493280508.654761) can0 5F2#CC00
(1493280508.673004) can0 1FD#0000000000000000
(1493280508.703629) can0 30B#5F00110000000098
(1493280508.733010) can0 1FD#0000000000000000
(1493280508.746624) can0 3C0#6A7E1335
(1493280508.754152) can0 30B#5F00110000000098
(1493280508.793015) can0 1FD#0000000000000000
(1493280508.795167) can0 1BFC38B1#0000000000000000
(1493280508.795509) can0 1BFC38BB#FFFFFFFFFFFFFFFF
(1493280508.795923) can0 1BFC38BA#0000000700000014
(1493280508.796115) can0 1BFC38B9#000096408008FC68
(1493280508.796504) can0 1BFC38B8#0000000800000000
(1493280508.796756) can0 1BFC38B7#800164842502028C
(1493280508.797133) can0 1BFC38B6#000013BB00000000
(1493280508.797507) can0 1BFC38B5#0502FF9202028292
(1493280508.797773) can0 1BFC38B4#110F01010000A121
(1493280508.798003) can0 1BFC38B3#8001648431005544
(1493280508.798408) can0 1BFC38B2#80016484838380F3
(1493280508.804394) can0 30B#5F00110000000098
(1493280508.850359) can0 3C0#6A7E1335
(1493280508.854168) can0 6C7#04051101020001
(1493280508.854382) can0 1FD#0000000000000000
(1493280508.854609) can0 30B#5F00110000000098
(1493280508.854876) can0 5F2#CC00
(1493280508.903639) can0 30B#5F00110000000098
(1493280508.913264) can0 1FD#0000000000000000
(1493280508.953877) can0 3C0#6A7E1335
(1493280508.954092) can0 30B#5F00110000000098
(1493280508.973016) can0 1FD#0000000000000000
(1493280509.003646) can0 30B#5F00110000000098
(1493280509.033025) can0 1FD#0000000000000000
(1493280509.046518) can0 1BFC38B1#0000000000000000
(1493280509.046754) can0 1BFC38BB#FFFFFFFFFFFFFFFF
(1493280509.047147) can0 1BFC38BA#0000000700000014
(1493280509.047544) can0 1BFC38B9#000096408008FC68
(1493280509.047765) can0 1BFC38B8#0000000800000000
(1493280509.048145) can0 1BFC38B7#800164842502028C
(1493280509.048387) can0 1BFC38B6#000013BE0000A121
(1493280509.048777) can0 1BFC38B5#0502FF9202028292
(1493280509.049044) can0 1BFC38B4#110F01010000A121
(1493280509.049279) can0 1BFC38B3#8001648431007766
(1493280509.049650) can0 1BFC38B2#80016484838300F8
(1493280509.054658) can0 6C7#04051101020001
(1493280509.054901) can0 30B#5F00110000000098
(1493280509.055161) can0 5F2#CC00
(1493280509.055271) can0 643#000200
(1493280509.055530) can0 64E#00A1210000000000
(1493280509.055888) can0 65E#8808F00687F00900
(1493280509.056118) can0 6B8#6D08000000000000
(1493280509.056363) can0 6BC#92823651324C0716
(1493280509.058104) can0 3C0#6A7E1335
(1493280509.093039) can0 1FD#0000000000000000
(1493280509.103629) can0 30B#5F00110000000098
(1493280509.154276) can0 1FD#0000000000000000
(1493280509.154472) can0 30B#5F00110000000098
(1493280509.161790) can0 3C0#6A7E1335
(1493280509.163394) can0 6B6#390C1C000E1A
(1493280509.163621) can0 6B7#BEB4000008FF80FE
(1493280509.203643) can0 30B#5F00110000000098
(1493280509.213156) can0 1FD#0000000000000000
(1493280509.254171) can0 6C7#04051101020001
(1493280509.254553) can0 30B#5F00110000000098
(1493280509.254557) can0 5F2#CC00
(1493280509.265544) can0 3C0#6A7E1335
(1493280509.273031) can0 1FD#0000000000000000
(1493280509.295281) can0 1BFC38B1#0000000000000000
(1493280509.295525) can0 1BFC38BB#FFFFFFFFFFFFFFFF
(1493280509.295918) can0 1BFC38BA#0000000700000014
(1493280509.296160) can0 1BFC38B9#000096408008FC68
(1493280509.296563) can0 1BFC38B8#0000000800000000
(1493280509.296933) can0 1BFC38B7#800164842502028C
(1493280509.297175) can0 1BFC38B6#000013C002028292
(1493280509.297543) can0 1BFC38B5#0502FF9202028292
(1493280509.297777) can0 1BFC38B4#110F01010000A121
(1493280509.298135) can0 1BFC38B3#8001648431007766
(1493280509.298509) can0 1BFC38B2#80016484838300F8
(1493280509.304528) can0 30B#5F00110000000098
(1493280509.333032) can0 1FD#0000000000000000
(1493280509.354157) can0 30B#5F00110000000098
(1493280509.369158) can0 3C0#6A7E1335
(1493280509.393049) can0 1FD#0000000000000000
(1493280509.403658) can0 30B#5F00110000000098
(1493280509.454038) can0 6C7#04051101020001
(1493280509.454440) can0 1FD#0000000000000000
(1493280509.454658) can0 30B#5F00110000000098
(1493280509.454748) can0 5F2#CC00
(1493280509.472532) can0 3C0#6A7E1335
(1493280509.503665) can0 30B#5F00110000000098
(1493280509.513320) can0 1FD#0000000000000000
(1493280509.546545) can0 1BFC38B1#0000000000000000
(1493280509.546748) can0 1BFC38BB#FFFFFFFFFFFFFFFF
(1493280509.547156) can0 1BFC38BA#0000000700000014
(1493280509.547538) can0 1BFC38B9#010296408005A3F4
(1493280509.547815) can0 1BFC38B8#0000000800000000
(1493280509.548160) can0 1BFC38B7#80016484250202C8
(1493280509.548415) can0 1BFC38B6#000013C300000000
(1493280509.548787) can0 1BFC38B5#0502FF9202028292
(1493280509.549013) can0 1BFC38B4#110F01010000A121
(1493280509.549380) can0 1BFC38B3#8001648431007766
(1493280509.549630) can0 1BFC38B2#80016484838300F8
(1493280509.554626) can0 30B#5F00110000000098
(1493280509.555006) can0 65E#88082B78725E0500
(1493280509.564131) can0 62F#4451000E1B
(1493280509.573034) can0 1FD#0000000000000000
(1493280509.576368) can0 3C0#6A7E1335
(1493280509.603669) can0 30B#5F00110000000098
(1493280509.633048) can0 1FD#0000000000000000
(1493280509.654549) can0 6C7#04051101020001
(1493280509.654788) can0 30B#5F00110000000098
(1493280509.654899) can0 5F2#CC00
(1493280509.655173) can0 630#33EB0103010000
(1493280509.679631) can0 3C0#6A7E1335
(1493280509.693048) can0 1FD#0000000000000000
(1493280509.704324) can0 30B#5F00110000000098
(1493280509.723050) can0 64E#00B1040000000000
(1493280509.754182) can0 1FD#0000000000000000
(1493280509.754588) can0 30B#5F00110000000098
(1493280509.783557) can0 3C0#6A7E1335
(1493280509.795333) can0 1BFC38B1#0000000000000000
(1493280509.795691) can0 1BFC38BB#FFFFFFFFFFFFFFFF
(1493280509.795924) can0 1BFC38BA#535553500000001A
(1493280509.796172) can0 1BFC38B9#010296408005A3F4
(1493280509.796586) can0 1BFC38B8#0000000800000000
(1493280509.796975) can0 1BFC38B7#80016484250202C8
(1493280509.797173) can0 1BFC38B6#000013C500000000
(1493280509.797537) can0 1BFC38B5#0502FF9202028292
(1493280509.797784) can0 1BFC38B4#110F01010000A121
(1493280509.798038) can0 1BFC38B3#8001648431007766
(1493280509.798407) can0 1BFC38B2#80016484838300F8
(1493280509.804550) can0 30B#5F00110000000098
(1493280509.813092) can0 1FD#0000000000000000
(1493280509.854711) can0 6C7#04051101020001
(1493280509.854901) can0 30B#5F00110000000098
(1493280509.855188) can0 5F2#CC00
(1493280509.873089) can0 1FD#0000000000000000
(1493280509.887288) can0 3C0#6A7E1335
(1493280509.904183) can0 30B#5F00110000000098
(1493280509.933311) can0 1FD#0000000000000000
(1493280509.954441) can0 30B#5F00110000000098
(1493280509.990922) can0 3C0#6A7E1335
(1493280509.993092) can0 1FD#0000000000000000
(1493280510.003691) can0 30B#5F00110000000098
(1493280510.046572) can0 1BFC38B1#0000000000000000
(1493280510.046952) can0 1BFC38BB#FFFFFFFFFFFFFFFF
(1493280510.047179) can0 1BFC38BA#535553500000001A
(1493280510.047565) can0 1BFC38B9#010296408005A3F4
(1493280510.047802) can0 1BFC38B8#0000000800000000
(1493280510.048177) can0 1BFC38B7#80016484250202C8
(1493280510.048553) can0 1BFC38B6#000013C8001F0003
(1493280510.048805) can0 1BFC38B5#0502FF9202028292
(1493280510.049054) can0 1BFC38B4#00010101001F0003
(1493280510.049438) can0 1BFC38B3#800164843240CCBB
(1493280510.049685) can0 1BFC38B2#800164848383807F
(1493280510.055093) can0 6C7#04051101020001
(1493280510.055323) can0 1FD#0000000000000000
(1493280510.055596) can0 30B#5F00110000000098
(1493280510.055857) can0 5F2#CC00
(1493280510.055970) can0 643#000200
(1493280510.056341) can0 64E#00B1040000000000
(1493280510.056602) can0 65E#88082FD473200700
(1493280510.056863) can0 6B8#6D08000000000000
(1493280510.057209) can0 6BC#92823651324C0718
(1493280510.063727) can0 62D#348F00
