(1493280570.709766) can0 30B#5F00110000000098
(1493280570.719679) can0 1FD#0000000000000000
(1493280570.721514) can0 3C0#6A7E1335
(1493280570.760312) can0 30B#5F00110000000098
(1493280570.779212) can0 1FD#0000000000000000
(1493280570.801309) can0 1BFC38B1#0000000000000000
(1493280570.801722) can0 1BFC38BB#FFFFFFFFFFFFFFFF
(1493280570.801924) can0 1BFC38BA#0000000700000014
(1493280570.802308) can0 1BFC38B9#060096408008FC68
(1493280570.802558) can0 1BFC38B8#0000000800000000
(1493280570.802932) can0 1BFC38B7#80016484250202F3
(1493280570.803178) can0 1BFC38B6#0000162700000000
(1493280570.803571) can0 1BFC38B5#0502FF1202028A12
(1493280570.803801) can0 1BFC38B4#110F01010000A32B
(1493280570.804197) can0 1BFC38B3#800164843240CCBB
(1493280570.804427) can0 1BFC38B2#80016484838380E7
(1493280570.810576) can0 30B#5F00110000000098
(1493280570.824935) can0 3C0#6A7E1335
(1493280570.839182) can0 1FD#0000000000000000
(1493280570.860187) can0 6C7#04051101020001
(1493280570.860438) can0 30B#5F00110000000098
(1493280570.860666) can0 5F2#CD00
(1493280570.899221) can0 1FD#0000000000000000
(1493280570.909838) can0 30B#5F00110000000098
(1493280570.928545) can0 3C0#6A7E1335
(1493280570.960319) can0 1FD#0000000000000000
(1493280570.960566) can0 30B#5F00110000000098
(1493280571.009820) can0 30B#5F00110000000098
(1493280571.019474) can0 1FD#0000000000000000
(1493280571.031907) can0 3C0#6A7E1335
(1493280571.052691) can0 1BFC38B1#0000000000000000
(1493280571.053070) can0 1BFC38BB#FFFFFFFFFFFFFFFF
(1493280571.053317) can0 1BFC38BA#0000000700000014
(1493280571.053716) can0 1BFC38B9#060096408008FC68
(1493280571.054064) can0 1BFC38B8#0000000800000000
(1493280571.054318) can0 1BFC38B7#80016484250202F3
(1493280571.054564) can0 1BFC38B6#0000162A0000A32B
(1493280571.054951) can0 1BFC38B5#0502FF1202028A12
(1493280571.055207) can0 1BFC38B4#110F01010000A32B
(1493280571.055549) can0 1BFC38B3#8001648431001100
(1493280571.055796) can0 1BFC38B2#80016484838380FD
(1493280571.059223) can0 6C7#04051101020001
(1493280571.059441) can0 30B#5F00110000000098
(1493280571.059565) can0 5F2#CD00
(1493280571.059835) can0 643#000200
(1493280571.060066) can0 64E#00A32B0000000000
(1493280571.060308) can0 65E#88089896D3280900
(1493280571.060657) can0 6B8#6D08000000000000
(1493280571.060903) can0 6BC#92823651324C0736
(1493280571.079222) can0 1FD#0000000000000000
(1493280571.109832) can0 30B#5F00110000000098
(1493280571.135916) can0 3C0#6A7E1335
(1493280571.139229) can0 1FD#0000000000000000
(1493280571.160356) can0 30B#5F00110000000098
(1493280571.169821) can0 6B6#390C1C000F1C
(1493280571.170085) can0 6B7#BEB4000008FF80FE
(1493280571.199233) can0 1FD#0000000000000000
(1493280571.209819) can0 30B#5F00110000000098
(1493280571.239813) can0 3C0#6A7E1335
(1493280571.260434) can0 6C7#04051101020001
(1493280571.260690) can0 1FD#0000000000000000
(1493280571.260933) can0 30B#5F00110000000098
(1493280571.261193) can0 5F2#CD00
(1493280571.301327) can0 1BFC38B1#0000000000000000
(1493280571.301700) can0 1BFC38BB#FFFFFFFFFFFFFFFF
(1493280571.302116) can0 1BFC38BA#0000000700000014
(1493280571.302312) can0 1BFC38B9#060096408008FC68
(1493280571.302729) can0 1BFC38B8#0000000800000000
(1493280571.302954) can0 1BFC38B7#80016484250202F3
(1493280571.303366) can0 1BFC38B6#0000162C02028A12
(1493280571.303576) can0 1BFC38B5#0502FF1202028A12
(1493280571.303957) can0 1BFC38B4#110F01010000A32B
(1493280571.304200) can0 1BFC38B3#8001648431001100
(1493280571.304434) can0 1BFC38B2#80016484838380FD
(1493280571.310559) can0 30B#5F00110000000098
(1493280571.319195) can0 1FD#0000000000000000
(1493280571.343693) can0 3C0#6A7E1335
(1493280571.359834) can0 30B#5F00110000000098
(1493280571.379205) can0 1FD#0000000000000000
(1493280571.409798) can0 30B#5F00110000000098
(1493280571.439210) can0 1FD#0000000000000000
(1493280571.447176) can0 3C0#6A7E1335
(1493280571.460466) can0 6C7#04051101020001
(1493280571.460699) can0 30B#5F00110000000098
(1493280571.460804) can0 5F2#CD00
(1493280571.499233) can0 1FD#0000000000000000
(1493280571.509875) can0 30B#5F00110000000098
(1493280571.551686) can0 3C0#6A7E1335
(1493280571.552713) can0 1BFC38B1#0000000000000000
(1493280571.552919) can0 1BFC38BB#FFFFFFFFFFFFFFFF
(1493280571.553336) can0 1BFC38BA#0000000700000014
(1493280571.553596) can0 1BFC38B9#070296408005A3F4
(1493280571.553945) can0 1BFC38B8#0000000800000000
(1493280571.554191) can0 1BFC38B7#800164842502022F
(1493280571.554564) can0 1BFC38B6#0000162F00000000
(1493280571.554816) can0 1BFC38B5#0502FF1202028A12
(1493280571.555194) can0 1BFC38B4#110F01010000A32B
(1493280571.555437) can0 1BFC38B3#8001648431001100
(1493280571.555815) can0 1BFC38B2#80016484838380FD
(1493280571.560995) can0 1FD#0000000000000000
(1493280571.561212) can0 30B#5F00110000000098
(1493280571.561495) can0 65E#8808C5836EEC0C00
(1493280571.570589) can0 62F#4451000F1D
(1493280571.609867) can0 30B#5F00110000000098
(1493280571.619466) can0 1FD#0000000000000000
(1493280571.655716) can0 3C0#6A7E1335
(1493280571.660374) can0 6C7#04051101020001
(1493280571.660746) can0 30B#5F00110000000098
(1493280571.660832) can0 5F2#CD00
(1493280571.661210) can0 630#33D03F0102
(1493280571.679230) can0 1FD#0000000000000000
(1493280571.709860) can0 30B#5F00110000000098
(1493280571.739219) can0 1FD#0000000000000000
(1493280571.759436) can0 3C0#6A7E1335
(1493280571.760474) can0 30B#5F00110000000098
(1493280571.799221) can0 1FD#0000000000000000
(1493280571.801503) can0 1BFC38B1#0000000000000000
(1493280571.801728) can0 1BFC38BB#FFFFFFFFFFFFFFFF
(1493280571.802133) can0 1BFC38BA#535553500000001A
(1493280571.802337) can0 1BFC38B9#070296408005A3F4
(1493280571.802719) can0 1BFC38B8#0000000800000000
(1493280571.802936) can0 1BFC38B7#800164842502022F
(1493280571.803363) can0 1BFC38B6#0000163100000000
(1493280571.803586) can0 1BFC38B5#0502FF1202028A12
(1493280571.803995) can0 1BFC38B4#110F01010000A32B
(1493280571.804236) can0 1BFC38B3#8001648431001100
(1493280571.804612) can0 1BFC38B2#80016484838380FD
(1493280571.810737) can0 30B#5F00110000000098
(1493280571.859272) can0 6C7#04051101020001
(1493280571.859641) can0 1FD#0000000000000000
(1493280571.859841) can0 30B#5F00110000000098
(1493280571.859925) can0 5F2#CD00
(1493280571.863557) can0 3C0#6A7E1335
(1493280571.910008) can0 30B#5F00110000000098
(1493280571.919488) can0 1FD#0000000000000000
(1493280571.960372) can0 30B#5F00110000000098
(1493280571.967363) can0 3C0#6A7E1335
(1493280571.979245) can0 1FD#0000000000000000
(1493280572.009988) can0 30B#5F00110000000098
(1493280572.039269) can0 1FD#0000000000000000
(1493280572.052736) can0 1BFC38B1#0000000000000000
(1493280572.053184) can0 1BFC38BB#FFFFFFFFFFFFFFFF
(1493280572.053352) can0 1BFC38BA#535553500000001A
(1493280572.053734) can0 1BFC38B9#070296408005A3F4
(1493280572.053971) can0 1BFC38B8#0000000800000000
(1493280572.054357) can0 1BFC38B7#800164842502022F
(1493280572.054605) can0 1BFC38B6#000016340000A32B
(1493280572.054969) can0 1BFC38B5#0502FF1202028A12
(1493280572.055236) can0 1BFC38B4#110F01010000A32B
(1493280572.055598) can0 1BFC38B3#8001648431003322
(1493280572.055844) can0 1BFC38B2#8001648483830072
(1493280572.060964) can0 6C7#04051101020001
(1493280572.061214) can0 30B#5F00110000000098
(1493280572.061344) can0 5F2#CD00
(1493280572.061645) can0 643#000200
(1493280572.061858) can0 64E#00A32B0000000000
(1493280572.062244) can0 65E#8808B9D686C40900
(1493280572.062498) can0 6B8#6D08000000000000
(1493280572.062750) can0 6BC#92823651324C077D
(1493280572.070452) can0 62D#348414
(1493280572.071197) can0 3C0#6A7E1335
(1493280572.099247) can0 1FD#0000000000000000
(1493280572.109988) can0 30B#5F00110000000098
(1493280572.160502) can0 1FD#0000000000000000
(1493280572.160743) can0 30B#5F00110000000098
(1493280572.160986) can0 631#34D400
(1493280572.169616) can0 6B6#390C1C000F1D
(1493280572.169860) can0 6B7#BEB4000008FF80FE
(1493280572.175067) can0 3C0#6A7E1335
(1493280572.210022) can0 30B#5F00110000000098
(1493280572.219524) can0 1FD#0000000000000000
(1493280572.260466) can0 6C7#04051101020001
(1493280572.260692) can0 30B#5F00110000000098
(1493280572.260823) can0 5F2#CD00
(1493280572.278838) can0 3C0#6A7E1335
(1493280572.279338) can0 1FD#0000000000000000
(1493280572.301505) can0 1BFC38B1#0000000000000000
(1493280572.301731) can0 1BFC38BB#FFFFFFFFFFFFFFFF
(1493280572.302146) can0 1BFC38BA#535553500000001A
(1493280572.302333) can0 1BFC38B9#070296408005A3F4
(1493280572.302726) can0 1BFC38B8#0000000800000000
(1493280572.302975) can0 1BFC38B7#800164842502022F
(1493280572.303347) can0 1BFC38B6#00001636000034A8
(1493280572.303598) can0 1BFC38B5#0502FF1202028A12
(1493280572.303970) can0 1BFC38B4#110F01010000A32B
(1493280572.304295) can0 1BFC38B3#8001648431003322
(1493280572.304696) can0 1BFC38B2#8001648483830072
(1493280572.310747) can0 30B#5F00110000000098
(1493280572.339251) can0 1FD#0000000000000000
(1493280572.359783) can0 30B#5F00110000000098
(1493280572.382591) can0 3C0#6A7E1335
(1493280572.399252) can0 1FD#0000000000000000
(1493280572.410648) can0 30B#5F00110000000098
(1493280572.420871) can0 64E#00A3250000000000
(1493280572.460529) can0 6C7#04051101020001
(1493280572.460702) can0 1FD#0000000000000000
(1493280572.460978) can0 30B#5F00110000000098
(1493280572.461255) can0 5F2#CD00
(1493280572.486371) can0 3C0#6A7E1335
(1493280572.510007) can0 30B#5F00110000000098
(1493280572.519374) can0 1FD#0000000000000000
(1493280572.553027) can0 1BFC38B1#0000000000000000
(1493280572.553219) can0 1BFC38BB#FFFFFFFFFFFFFFFF
(1493280572.553638) can0 1BFC38BA#535553500000001A
(1493280572.553843) can0 1BFC38B9#000096408008FC68
(1493280572.554212) can0 1BFC38B8#0000000800000000
(1493280572.554511) can0 1BFC38B7#800164842502026B
(1493280572.554892) can0 1BFC38B6#0000163900000000
(1493280572.555214) can0 1BFC38B5#0502FF1202028A12
(1493280572.555473) can0 1BFC38B4#110F01010000A32B
(1493280572.555735) can0 1BFC38B3#8001648431003322
(1493280572.556113) can0 1BFC38B2#8001648483830072
(1493280572.559483) can0 30B#5F00110000000098
(1493280572.559743) can0 65E#8808CF597C800200
(1493280572.570860) can0 62F#4451000F1E
(1493280572.579287) can0 1FD#0000000000000000
(1493280572.590120) can0 3C0#6A7E1335
(1493280572.610012) can0 30B#5F00110000000098
(1493280572.639253) can0 1FD#0000000000000000
(1493280572.660771) can0 6C7#04051101020001
(1493280572.661172) can0 30B#5F00110000000098
(1493280572.661277) can0 5F2#CD00
(1493280572.693744) can0 3C0#6A7E1335
(1493280572.699271) can0 1FD#0000000000000000
(1493280572.710026) can0 30B#5F00110000000098
(1493280572.760651) can0 1FD#0000000000000000
(1493280572.761003) can0 30B#5F00110000000098
(1493280572.797635) can0 3C0#6A7E1335
(1493280572.801545) can0 1BFC38B1#0000000000000000
(1493280572.801886) can0 1BFC38BB#FFFFFFFFFFFFFFFF
(1493280572.802118) can0 1BFC38BA#0000000700000014
(1493280572.802495) can0 1BFC38B9#000096408008FC68
(1493280572.802745) can0 1BFC38B8#0000000800000000
(1493280572.803118) can0 1BFC38B7#800164842502026B
(1493280572.803365) can0 1BFC38B6#0000163B00000000
(1493280572.803744) can0 1BFC38B5#0502FF1202028A12
(1493280572.803976) can0 1BFC38B4#110F01010000A32B
(1493280572.804448) can0 1BFC38B3#8001648431003322
(1493280572.804641) can0 1BFC38B2#8001648483830072
(1493280572.810775) can0 30B#5F00110000000098
(1493280572.819549) can0 1FD#0000000000000000
(1493280572.859382) can0 6C7#04051101020001
(1493280572.859661) can0 30B#5F00110000000098
(1493280572.859793) can0 5F2#CD00
(1493280572.879301) can0 1FD#0000000000000000
(1493280572.901263) can0 3C0#6A7E1335
(1493280572.910030) can0 30B#5F00110000000098
(1493280572.939398) can0 1FD#0000000000000000
(1493280572.960772) can0 30B#5F00110000000098
(1493280572.999403) can0 1FD#0000000000000000
(1493280573.004771) can0 3C0#6A7E1335
(1493280573.010303) can0 30B#5F00110000000098
(1493280573.052809) can0 1BFC38B1#0000000000000000
(1493280573.053148) can0 1BFC38BB#FFFFFFFFFFFFFFFF
(1493280573.053527) can0 1BFC38BA#0000000700000014
(1493280573.053776) can0 1BFC38B9#000096408008FC68
(1493280573.054147) can0 1BFC38B8#0000000800000000
(1493280573.054401) can0 1BFC38B7#800164842502026B
(1493280573.054759) can0 1BFC38B6#0000163E0000A325
(1493280573.055045) can0 1BFC38B5#0502FF1202028A12
(1493280573.055396) can0 1BFC38B4#110F01010000A325
(1493280573.055707) can0 1BFC38B3#8001648432408877
(1493280573.055995) can0 1BFC38B2#80016484838380F9
(1493280573.061037) can0 6C7#04051101020001
(1493280573.061426) can0 1FD#0000000000000000
(1493280573.061609) can0 30B#5F00110000000098
(1493280573.061720) can0 5F2#CD00
(1493280573.062038) can0 643#000200
(1493280573.062260) can0 64E#00A3250000000000
(1493280573.062502) can0 65E#88087FE3A22E0A00
(1493280573.062881) can0 6B8#6D08000000000000
(1493280573.063147) can0 6BC#92823651324C077E
(1493280573.108663) can0 3C0#6A7E1335
(1493280573.109991) can0 30B#5F00110000000098
(1493280573.119435) can0 1FD#0000000000000000
(1493280573.160621) can0 30B#5F00110000000098
(1493280573.169550) can0 6B6#390C1C000F1E
(1493280573.169779) can0 6B7#BEB4000008FF80FE
(1493280573.179398) can0 1FD#0000000000000000
(1493280573.210041) can0 30B#5F00110000000098
(1493280573.212657) can0 3C0#6A7E1335
(1493280573.239413) can0 1FD#0000000000000000
(1493280573.260563) can0 6C7#04051101020001
(1493280573.260924) can0 30B#5F00110000000098
(1493280573.261047) can0 5F2#CD00
(1493280573.299424) can0 1FD#0000000000000000
(1493280573.301516) can0 1BFC38B1#0000000000000000
(1493280573.301924) can0 1BFC38BB#FFFFFFFFFFFFFFFF
(1493280573.302305) can0 1BFC38BA#0000000700000014
(1493280573.302499) can0 1BFC38B9#000096408008FC68
(1493280573.302892) can0 1BFC38B8#0000000800000000
(1493280573.303264) can0 1BFC38B7#800164842502026B
(1493280573.303529) can0 1BFC38B6#0000164002028A12
(1493280573.303767) can0 1BFC38B5#0502FF1202028A12
(1493280573.304141) can0 1BFC38B4#110F01010000A325
(1493280573.304386) can0 1BFC38B3#8001648432408877
(1493280573.304768) can0 1BFC38B2#80016484838380F9
(1493280573.310882) can0 30B#5F00110000000098
(1493280573.316680) can0 3C0#6A7E1335
(1493280573.360056) can0 1FD#0000000000000000
(1493280573.360245) can0 30B#5F00110000000098
(1493280573.410132) can0 30B#5F00110000000098
(1493280573.419638) can0 1FD#0000000000000000
(1493280573.420525) can0 3C0#6A7E1335
(1493280573.460674) can0 6C7#04051101020001
(1493280573.460864) can0 30B#5F00110000000098
(1493280573.461193) can0 5F2#CD00
(1493280573.479438) can0 1FD#0000000000000000
(1493280573.510189) can0 30B#5F00110000000098
(1493280573.524508) can0 3C0#6A7E1335
(1493280573.539438) can0 1FD#0000000000000000
(1493280573.552924) can0 1BFC38B1#0000000000000000
(1493280573.553291) can0 1BFC38BB#FFFFFFFFFFFFFFFF
(1493280573.553669) can0 1BFC38BA#0000000700000014
(1493280573.553876) can0 1BFC38B9#010296408005A3F4
(1493280573.554264) can0 1BFC38B8#0000000800000000
(1493280573.554511) can0 1BFC38B7#80016484250202A5
(1493280573.554878) can0 1BFC38B6#0000164300000000
(1493280573.555164) can0 1BFC38B5#0502FF1202028A12
(1493280573.555527) can0 1BFC38B4#110F01010000A325
(1493280573.555776) can0 1BFC38B3#8001648432408877
(1493280573.556191) can0 1BFC38B2#80016484838380F9
(1493280573.559432) can0 30B#5F00110000000098
(1493280573.559679) can0 65E#880839788DC40600
(1493280573.570682) can0 62F#4451000F1F
(1493280573.599439) can0 1FD#0000000000000000
(1493280573.610175) can0 30B#5F00110000000098
(1493280573.628441) can0 3C0#6A7E1335
(1493280573.660697) can0 6C7#04051101020001
(1493280573.660888) can0 1FD#0000000000000000
(1493280573.661309) can0 30B#5F00110000000098
(1493280573.661421) can0 5F2#CD00
(1493280573.661635) can0 630#33D203D2
(1493280573.710044) can0 30B#5F00110000000098
(1493280573.719420) can0 1FD#0000000000000000
(1493280573.733060) can0 3C0#6A7E1335
(1493280573.760695) can0 30B#5F00110000000098
(1493280573.779415) can0 1FD#0000000000000000
(1493280573.801548) can0 1BFC38B1#0000000000000000
(1493280573.801904) can0 1BFC38BB#FFFFFFFFFFFFFFFF
(1493280573.802282) can0 1BFC38BA#535553500000001A
(1493280573.802527) can0 1BFC38B9#010296408005A3F4
(1493280573.802899) can0 1BFC38B8#0000000800000000
(1493280573.803156) can0 1BFC38B7#80016484250202A5
(1493280573.803525) can0 1BFC38B6#0000164500000000
(1493280573.803776) can0 1BFC38B5#0502FF1202028A12
(1493280573.804152) can0 1BFC38B4#110F01010000A325
(1493280573.804401) can0 1BFC38B3#8001648432408877
(1493280573.804760) can0 1BFC38B2#80016484838380F9
(1493280573.810941) can0 30B#5F00110000000098
(1493280573.836948) can0 3C0#6A7E1335
(1493280573.839420) can0 1FD#0000000000000000
(1493280573.859469) can0 6C7#04051101020001
(1493280573.859655) can0 30B#5F00110000000098
(1493280573.859778) can0 5F2#CD00
(1493280573.899395) can0 1FD#0000000000000000
(1493280573.910188) can0 30B#5F00110000000098
(1493280573.940941) can0 3C0#6A7E1335
(1493280573.960717) can0 1FD#0000000000000000
(1493280573.960951) can0 30B#5F00110000000098
(1493280574.010147) can0 30B#5F00110000000098
(1493280574.019946) can0 1FD#0000000000000000
(1493280574.044813) can0 3C0#6A7E1335
(1493280574.053072) can0 1BFC38B1#0000000000000000
(1493280574.053300) can0 1BFC38BB#FFFFFFFFFFFFFFFF
(1493280574.053665) can0 1BFC38BA#535553500000001A
(1493280574.053904) can0 1BFC38B9#010296408005A3F4
(1493280574.054297) can0 1BFC38B8#0000000800000000
(1493280574.054543) can0 1BFC38B7#80016484250202A5
(1493280574.054922) can0 1BFC38B6#000016480000A325
(1493280574.055294) can0 1BFC38B5#0502FF1202028A12
(1493280574.055559) can0 1BFC38B4#110F01010000A325
(1493280574.055794) can0 1BFC38B3#800164843100DDCC
(1493280574.056193) can0 1BFC38B2#80016484838380FF
(1493280574.059444) can0 6C7#04051101020001
(1493280574.059660) can0 30B#5F00110000000098
(1493280574.060079) can0 5F2#CC00
(1493280574.060081) can0 643#000200
(1493280574.060329) can0 64E#00A3250000000000
(1493280574.060686) can0 65E#8808EDB382390D00
(1493280574.060932) can0 6B8#6D08000000000000
(1493280574.061184) can0 6BC#92823651324C077F
(1493280574.070434) can0 62D#348F00
(1493280574.079597) can0 1FD#0000000000000000
(1493280574.110088) can0 30B#5F00110000000098
(1493280574.139481) can0 1FD#0000000000000000
(1493280574.148722) can0 3C0#6A7E1335
(1493280574.160775) can0 30B#5F00110000000098
(1493280574.161029) can0 631#34D500
(1493280574.169980) can0 6B6#390C1C000F1F
(1493280574.170359) can0 6B7#BEB4000008FF80FE
(1493280574.199449) can0 1FD#0000000000000000
(1493280574.210211) can0 30B#5F00110000000098
(1493280574.252950) can0 3C0#6A7E1335
(1493280574.260716) can0 6C7#04051101020001
(1493280574.260951) can0 1FD#0000000000000000
(1493280574.261335) can0 30B#5F00110000000098
(1493280574.261421) can0 5F2#CC00
(1493280574.301706) can0 1BFC38B1#0000000000000000
(1493280574.301904) can0 1BFC38BB#FFFFFFFFFFFFFFFF
(1493280574.302340) can0 1BFC38BA#535553500000001A
(1493280574.302565) can0 1BFC38B9#010296408005A3F4
(1493280574.302932) can0 1BFC38B8#0000000800000000
(1493280574.303274) can0 1BFC38B7#80016484250202A5
(1493280574.303536) can0 1BFC38B6#0000164A000034A8
(1493280574.303788) can0 1BFC38B5#0502FF1202028A12
(1493280574.304198) can0 1BFC38B4#110F01010000A325
(1493280574.304401) can0 1BFC38B3#800164843100DDCC
(1493280574.304822) can0 1BFC38B2#80016484838380FF
(1493280574.310919) can0 30B#5F00110000000098
(1493280574.319565) can0 1FD#0000000000000000
(1493280574.356567) can0 3C0#6A7E1335
(1493280574.359934) can0 30B#5F00110000000098
(1493280574.379490) can0 1FD#0000000000000000
(1493280574.410205) can0 30B#5F00110000000098
(1493280574.439478) can0 1FD#0000000000000000
(1493280574.460351) can0 3C0#6A7E1335
(1493280574.460539) can0 6C7#04051101020001
(1493280574.460959) can0 30B#5F00110000000098
(1493280574.461159) can0 5F2#CC00
(1493280574.499474) can0 1FD#0000000000000000
(1493280574.510197) can0 30B#5F00110000000098
(1493280574.552965) can0 1BFC38B1#0000000000000000
(1493280574.553336) can0 1BFC38BB#FFFFFFFFFFFFFFFF
(1493280574.553591) can0 1BFC38BA#535553500000001A
(1493280574.553834) can0 1BFC38B9#020096408008FC68
(1493280574.554204) can0 1BFC38B8#0000000000000000
(1493280574.554576) can0 1BFC38B7#80016484250202E1
(1493280574.554839) can0 1BFC38B6#0000164D00000000
(1493280574.555209) can0 1BFC38B5#0502FF1202028A12
(1493280574.555481) can0 1BFC38B4#110F01010000A325
(1493280574.555861) can0 1BFC38B3#800164843100DDCC
(1493280574.556085) can0 1BFC38B2#80016484838380FF
(1493280574.561234) can0 1FD#0000000000000000
(1493280574.561504) can0 30B#5F00110000000098
(1493280574.561887) can0 65E#8808B31574770500
(1493280574.564440) can0 3C0#6A7E1335
(1493280574.570867) can0 62F#4451000F20
(1493280574.610223) can0 30B#5F00110000000098
(1493280574.619853) can0 1FD#0000000000000000
(1493280574.660626) can0 6C7#04051101020001
(1493280574.660837) can0 30B#5F00110000000098
(1493280574.660969) can0 5F2#CC00
(1493280574.668345) can0 3C0#6A7E1335
(1493280574.679498) can0 1FD#0000000000000000
(1493280574.710245) can0 30B#5F00110000000098
(1493280574.739502) can0 1FD#0000000000000000
(1493280574.760723) can0 30B#5F00110000000098
(1493280574.772353) can0 3C0#6A7E1335
(1493280574.799476) can0 1FD#0000000000000000
(1493280574.801760) can0 1BFC38B1#0000000000000000
(1493280574.802010) can0 1BFC38BB#FFFFFFFFFFFFFFFF
(1493280574.802366) can0 1BFC38BA#0000000700000014
(1493280574.802728) can0 1BFC38B9#020096408008FC68
(1493280574.802983) can0 1BFC38B8#0000000000000000
(1493280574.803325) can0 1BFC38B7#80016484250202E1
(1493280574.803577) can0 1BFC38B6#0000164F00000000
(1493280574.803953) can0 1BFC38B5#0502FF1202028A12
(1493280574.804357) can0 1BFC38B4#110F01010000A325
(1493280574.804616) can0 1BFC38B3#800164843100DDCC
(1493280574.804994) can0 1BFC38B2#80016484838380FF
(1493280574.810987) can0 30B#5F00110000000098
(1493280574.859614) can0 6C7#04051101020001
(1493280574.859834) can0 1FD#0000000000000000
(1493280574.860138) can0 30B#5F00110000000098
(1493280574.860339) can0 5F2#CC00
(1493280574.875948) can0 3C0#6A7E1335
(1493280574.910228) can0 30B#5F00110000000098
(1493280574.920107) can0 1FD#0000000000000000
(1493280574.960756) can0 30B#5F00110000000098
(1493280574.979225) can0 3C0#6A7E1335
(1493280574.979435) can0 1FD#0000000000000000
(1493280575.010231) can0 30B#5F00110000000098
(1493280575.039496) can0 1FD#0000000000000000
(1493280575.053119) can0 1BFC38B1#0000000000000000
(1493280575.053484) can0 1BFC38BB#FFFFFFFFFFFFFFFF
(1493280575.053874) can0 1BFC38BA#0000000700000014
(1493280575.054059) can0 1BFC38B9#020096408008FC68
(1493280575.054468) can0 1BFC38B8#0000000000000000
(1493280575.054730) can0 1BFC38B7#80016484250202E1
(1493280575.055096) can0 1BFC38B6#000016520000A325
(1493280575.055345) can0 1BFC38B5#0502FF1202028A12
(1493280575.055720) can0 1BFC38B4#110F01010000A325
(1493280575.055982) can0 1BFC38B3#800164843100FFEE
(1493280575.056346) can0 1BFC38B2#8001648483830054
(1493280575.059640) can0 6C7#04051101020001
(1493280575.059889) can0 30B#5F00110000000098
(1493280575.059999) can0 5F2#CC00
(1493280575.060260) can0 643#000200
(1493280575.060489) can0 64E#00A3250000000000
(1493280575.060733) can0 65E#8808BA9544310800
(1493280575.061112) can0 6B8#6D08000000000000
(1493280575.061378) can0 6BC#92823651324C078D
(1493280575.082697) can0 3C0#6A7E1335
(1493280575.099488) can0 1FD#0000000000000000
(1493280575.110235) can0 30B#5F00110000000098
(1493280575.160740) can0 1FD#0000000000000000
(1493280575.160948) can0 30B#5F00110000000098
(1493280575.170242) can0 6B6#390C1C000F20
(1493280575.170478) can0 6B7#BEB4000008FF80FE
(1493280575.186105) can0 3C0#6A7E1335
(1493280575.210246) can0 30B#5F00110000000098
(1493280575.219738) can0 1FD#0000000000000000
(1493280575.260744) can0 6C7#04051101020001
(1493280575.260981) can0 30B#5F00110000000098
(1493280575.261066) can0 5F2#CC00
(1493280575.279650) can0 1FD#0000000000000000
(1493280575.289868) can0 3C0#6A7E1335
(1493280575.301726) can0 1BFC38B1#0000000000000000
(1493280575.302117) can0 1BFC38BB#FFFFFFFFFFFFFFFF
(1493280575.302333) can0 1BFC38BA#0000000700000014
(1493280575.302723) can0 1BFC38B9#020096408008FC68
(1493280575.302972) can0 1BFC38B8#0000000000000000
(1493280575.303346) can0 1BFC38B7#80016484250202E1
(1493280575.303596) can0 1BFC38B6#0000165402028A12
(1493280575.303966) can0 1BFC38B5#0502FF1202028A12
(1493280575.304377) can0 1BFC38B4#110F01010000A325
(1493280575.304610) can0 1BFC38B3#800164843100FFEE
(1493280575.304856) can0 1BFC38B2#8001648483830054
(1493280575.311026) can0 30B#5F00110000000098
(1493280575.339648) can0 1FD#0000000000000000
(1493280575.360124) can0 30B#5F00110000000098
(1493280575.393490) can0 3C0#6A7E1335
(1493280575.399540) can0 1FD#0000000000000000
(1493280575.410398) can0 30B#5F00110000000098
(1493280575.460753) can0 6C7#04051101020001
(1493280575.461158) can0 1FD#0000000000000000
(1493280575.461367) can0 30B#5F00110000000098
(1493280575.461486) can0 5F2#CC00
(1493280575.496995) can0 3C0#6A7E1335
(1493280575.510382) can0 30B#5F00110000000098
(1493280575.520045) can0 1FD#0000000000000000
(1493280575.553003) can0 1BFC38B1#0000000000000000
(1493280575.553378) can0 1BFC38BB#FFFFFFFFFFFFFFFF
(1493280575.553785) can0 1BFC38BA#0000000700000014
(1493280575.554002) can0 1BFC38B9#030296408005A3F4
(1493280575.554376) can0 1BFC38B8#0000000800000000
(1493280575.554628) can0 1BFC38B7#8006DE785502051C
(1493280575.555040) can0 1BFC38B6#0000165700000000
(1493280575.555244) can0 1BFC38B5#0502FF1202028A12
(1493280575.555654) can0 1BFC38B4#110F01010000A325
(1493280575.555880) can0 1BFC38B3#800164843100FFEE
(1493280575.556281) can0 1BFC38B2#8001648483830054
(1493280575.561395) can0 30B#5F00110000000098
(1493280575.561622) can0 65E#88082F95A6C00B00
(1493280575.570880) can0 62F#4451000F21
(1493280575.579517) can0 1FD#0000000000000000
(1493280575.600627) can0 3C0#6A7E1335
(1493280575.610281) can0 30B#5F00110000000098
(1493280575.639629) can0 1FD#0000000000000000
(1493280575.660630) can0 6C7#04051101020001
(1493280575.660845) can0 30B#5F00110000000098
(1493280575.661173) can0 5F2#CC00
(1493280575.661373) can0 630#33DCFF0F01
(1493280575.699635) can0 1FD#0000000000000000
(1493280575.704129) can0 3C0#6A7E1335
(1493280575.710385) can0 30B#5F00110000000098
(1493280575.760764) can0 1FD#0000000000000000
(1493280575.761087) can0 30B#5F00110000000098
(1493280575.801779) can0 1BFC38B1#0000000000000000
(1493280575.802146) can0 1BFC38BB#FFFFFFFFFFFFFFFF
(1493280575.802430) can0 1BFC38BA#535553500000001A
(1493280575.802788) can0 1BFC38B9#030296408005A3F4
(1493280575.803013) can0 1BFC38B8#0000000800000000
(1493280575.803379) can0 1BFC38B7#8006DE785502051C
(1493280575.803625) can0 1BFC38B6#0000165900000000
(1493280575.804024) can0 1BFC38B5#0502FF1202028A12
(1493280575.804414) can0 1BFC38B4#110F01010000A325
(1493280575.804648) can0 1BFC38B3#800164843100FFEE
(1493280575.805017) can0 1BFC38B2#8001648483830054
(1493280575.807854) can0 3C0#6A7E1335
(1493280575.811037) can0 30B#5F00110000000098
(1493280575.820062) can0 1FD#0000000000000000
(1493280575.859657) can0 6C7#04051101020001
(1493280575.859853) can0 30B#5F00110000000098
(1493280575.860014) can0 5F2#CC00
(1493280575.879675) can0 1FD#0000000000000000
(1493280575.910375) can0 30B#5F00110000000098
(1493280575.911504) can0 3C0#6A7E1335
(1493280575.939675) can0 1FD#0000000000000000
(1493280575.960765) can0 30B#5F00110000000098
(1493280575.999646) can0 1FD#0000000000000000
(1493280576.010397) can0 30B#5F00110000000098
(1493280576.015008) can0 3C0#6A7E1335
(1493280576.053176) can0 1BFC38B1#0000000000000000
(1493280576.053384) can0 1BFC38BB#FFFFFFFFFFFFFFFF
(1493280576.053771) can0 1BFC38BA#535553500000001A
(1493280576.054017) can0 1BFC38B9#030296408005A3F4
(1493280576.054355) can0 1BFC38B8#0000000800000000
(1493280576.054649) can0 1BFC38B7#8006DE785502051C
(1493280576.055050) can0 1BFC38B6#0000165C0000A325
(1493280576.055397) can0 1BFC38B5#0502FF1202028A12
(1493280576.055639) can0 1BFC38B4#110F01010000A325
(1493280576.055895) can0 1BFC38B3#8001648432404433
(1493280576.056284) can0 1BFC38B2#80016484838380AB
(1493280576.061429) can0 6C7#04051101020001
(1493280576.061661) can0 1FD#0000000000000000
(1493280576.061897) can0 30B#5F00110000000098
(1493280576.062025) can0 5F2#CC00
(1493280576.062315) can0 643#000200
(1493280576.062529) can0 64E#00A3250000000000
(1493280576.062772) can0 65E#880806B455E10C00
(1493280576.063150) can0 6B8#6D08000000000000
(1493280576.063366) can0 6BC#92823651324C0790
(1493280576.070635) can0 62D#3490205200
(1493280576.110412) can0 30B#5F00110000000098
(1493280576.118492) can0 3C0#6A7E1335
(1493280576.119865) can0 1FD#0000000000000000
(1493280576.160899) can0 30B#5F00110000000098
(1493280576.161554) can0 631#34D602
(1493280576.170152) can0 6B6#390C1C000F21
(1493280576.170400) can0 6B7#BEB4000008FF80FE
(1493280576.179687) can0 1FD#0000000000000000
(1493280576.210410) can0 30B#5F00110000000098
(1493280576.222411) can0 3C0#6A7E1335
(1493280576.239658) can0 1FD#0000000000000000
(1493280576.260783) can0 6C7#04051101020001
(1493280576.261024) can0 30B#5F00110000000098
(1493280576.261282) can0 5F2#CC00
(1493280576.299690) can0 1FD#0000000000000000
(1493280576.301818) can0 1BFC38B1#0000000000000000
(1493280576.302157) can0 1BFC38BB#FFFFFFFFFFFFFFFF
(1493280576.302572) can0 1BFC38BA#535553500000001A
(1493280576.302787) can0 1BFC38B9#030296408005A3F4
(1493280576.303158) can0 1BFC38B8#0000000800000000
(1493280576.303435) can0 1BFC38B7#8006DE785502051C
(1493280576.303782) can0 1BFC38B6#0000165E000034A8
(1493280576.304052) can0 1BFC38B5#0502FF1202028A12
(1493280576.304418) can0 1BFC38B4#110F01010000A325
(1493280576.304641) can0 1BFC38B3#8001648432404433
(1493280576.304901) can0 1BFC38B2#80016484838380AB
(1493280576.311164) can0 30B#5F00110000000098
(1493280576.326293) can0 3C0#6A7E1335
(1493280576.360183) can0 1FD#0000000000000000
(1493280576.360537) can0 30B#5F00110000000098
(1493280576.410449) can0 30B#5F00110000000098
(1493280576.420040) can0 1FD#0000000000000000
(1493280576.430041) can0 3C0#6A7E1335
(1493280576.460749) can0 6C7#04051101020001
(1493280576.461049) can0 30B#5F00110000000098
(1493280576.461330) can0 5F2#CC00
(1493280576.479672) can0 1FD#0000000000000000
(1493280576.510376) can0 30B#5F00110000000098
(1493280576.515514) can0 0A4#63B54C6954B22319
(1493280576.533125) can0 3C0#6A7E1335
(1493280576.539654) can0 1FD#0000000000000000
(1493280576.553172) can0 1BFC38B1#0000000000000000
(1493280576.553520) can0 1BFC38BB#FFFFFFFFFFFFFFFF
(1493280576.553800) can0 1BFC38BA#535553500000001A
(1493280576.554244) can0 1BFC38B9#040096408008FC68
(1493280576.554396) can0 1BFC38B8#0000000800000000
(1493280576.554778) can0 1BFC38B7#8001648425020258
(1493280576.555029) can0 1BFC38B6#0000166100000000
(1493280576.555412) can0 1BFC38B5#0502FF1202028A12
(1493280576.555649) can0 1BFC38B4#110F01010000A325
(1493280576.556032) can0 1BFC38B3#8001648432404433
(1493280576.556441) can0 1BFC38B2#80016484838380AB
(1493280576.561398) can0 30B#5F00110000000098
(1493280576.561619) can0 65E#8808FF7678FF0900
(1493280576.565853) can0 177#C724F47EB077E425
(1493280576.570949) can0 62F#4451000F22
(1493280576.599683) can0 1FD#0000000000000000
(1493280576.610419) can0 30B#5F00110000000098
(1493280576.615936) can0 0A7#2CFA21
(1493280576.636661) can0 3C0#6A7E1335
(1493280576.660925) can0 6C7#04051101020001
(1493280576.661300) can0 1FD#0000000000000000
(1493280576.661548) can0 30B#5F00110000000098
(1493280576.661663) can0 5F2#CC00
(1493280576.666051) can0 162#7AD4FC675172064C
(1493280576.710430) can0 30B#5F00110000000098
(1493280576.716195) can0 311#60B2782603E1C0
(1493280576.719801) can0 1FD#0000000000000000
(1493280576.740800) can0 3C0#6A7E1335
(1493280576.761086) can0 30B#5F00110000000098
(1493280576.766426) can0 1C4#53B3CA1D47DBCF3A
(1493280576.779672) can0 1FD#0000000000000000
(1493280576.801931) can0 1BFC38B1#0000000000000000
(1493280576.802179) can0 1BFC38BB#FFFFFFFFFFFFFFFF
(1493280576.802558) can0 1BFC38BA#0000000700000014
(1493280576.802946) can0 1BFC38B9#040096408008FC68
(1493280576.803177) can0 1BFC38B8#0000000800000000
(1493280576.803569) can0 1BFC38B7#8001648425020258
(1493280576.803792) can0 1BFC38B6#0000166300000000
(1493280576.804186) can0 1BFC38B5#0502FF1202028A12
(1493280576.804441) can0 1BFC38B4#110F01010000A325
(1493280576.804815) can0 1BFC38B3#8001648432404433
(1493280576.805060) can0 1BFC38B2#80016484838380AB
(1493280576.811198) can0 30B#5F00110000000098
(1493280576.816610) can0 557#6E4C2465FE0B
(1493280576.839702) can0 1FD#0000000000000000
(1493280576.844807) can0 3C0#6A7E1335
(1493280576.859687) can0 6C7#04051101020001
(1493280576.859929) can0 30B#5F00110000000098
(1493280576.860155) can0 5F2#CC00
(1493280576.866725) can0 6FC#920C9E2CA0071B20
(1493280576.899687) can0 1FD#0000000000000000
(1493280576.910437) can0 30B#5F00110000000098
(1493280576.916811) can0 5B4#F5B93E392C
(1493280576.948577) can0 3C0#6A7E1335
(1493280576.960977) can0 1FD#0000000000000000
(1493280576.961340) can0 30B#5F00110000000098
(1493280576.966978) can0 240#DC1E2319E8324E41
(1493280577.010473) can0 30B#5F00110000000098
(1493280577.017063) can0 0AF#CFF4AB25115AFD79
(1493280577.019964) can0 1FD#0000000000000000
(1493280577.051906) can0 3C0#6A7E1335
(1493280577.053188) can0 1BFC38B1#0000000000000000
(1493280577.053523) can0 1BFC38BB#FFFFFFFFFFFFFFFF
(1493280577.053949) can0 1BFC38BA#0000000700000014
(1493280577.054177) can0 1BFC38B9#040096408008FC68
(1493280577.054546) can0 1BFC38B8#0000000800000000
(1493280577.054792) can0 1BFC38B7#8001648425020258
(1493280577.055167) can0 1BFC38B6#000016660000A325
(1493280577.055416) can0 1BFC38B5#0502FF1202028A12
(1493280577.055795) can0 1BFC38B4#110F01010000A325
(1493280577.056100) can0 1BFC38B3#8001648431009988
(1493280577.056459) can0 1BFC38B2#80016484838380F1
(1493280577.061450) can0 6C7#04051101020001
(1493280577.061695) can0 30B#5F00110000000098
(1493280577.061922) can0 5F2#CC00
(1493280577.062019) can0 643#000200
(1493280577.062421) can0 64E#00A3250000000000
(1493280577.062663) can0 65E#8808C4A6880A0700
(1493280577.062928) can0 6B8#6D08000000000000
(1493280577.063169) can0 6BC#92823651324C0792
(1493280577.067199) can0 412#63CC0346243F8736
(1493280577.079718) can0 1FD#0000000000000000
(1493280577.110404) can0 30B#5F00110000000098
(1493280577.117450) can0 6B0#272048
(1493280577.139698) can0 1FD#0000000000000000
(1493280577.155789) can0 3C0#6A7E1335
(1493280577.161068) can0 30B#5F00110000000098
(1493280577.167591) can0 121#BC53B55E7976BA3B
(1493280577.170851) can0 6B6#390C1C000F22
(1493280577.171067) can0 6B7#BEB4000008FF80FE
(1493280577.199696) can0 1FD#0000000000000000
(1493280577.210442) can0 30B#5F00110000000098
(1493280577.217696) can0 2C1#77827609BDC91715
(1493280577.259793) can0 3C0#6A7E1335
(1493280577.260915) can0 6C7#04051101020001
(1493280577.261162) can0 1FD#0000000000000000
(1493280577.261555) can0 30B#5F00110000000098
(1493280577.261664) can0 5F2#CC00
(1493280577.267820) can0 327#5ED13235DC08A936
(1493280577.301947) can0 1BFC38B1#0000000000000000
(1493280577.302335) can0 1BFC38BB#FFFFFFFFFFFFFFFF
(1493280577.302601) can0 1BFC38BA#0000000700000014
(1493280577.302944) can0 1BFC38B9#040096408008FC68
(1493280577.303197) can0 1BFC38B8#0000000800000000
(1493280577.303588) can0 1BFC38B7#8001648425020258
(1493280577.303816) can0 1BFC38B6#0000166802028A12
(1493280577.304220) can0 1BFC38B5#0502FF1202028A12
(1493280577.304455) can0 1BFC38B4#110F01010000A325
(1493280577.304834) can0 1BFC38B3#8001648431009988
(1493280577.305063) can0 1BFC38B2#80016484838380F1
(1493280577.311182) can0 30B#5F00110000000098
(1493280577.317978) can0 0FF#08B0E7
(1493280577.319837) can0 1FD#0000000000000000
(1493280577.360470) can0 30B#5F00110000000098
(1493280577.363414) can0 3C0#6A7E1335
(1493280577.368066) can0 20F#27FEE213
(1493280577.379705) can0 1FD#0000000000000000
(1493280577.410451) can0 30B#5F00110000000098
(1493280577.418369) can0 7EC#CFB49712FFFB06
(1493280577.439706) can0 1FD#0000000000000000
(1493280577.460953) can0 6C7#04051101020001
(1493280577.461331) can0 30B#5F00110000000098
(1493280577.461441) can0 5F2#CC00
(1493280577.466825) can0 3C0#6A7E1335
(1493280577.468484) can0 440#233B
(1493280577.499739) can0 1FD#0000000000000000
(1493280577.510453) can0 30B#5F00110000000098
(1493280577.518473) can0 7F5#66938F0917D18E5C
(1493280577.553206) can0 1BFC38B1#0000000000000000
(1493280577.553612) can0 1BFC38BB#FFFFFFFFFFFFFFFF
(1493280577.553827) can0 1BFC38BA#0000000700000014
(1493280577.554205) can0 1BFC38B9#050296408005A3F4
(1493280577.554458) can0 1BFC38B8#0000000800000000
(1493280577.554833) can0 1BFC38B7#8001648425020294
(1493280577.555206) can0 1BFC38B6#0000166B00000000
(1493280577.555456) can0 1BFC38B5#0502FF1202028A12
(1493280577.555703) can0 1BFC38B4#110F01010000A325
(1493280577.556099) can0 1BFC38B3#8001648431009988
(1493280577.556473) can0 1BFC38B2#80016484838380F1
(1493280577.561437) can0 1FD#0000000000000000
(1493280577.561845) can0 30B#5F00110000000098
(1493280577.562093) can0 65E#88087B96A96D0700
(1493280577.568586) can0 6C4#9047
(1493280577.570215) can0 3C0#6A7E1335
(1493280577.571052) can0 62F#4451000F23
(1493280577.610466) can0 30B#5F00110000000098
(1493280577.618717) can0 74D#4333256B758AAF
(1493280577.619837) can0 1FD#0000000000000000
(1493280577.660998) can0 6C7#04051101020001
(1493280577.661211) can0 30B#5F00110000000098
(1493280577.661507) can0 5F2#CC00
(1493280577.661614) can0 630#33E601000100
(1493280577.668955) can0 111#51
(1493280577.673573) can0 3C0#6A7E1335
(1493280577.679876) can0 1FD#0000000000000000
(1493280577.710468) can0 30B#5F00110000000098
(1493280577.719091) can0 7F4#4F75687603FA6D35
(1493280577.739843) can0 1FD#0000000000000000
(1493280577.760972) can0 30B#5F00110000000098
(1493280577.769202) can0 23D#C154084E29FA9A
(1493280577.777475) can0 3C0#6A7E1335
(1493280577.799875) can0 1FD#0000000000000000
(1493280577.801969) can0 1BFC38B1#0000000000000000
(1493280577.802341) can0 1BFC38BB#FFFFFFFFFFFFFFFF
(1493280577.802596) can0 1BFC38BA#535553500000001A
(1493280577.802961) can0 1BFC38B9#050296408005A3F4
(1493280577.803217) can0 1BFC38B8#0000000800000000
(1493280577.803607) can0 1BFC38B7#8001648425020294
(1493280577.803836) can0 1BFC38B6#0000166D00000000
(1493280577.804249) can0 1BFC38B5#0502FF1202028A12
(1493280577.804477) can0 1BFC38B4#110F01010000A325
(1493280577.804869) can0 1BFC38B3#8001648431009988
(1493280577.805097) can0 1BFC38B2#80016484838380F1
(1493280577.811251) can0 30B#5F00110000000098
(1493280577.819469) can0 66E#
(1493280577.860978) can0 6C7#04051101020001
(1493280577.861202) can0 1FD#0000000000000000
(1493280577.861624) can0 30B#5F00110000000098
(1493280577.861729) can0 5F2#CC00
(1493280577.869480) can0 2C3#9F3DBC70B88A537E
(1493280577.880957) can0 3C0#6A7E1335
(1493280577.910472) can0 30B#5F00110000000098
(1493280577.919774) can0 495#CF5BE25A5A
(1493280577.920375) can0 1FD#0000000000000000
(1493280577.961102) can0 30B#5F00110000000098
(1493280577.969837) can0 028#DF24FD3D753FAF0E
(1493280577.979857) can0 1FD#0000000000000000
(1493280577.984592) can0 3C0#6A7E1335
(1493280578.010463) can0 30B#5F00110000000098
(1493280578.019996) can0 567#EAC9
(1493280578.039881) can0 1FD#0000000000000000
(1493280578.053240) can0 1BFC38B1#0000000000000000
(1493280578.053605) can0 1BFC38BB#FFFFFFFFFFFFFFFF
(1493280578.053997) can0 1BFC38BA#535553500000001A
(1493280578.054217) can0 1BFC38B9#050296408005A3F4
(1493280578.054600) can0 1BFC38B8#0000000800000000
(1493280578.054857) can0 1BFC38B7#8001648425020294
(1493280578.055256) can0 1BFC38B6#000016700000A325
(1493280578.055476) can0 1BFC38B5#0502FF1202028A12
(1493280578.055870) can0 1BFC38B4#110F01010000A325
(1493280578.056084) can0 1BFC38B3#800164843100BBAA
(1493280578.056457) can0 1BFC38B2#8001648483830076
(1493280578.061470) can0 6C7#04051101020001
(1493280578.061725) can0 30B#5F00110000000098
(1493280578.061997) can0 5F2#CC00
(1493280578.062107) can0 643#000200
(1493280578.062513) can0 64E#00A3250000000000
(1493280578.062773) can0 65E#88080AB472D30600
(1493280578.063031) can0 6B8#6D08000000000000
(1493280578.063224) can0 6BC#92823651324C0798
(1493280578.070148) can0 4C3#88709310B7EC4358
(1493280578.070987) can0 62D#3491023601
(1493280578.088100) can0 3C0#6A7E1335
(1493280578.099896) can0 1FD#0000000000000000
(1493280578.110483) can0 30B#5F00110000000098
(1493280578.120371) can0 094#BAE6B10DD1B242
(1493280578.161135) can0 1FD#0000000000000000
(1493280578.161508) can0 30B#5F00110000000098
(1493280578.161722) can0 631#34C2030013000301
(1493280578.170244) can0 6B6#390C1C000F23
(1493280578.170477) can0 14E#FBACDD5DBCBF2155
(1493280578.170480) can0 6B7#BEB4000008FF80FE
(1493280578.191579) can0 3C0#6A7E1335
(1493280578.210527) can0 30B#5F00110000000098
(1493280578.219996) can0 1FD#0000000000000000
(1493280578.220512) can0 50C#6BE233
(1493280578.261248) can0 6C7#04051101020001
(1493280578.261653) can0 30B#5F00110000000098
(1493280578.261751) can0 5F2#CC00
(1493280578.270756) can0 46F#875AE9730461B66A
(1493280578.279862) can0 1FD#0000000000000000
(1493280578.295490) can0 3C0#6A7E1335
(1493280578.302001) can0 1BFC38B1#0000000000000000
(1493280578.302360) can0 1BFC38BB#FFFFFFFFFFFFFFFF
(1493280578.302612) can0 1BFC38BA#535553500000001A
(1493280578.302989) can0 1BFC38B9#050296408005A3F4
(1493280578.303344) can0 1BFC38B8#0000000800000000
(1493280578.303595) can0 1BFC38B7#8001648425020294
(1493280578.303987) can0 1BFC38B6#00001672000034A8
(1493280578.304230) can0 1BFC38B5#0502FF1202028A12
(1493280578.304642) can0 1BFC38B4#110F01010000A325
(1493280578.304864) can0 1BFC38B3#800164843100BBAA
(1493280578.305240) can0 1BFC38B2#8001648483830076
(1493280578.311372) can0 30B#5F00110000000098
(1493280578.320873) can0 110#5E1CA65238A9CC
(1493280578.339896) can0 1FD#0000000000000000
(1493280578.360528) can0 30B#5F00110000000098
(1493280578.371019) can0 1B6#ADE87B3C1DC7E256
(1493280578.399071) can0 3C0#6A7E1335
(1493280578.399834) can0 1FD#0000000000000000
(1493280578.411274) can0 30B#5F00110000000098
(1493280578.421136) can0 160#958DA24324F63F03
(1493280578.421138) can0 64E#00A3220000000000
(1493280578.461248) can0 6C7#04051101020001
(1493280578.461489) can0 1FD#0000000000000000
(1493280578.461909) can0 30B#5F00110000000098
(1493280578.462005) can0 5F2#CC00
(1493280578.471232) can0 7D3#DBE2835B68B08950
(1493280578.502482) can0 3C0#6A7E1335
(1493280578.511263) can0 30B#5F00110000000098
(1493280578.520161) can0 1FD#0000000000000000
(1493280578.521388) can0 3F5#3963CC00433D
(1493280578.553375) can0 1BFC38B1#0000000000000000
(1493280578.553616) can0 1BFC38B9#060096408008FC68
(1493280578.554039) can0 1BFC38BA#535553500000001A
(1493280578.554240) can0 1BFC38B8#0000000800000000
(1493280578.554624) can0 1BFC38B7#80016484250202D0
(1493280578.554874) can0 1BFC38B6#0000167500000000
(1493280578.555252) can0 1BFC38B5#0502FF1202028A12
(1493280578.555502) can0 1BFC38B4#110F01010000A325
(1493280578.555844) can0 1BFC38B3#800164843100BBAA
(1493280578.556092) can0 1BFC38B2#8001648483830076
(1493280578.556479) can0 1BFC38BB#FFFFFFFFFFFFFFFF
(1493280578.562507) can0 30B#5F00110000000098
(1493280578.562762) can0 65E#8808F0D664ED0600
(1493280578.571555) can0 511#00FD9A41
(1493280578.579888) can0 1FD#0000000000000000
(1493280578.580408) can0 62F#4451000F24
(1493280578.606132) can0 3C0#6A7E1335
(1493280578.610659) can0 30B#5F00110000000098
(1493280578.621522) can0 358#EC19E076C787D909
(1493280578.640099) can0 1FD#0000000000000000
(1493280578.661505) can0 6C7#04051101020001
(1493280578.661737) can0 30B#5F00110000000098
(1493280578.661847) can0 5F2#CC00
(1493280578.671653) can0 775#CBE88F74
(1493280578.699887) can0 1FD#0000000000000000
(1493280578.709338) can0 3C0#6A7E1335
(1493280578.710623) can0 30B#5F00110000000098
(1493280578.721877) can0 2CB#BD99C76B81848C7B
(1493280578.761266) can0 1FD#0000000000000000
(1493280578.761672) can0 30B#5F00110000000098
(1493280578.771992) can0 668#9F4B6F52C8DF9E11
(1493280578.802141) can0 1BFC38B1#0000000000000000
(1493280578.802371) can0 1BFC38BB#FFFFFFFFFFFFFFFF
(1493280578.802793) can0 1BFC38BA#0000000700000014
(1493280578.803001) can0 1BFC38B9#060096408008FC68
(1493280578.803395) can0 1BFC38B8#0000000800000000
(1493280578.803646) can0 1BFC38B7#80016484250202D0
(1493280578.804015) can0 1BFC38B6#0000167700000000
(1493280578.804285) can0 1BFC38B5#0502FF1202028A12
(1493280578.804658) can0 1BFC38B4#110F01010000A325
(1493280578.804882) can0 1BFC38B3#800164843100BBAA
(1493280578.805281) can0 1BFC38B2#8001648483830076
(1493280578.811380) can0 30B#5F00110000000098
(1493280578.813262) can0 3C0#6A7E1335
(1493280578.820293) can0 1FD#0000000000000000
(1493280578.822176) can0 503#ECD5DE14
(1493280578.861017) can0 6C7#04051101020001
(1493280578.861243) can0 30B#5F00110000000098
(1493280578.861514) can0 5F2#CC00
(1493280578.872278) can0 752#3EF5393B47BB7945
(1493280578.879885) can0 1FD#0000000000000000
(1493280578.910645) can0 30B#5F00110000000098
(1493280578.916971) can0 3C0#6A7E1335
(1493280578.922556) can0 25E#8AF8F2316F87881E
(1493280578.939901) can0 1FD#0000000000000000
(1493280578.961144) can0 30B#5F00110000000098
(1493280578.972642) can0 0AC#8DD1D21F041CDA50
(1493280578.999907) can0 1FD#0000000000000000
(1493280579.010646) can0 30B#5F00110000000098
(1493280579.020108) can0 3C0#6A7E1335
(1493280579.022795) can0 4F5#CBA3B35A6BD41B08
(1493280579.053520) can0 1BFC38B1#0000000000000000
(1493280579.053896) can0 1BFC38BB#FFFFFFFFFFFFFFFF
(1493280579.054172) can0 1BFC38BA#0000000700000014
(1493280579.054550) can0 1BFC38B9#060096408008FC68
(1493280579.054737) can0 1BFC38B8#0000000800000000
(1493280579.055125) can0 1BFC38B7#80016484250202D0
(1493280579.055499) can0 1BFC38B6#0000167A0000A322
(1493280579.055765) can0 1BFC38B5#0502FF1202028A12
(1493280579.056022) can0 1BFC38B4#110F01010000A322
(1493280579.056424) can0 1BFC38B3#80016484324000FF
(1493280579.056646) can0 1BFC38B2#80016484838380BD
(1493280579.059914) can0 6C7#04051101020001
(1493280579.060140) can0 1FD#0000000000000000
(1493280579.060550) can0 30B#5F00110000000098
(1493280579.060655) can0 5F2#CB00
(1493280579.060746) can0 643#000200
(1493280579.061149) can0 64E#00A3220000000000
(1493280579.061396) can0 65E#880819D559F00600
(1493280579.061615) can0 6B8#6D08000000000000
(1493280579.062002) can0 6BC#92823651324C079D
(1493280579.072889) can0 7ED#F0C41646B88A11
(1493280579.110649) can0 30B#5F00110000000098
(1493280579.120150) can0 1FD#0000000000000000
(1493280579.122866) can0 1C1#3A0F9E3629D8526E
(1493280579.123608) can0 3C0#6A7E1335
(1493280579.161155) can0 30B#5F00110000000098
(1493280579.170152) can0 6B6#390C1C000F24
(1493280579.170522) can0 6B7#BEB4000008FF80FE
(1493280579.173155) can0 119#F1B7F17F1C164027
(1493280579.179932) can0 1FD#0000000000000000
(1493280579.210653) can0 30B#5F00110000000098
(1493280579.223293) can0 40D#F25AF0115F0B6709
(1493280579.227019) can0 3C0#6A7E1335
(1493280579.239912) can0 1FD#0000000000000000
(1493280579.261153) can0 6C7#04051101020001
(1493280579.261405) can0 30B#5F00110000000098
(1493280579.261513) can0 5F2#CB00
(1493280579.273551) can0 6A6#A6
(1493280579.299909) can0 1FD#0000000000000000
(1493280579.302153) can0 1BFC38B1#0000000000000000
(1493280579.302531) can0 1BFC38BB#FFFFFFFFFFFFFFFF
(1493280579.302769) can0 1BFC38BA#0000000700000014
(1493280579.303158) can0 1BFC38B9#060096408008FC68
(1493280579.303526) can0 1BFC38B8#0000000800000000
(1493280579.303798) can0 1BFC38B7#80016484250202D0
(1493280579.304029) can0 1BFC38B6#0000167C02028A12
(1493280579.304405) can0 1BFC38B5#0502FF1202028A12
(1493280579.304655) can0 1BFC38B4#110F01010000A322
(1493280579.305042) can0 1BFC38B3#80016484324000FF
(1493280579.305386) can0 1BFC38B2#80016484838380BD
(1493280579.311511) can0 30B#5F00110000000098
(1493280579.323554) can0 0A9#73
(1493280579.330399) can0 3C0#6A7E1335
(1493280579.360534) can0 1FD#0000000000000000
(1493280579.360785) can0 30B#5F00110000000098
(1493280579.373718) can0 4BB#
(1493280579.410666) can0 30B#5F00110000000098
(1493280579.420291) can0 1FD#0000000000000000
(1493280579.423790) can0 57A#1C5EDA1167
(1493280579.433781) can0 3C0#6A7E1335
(1493280579.461163) can0 6C7#04051101020001
(1493280579.461403) can0 30B#5F00110000000098
(1493280579.461648) can0 5F2#CB00
(1493280579.474117) can0 5BC#20F867707DEF2B35
(1493280579.479943) can0 1FD#0000000000000000
(1493280579.510679) can0 30B#5F00110000000098
(1493280579.524169) can0 1BA#A6C77E23D362F163
(1493280579.537418) can0 3C0#6A7E1335
(1493280579.539910) can0 1FD#0000000000000000
(1493280579.553545) can0 1BFC38B1#0000000000000000
(1493280579.553916) can0 1BFC38BB#FFFFFFFFFFFFFFFF
(1493280579.554166) can0 1BFC38BA#0000000700000014
(1493280579.554553) can0 1BFC38B9#070296408005A3F4
(1493280579.554922) can0 1BFC38B8#0000000800000000
(1493280579.555191) can0 1BFC38B7#800164842502020A
(1493280579.555547) can0 1BFC38B6#0000167F00000000
(1493280579.555812) can0 1BFC38B5#0502FF1202028A12
(1493280579.556188) can0 1BFC38B4#110F01010000A322
(1493280579.556417) can0 1BFC38B3#80016484324000FF
(1493280579.556804) can0 1BFC38B2#80016484838380BD
(1493280579.560046) can0 30B#5F00110000000098
(1493280579.560293) can0 65E#8808EFC19ECB0C00
(1493280579.571288) can0 62F#4451000F25
(1493280579.574248) can0 233#EF78310B4096324F
(1493280579.599934) can0 1FD#0000000000000000
(1493280579.610674) can0 30B#5F00110000000098
(1493280579.624558) can0 576#A0A1
(1493280579.641160) can0 3C0#6A7E1335
(1493280579.661454) can0 6C7#04051101020001
(1493280579.661672) can0 1FD#0000000000000000
(1493280579.661963) can0 30B#5F00110000000098
(1493280579.662058) can0 5F2#CB00
(1493280579.662263) can0 630#33E90500
(1493280579.674636) can0 413#201D401CBCCC
(1493280579.710676) can0 30B#5F00110000000098
(1493280579.720050) can0 1FD#0000000000000000
(1493280579.724814) can0 777#11DE5D
(1493280579.744668) can0 3C0#6A7E1335
(1493280579.761428) can0 30B#5F00110000000098
(1493280579.774890) can0 794#E4656E260E9D956A
(1493280579.780043) can0 1FD#0000000000000000
(1493280579.802180) can0 1BFC38B1#0000000000000000
(1493280579.802559) can0 1BFC38BB#FFFFFFFFFFFFFFFF
(1493280579.802793) can0 1BFC38BA#535553500000001A
(1493280579.803177) can0 1BFC38B9#070296408005A3F4
(1493280579.803553) can0 1BFC38B8#0000000800000000
(1493280579.803801) can0 1BFC38B7#800164842502020A
(1493280579.804047) can0 1BFC38B6#0000168100000000
(1493280579.804453) can0 1BFC38B5#0502FF1202028A12
(1493280579.804703) can0 1BFC38B4#110F01010000A322
(1493280579.805066) can0 1BFC38B3#80016484324000FF
(1493280579.805293) can0 1BFC38B2#80016484838380BD
(1493280579.811566) can0 30B#5F00110000000098
(1493280579.825203) can0 491#
(1493280579.839951) can0 1FD#0000000000000000
(1493280579.848169) can0 3C0#6A7E1335
(1493280579.860082) can0 6C7#04051101020001
(1493280579.860299) can0 30B#5F00110000000098
(1493280579.860600) can0 5F2#CB00
(1493280579.875334) can0 70C#CB29662FC7
(1493280579.899944) can0 1FD#0000000000000000
(1493280579.910684) can0 30B#5F00110000000098
(1493280579.925447) can0 1EF#9A
(1493280579.951641) can0 3C0#6A7E1335
(1493280579.961217) can0 1FD#0000000000000000
(1493280579.961560) can0 30B#5F00110000000098
(1493280579.975528) can0 109#6302A0367F7E962E
(1493280580.010686) can0 30B#5F00110000000098
(1493280580.020572) can0 1FD#0000000000000000
(1493280580.025698) can0 06C#9BD20A
(1493280580.053553) can0 1BFC38B1#0000000000000000
(1493280580.053794) can0 1BFC38BB#FFFFFFFFFFFFFFFF
(1493280580.054164) can0 1BFC38BA#535553500000001A
(1493280580.054421) can0 1BFC38B9#070296408005A3F4
(1493280580.054804) can0 1BFC38B8#0000000800000000
(1493280580.055026) can0 1BFC38B7#800164842502020A
(1493280580.055138) can0 3C0#6A7E1335
(1493280580.055394) can0 1BFC38B6#000016840000A322
(1493280580.055778) can0 1BFC38B5#0502FF1202028A12
(1493280580.056174) can0 1BFC38B4#110F01010000A322
(1493280580.056558) can0 1BFC38B3#8001648431005544
(1493280580.056810) can0 1BFC38B2#8001648483838033
(1493280580.061686) can0 6C7#04051101020001
(1493280580.062062) can0 30B#5F00110000000098
(1493280580.062065) can0 5F2#CB00
(1493280580.062289) can0 643#000200
(1493280580.062530) can0 64E#00A3220000000000
(1493280580.062917) can0 65E#88082B15CEBC0E00
(1493280580.063165) can0 6B8#6D08000000000000
(1493280580.063540) can0 6BC#92823651324C07BA
(1493280580.070941) can0 62D#349220C900
(1493280580.075797) can0 449#3B091704C133025F
(1493280580.080009) can0 1FD#0000000000000000
(1493280580.110688) can0 30B#5F00110000000098
(1493280580.126107) can0 54F#F40FB27BE3EC9A58
(1493280580.140075) can0 1FD#0000000000000000
(1493280580.159270) can0 3C0#6A7E1335
(1493280580.161346) can0 30B#5F00110000000098
(1493280580.161817) can0 631#34C37807FE000000
(1493280580.170470) can0 6B6#390C1C000F25
(1493280580.170685) can0 6B7#BEB4000008FF80FE
(1493280580.176222) can0 2B8#F189304349CF1503
(1493280580.200072) can0 1FD#0000000000000000
(1493280580.210695) can0 30B#5F00110000000098
(1493280580.226484) can0 1D8#9609507DE420
(1493280580.261180) can0 6C7#04051101020001
(1493280580.261397) can0 1FD#0000000000000000
(1493280580.261656) can0 30B#5F00110000000098
(1493280580.261900) can0 5F2#CB00
(1493280580.263061) can0 3C0#6A7E1335
(1493280580.276630) can0 6FC#AB
(1493280580.302194) can0 1BFC38B1#0000000000000000
(1493280580.302574) can0 1BFC38BB#FFFFFFFFFFFFFFFF
(1493280580.302825) can0 1BFC38BA#535553500000001A
(1493280580.303192) can0 1BFC38B9#070296408005A3F4
(1493280580.303521) can0 1BFC38B8#0000000800000000
(1493280580.303771) can0 1BFC38B7#800164842502020A
(1493280580.304063) can0 1BFC38B6#00001686000034A8
(1493280580.304397) can0 1BFC38B5#0502FF1202028A12
(1493280580.304647) can0 1BFC38B4#110F01010000A322
(1493280580.305023) can0 1BFC38B3#8001648431005544
(1493280580.305270) can0 1BFC38B2#8001648483838033
(1493280580.311574) can0 30B#5F00110000000098
(1493280580.320064) can0 1FD#0000000000000000
(1493280580.326710) can0 4D3#0E0D3812DC95
(1493280580.360581) can0 30B#5F00110000000098
(1493280580.367206) can0 3C0#6A7E1335
(1493280580.376824) can0 1D0#5C
(1493280580.380064) can0 1FD#0000000000000000
(1493280580.410828) can0 30B#5F00110000000098
(1493280580.427095) can0 374#BBEEBB42BDBFC5
(1493280580.440080) can0 1FD#0000000000000000
(1493280580.461205) can0 6C7#04051101020001
(1493280580.461616) can0 30B#5F00110000000098
(1493280580.461720) can0 5F2#CB00
(1493280580.470830) can0 3C0#6A7E1335
(1493280580.477229) can0 6B3#7EF3C76D0234
(1493280580.500080) can0 1FD#0000000000000000
(1493280580.510703) can0 30B#5F00110000000098
(1493280580.527505) can0 742#E520
(1493280580.553582) can0 1BFC38B1#0000000000000000
(1493280580.553833) can0 1BFC38BB#FFFFFFFFFFFFFFFF
(1493280580.554245) can0 1BFC38BA#535553500000001A
(1493280580.554443) can0 1BFC38B9#000096408008FC68
(1493280580.554858) can0 1BFC38B8#0000000800000000
(1493280580.555083) can0 1BFC38B7#8001648425020246
(1493280580.555458) can0 1BFC38B6#0000168900000000
(1493280580.555708) can0 1BFC38B5#0502FF1202028A12
(1493280580.556083) can0 1BFC38B4#110F01010000A322
(1493280580.556349) can0 1BFC38B3#8001648431005544
(1493280580.556715) can0 1BFC38B2#8001648483838033
(1493280580.561852) can0 1FD#0000000000000000
(1493280580.562061) can0 30B#5F00110000000098
(1493280580.562355) can0 65E#88089DB25DE20500
(1493280580.571241) can0 62F#4451000F26
(1493280580.574326) can0 3C0#6A7E1335
(1493280580.577572) can0 14A#43A1EB0C22B3
(1493280580.610720) can0 30B#5F00110000000098
(1493280580.620255) can0 1FD#0000000000000000
(1493280580.627750) can0 73C#07D4A65038D6142D
(1493280580.661342) can0 6C7#04051101020001
(1493280580.661749) can0 30B#5F00110000000098
(1493280580.661850) can0 5F2#CA00
(1493280580.677559) can0 3C0#6A7E1335
(1493280580.677794) can0 63B#2477
(1493280580.680041) can0 1FD#0000000000000000
(1493280580.710740) can0 30B#5F00110000000098
(1493280580.728020) can0 2F8#EB98
(1493280580.740122) can0 1FD#0000000000000000
(1493280580.761345) can0 30B#5F00110000000098
(1493280580.778089) can0 3A3#04FFEF15174701
(1493280580.781331) can0 3C0#6A7E1335
(1493280580.800094) can0 1FD#0000000000000000
(1493280580.802225) can0 1BFC38B1#0000000000000000
(1493280580.802604) can0 1BFC38BB#FFFFFFFFFFFFFFFF
(1493280580.802981) can0 1BFC38BA#0000000700000014
(1493280580.803203) can0 1BFC38B9#000096408008FC68
(1493280580.803572) can0 1BFC38B8#0000000800000000
(1493280580.803820) can0 1BFC38B7#8001648425020246
(1493280580.804242) can0 1BFC38B6#0000168B00000000
(1493280580.804611) can0 1BFC38B5#0502FF1202028A12
(1493280580.804841) can0 1BFC38B4#110F01010000A322
(1493280580.805120) can0 1BFC38B3#8001648431005544
(1493280580.805479) can0 1BFC38B2#8001648483838033
(1493280580.811622) can0 30B#5F00110000000098
(1493280580.828235) can0 43E#D406C719F16A737A
(1493280580.861236) can0 6C7#04051101020001
(1493280580.861465) can0 1FD#0000000000000000
(1493280580.861724) can0 30B#5F00110000000098
(1493280580.861972) can0 5F2#CA00
(1493280580.878386) can0 5B5#F39E2F
(1493280580.884838) can0 3C0#6A7E1335
(1493280580.910880) can0 30B#5F00110000000098
(1493280580.920624) can0 1FD#0000000000000000
(1493280580.928600) can0 5C5#F2969C0B1077A37C
(1493280580.961251) can0 30B#5F00110000000098
(1493280580.978612) can0 2AE#322AA762EBA9
(1493280580.980100) can0 1FD#0000000000000000
(1493280580.988591) can0 3C0#6A7E1335
(1493280581.010756) can0 30B#5F00110000000098
(1493280581.028804) can0 310#2380C7054BC1B559
(1493280581.040089) can0 1FD#0000000000000000
(1493280581.053627) can0 1BFC38B1#0000000000000000
(1493280581.053989) can0 1BFC38BB#FFFFFFFFFFFFFFFF
(1493280581.054214) can0 1BFC38BA#0000000700000014
(1493280581.054602) can0 1BFC38B9#000096408008FC68
(1493280581.054853) can0 1BFC38B8#0000000800000000
(1493280581.055252) can0 1BFC38B7#8001648425020246
(1493280581.055478) can0 1BFC38B6#0000168E0000A322
(1493280581.055853) can0 1BFC38B5#0502FF1202028A12
(1493280581.056116) can0 1BFC38B4#110F01010000A322
(1493280581.056492) can0 1BFC38B3#8001648431007766
(1493280581.056695) can0 1BFC38B2#8001648483830078
(1493280581.061832) can0 6C7#04051101020001
(1493280581.062120) can0 30B#5F00110000000098
(1493280581.062231) can0 5F2#CA00
(1493280581.062471) can0 643#000200
(1493280581.062753) can0 64E#00A3220000000000
(1493280581.062959) can0 65E#88086143E64F0D00
(1493280581.063331) can0 6B8#6D08000000000000
(1493280581.063599) can0 6BC#92823651324C07BC
(1493280581.078881) can0 3EC#5AC44210E40E9C
(1493280581.092236) can0 3C0#6A7E1335
(1493280581.100128) can0 1FD#0000000000000000
(1493280581.110856) can0 30B#5F00110000000098
(1493280581.128994) can0 379#AD5B6A441C
(1493280581.161361) can0 1FD#0000000000000000
(1493280581.161591) can0 30B#5F00110000000098
(1493280581.170739) can0 6B6#390C1C000F26
(1493280581.170971) can0 6B7#BEB4000008FF80FE
(1493280581.179095) can0 28C#33
(1493280581.196199) can0 3C0#6A7E1335
(1493280581.210862) can0 30B#5F00110000000098
(1493280581.220480) can0 1FD#0000000000000000
(1493280581.229248) can0 071#BC09CF69262E8552
(1493280581.261242) can0 6C7#04051101020001
(1493280581.261609) can0 30B#5F00110000000098
(1493280581.261612) can0 5F2#CA00
(1493280581.279368) can0 75B#1EF34B5420550E18
(1493280581.280235) can0 1FD#0000000000000000
(1493280581.299705) can0 3C0#6A7E1335
(1493280581.302390) can0 1BFC38B1#0000000000000000
(1493280581.302621) can0 1BFC38BB#FFFFFFFFFFFFFFFF
(1493280581.302967) can0 1BFC38BA#0000000700000014
(1493280581.303218) can0 1BFC38B9#000096408008FC68
(1493280581.303591) can0 1BFC38B8#0000000800000000
(1493280581.303843) can0 1BFC38B7#8001648425020246
(1493280581.304268) can0 1BFC38B6#0000169002028A12
(1493280581.304639) can0 1BFC38B5#0502FF1202028A12
(1493280581.304874) can0 1BFC38B4#110F01010000A322
(1493280581.305142) can0 1BFC38B3#8001648431007766
(1493280581.305463) can0 1BFC38B2#8001648483830078
(1493280581.311643) can0 30B#5F00110000000098
(1493280581.329622) can0 088#30
(1493280581.340133) can0 1FD#0000000000000000
(1493280581.360647) can0 30B#5F00110000000098
(1493280581.379742) can0 247#217D46
(1493280581.400122) can0 1FD#0000000000000000
(1493280581.403345) can0 3C0#6A7E1335
(1493280581.410848) can0 30B#5F00110000000098
(1493280581.429869) can0 49C#A266EA7488
(1493280581.461375) can0 6C7#04051101020001
(1493280581.461745) can0 1FD#0000000000000000
(1493280581.461981) can0 30B#5F00110000000098
(1493280581.462091) can0 5F2#CA00
(1493280581.479995) can0 48C#6D5FE4130670730A
(1493280581.506983) can0 3C0#6A7E1335
(1493280581.510900) can0 30B#5F00110000000098
(1493280581.520373) can0 1FD#0000000000000000
(1493280581.530123) can0 041#227F2105CD92B24F
(1493280581.553624) can0 1BFC38B1#0000000000000000
(1493280581.553859) can0 1BFC38BB#FFFFFFFFFFFFFFFF
(1493280581.554217) can0 1BFC38BA#0000000700000014
(1493280581.554623) can0 1BFC38B9#010296408005A3F4
(1493280581.554837) can0 1BFC38B8#0000000800000000
(1493280581.555237) can0 1BFC38B7#8001648425020282
(1493280581.555621) can0 1BFC38B6#0000169300000000
(1493280581.555892) can0 1BFC38B5#0502FF1202028A12
(1493280581.556121) can0 1BFC38B4#110F01010000A322
(1493280581.556494) can0 1BFC38B3#8001648431007766
(1493280581.556736) can0 1BFC38B2#8001648483830078
(1493280581.561872) can0 30B#5F00110000000098
(1493280581.562088) can0 65E#8808D4E5602B0800
(1493280581.571456) can0 62F#4451000F27
(1493280581.580073) can0 1FD#0000000000000000
(1493280581.580433) can0 5CB#98310E3F3C5E
(1493280581.610611) can0 3C0#6A7E1335
(1493280581.610870) can0 30B#5F00110000000098
(1493280581.630541) can0 25E#638C3438
(1493280581.640127) can0 1FD#0000000000000000
(1493280581.661381) can0 6C7#04051101020001
(1493280581.661611) can0 30B#5F00110000000098
(1493280581.661719) can0 5F2#CA00
(1493280581.661998) can0 630#33EA010000
(1493280581.680673) can0 403#D9
(1493280581.700126) can0 1FD#0000000000000000
(1493280581.710909) can0 30B#5F00110000000098
(1493280581.714466) can0 3C0#6A7E1335
(1493280581.730756) can0 192#C21FF535D9CBD964
(1493280581.761383) can0 1FD#0000000000000000
(1493280581.761610) can0 30B#5F00110000000098
(1493280581.781047) can0 16D#30710E
(1493280581.802392) can0 1BFC38B1#0000000000000000
(1493280581.802778) can0 1BFC38BB#FFFFFFFFFFFFFFFF
(1493280581.802997) can0 1BFC38BA#535553500000001A
(1493280581.803262) can0 1BFC38B9#010296408005A3F4
(1493280581.803625) can0 1BFC38B8#0000000800000000
(1493280581.804002) can0 1BFC38B7#8001648425020282
(1493280581.804241) can0 1BFC38B6#0000169500000000
(1493280581.804628) can0 1BFC38B5#0502FF1202028A12
(1493280581.804877) can0 1BFC38B4#110F01010000A322
(1493280581.805272) can0 1BFC38B3#8001648431007766
(1493280581.805505) can0 1BFC38B2#8001648483830078
(1493280581.811644) can0 30B#5F00110000000098
(1493280581.817877) can0 3C0#6A7E1335
(1493280581.820290) can0 1FD#0000000000000000
(1493280581.831153) can0 228#92E654
(1493280581.861396) can0 6C7#04051101020001
(1493280581.861621) can0 30B#5F00110000000098
(1493280581.861752) can0 5F2#CA00
(1493280581.880152) can0 1FD#0000000000000000
(1493280581.881273) can0 2CF#BBFE7147118B133C
(1493280581.910887) can0 30B#5F00110000000098
(1493280581.921850) can0 3C0#6A7E1335
(1493280581.931398) can0 119#DE1DC60BE4163172
(1493280581.940296) can0 1FD#0000000000000000
(1493280581.961397) can0 30B#5F00110000000098
(1493280581.981628) can0 333#2175E0579185
(1493280582.000265) can0 1FD#0000000000000000
(1493280582.010894) can0 30B#5F00110000000098
(1493280582.025639) can0 3C0#6A7E1335
(1493280582.031781) can0 2CA#4A0FF852
(1493280582.053646) can0 1BFC38B1#0000000000000000
(1493280582.054017) can0 1BFC38BB#FFFFFFFFFFFFFFFF
(1493280582.054259) can0 1BFC38BA#535553500000001A
(1493280582.054640) can0 1BFC38B9#010296408005A3F4
(1493280582.054878) can0 1BFC38B8#0000000800000000
(1493280582.055276) can0 1BFC38B7#8001648425020282
(1493280582.055623) can0 1BFC38B6#000016980000A322
(1493280582.055894) can0 1BFC38B5#0502FF1202028A12
(1493280582.056325) can0 1BFC38B4#110F01010000A322
(1493280582.056510) can0 1BFC38B3#800164843240CCBB
(1493280582.056800) can0 1BFC38B2#80016484838380EF
(1493280582.060206) can0 6C7#04051101020001
(1493280582.060557) can0 1FD#0000000000000000
(1493280582.060767) can0 30B#5F00110000000098
(1493280582.060857) can0 5F2#CA00
(1493280582.061139) can0 643#000200
(1493280582.061382) can0 64E#00A3220000000000
(1493280582.061620) can0 65E#880803148C2F0400
(1493280582.062000) can0 6B8#6D08000000000000
(1493280582.062259) can0 6BC#92823651324C07BE
(1493280582.071271) can0 62D#349302E900
(1493280582.082060) can0 105#59BBEE6A
(1493280582.110894) can0 30B#5F00110000000098
(1493280582.120649) can0 1FD#0000000000000000
(1493280582.129106) can0 3C0#6A7E1335
(1493280582.132224) can0 12E#7156D86D9B3AC52F
(1493280582.161398) can0 30B#5F00110000000098
(1493280582.161924) can0 631#34C414
(1493280582.170524) can0 6B6#390C1C000F27
(1493280582.170754) can0 6B7#BEB4000008FF80FE
(1493280582.180287) can0 1FD#0000000000000000
(1493280582.182302) can0 7FF#A4D0
(1493280582.210903) can0 30B#5F00110000000098
(1493280582.232393) can0 775#DCA0676D44A2
(1493280582.232760) can0 3C0#6A7E1335
(1493280582.240307) can0 1FD#0000000000000000
(1493280582.261568) can0 6C7#04051101020001
(1493280582.261782) can0 30B#5F00110000000098
(1493280582.261897) can0 5F2#CA00
(1493280582.282636) can0 535#552D19194EFEE7
(1493280582.300277) can0 1FD#0000000000000000
(1493280582.302417) can0 1BFC38B1#0000000000000000
(1493280582.302788) can0 1BFC38BB#FFFFFFFFFFFFFFFF
(1493280582.303026) can0 1BFC38BA#535553500000001A
(1493280582.303402) can0 1BFC38B9#010296408005A3F4
(1493280582.303779) can0 1BFC38B8#0000000800000000
(1493280582.304028) can0 1BFC38B7#8001648425020282
(1493280582.304276) can0 1BFC38B6#0000169A000034A8
(1493280582.304658) can0 1BFC38B5#0502FF1202028A12
(1493280582.305056) can0 1BFC38B4#110F01010000A322
(1493280582.305278) can0 1BFC38B3#800164843240CCBB
(1493280582.305649) can0 1BFC38B2#80016484838380EF
(1493280582.311790) can0 30B#5F00110000000098
(1493280582.332802) can0 575#3315193C
(1493280582.336869) can0 3C0#6A7E1335
(1493280582.360778) can0 1FD#0000000000000000
(1493280582.361031) can0 30B#5F00110000000098
(1493280582.382908) can0 2AA#3AF67C5A
(1493280582.411160) can0 30B#5F00110000000098
(1493280582.420558) can0 1FD#0000000000000000
(1493280582.433036) can0 3D8#4394F21E
(1493280582.440392) can0 3C0#6A7E1335
(1493280582.461441) can0 6C7#04051101020001
(1493280582.461813) can0 30B#5F00110000000098
(1493280582.461927) can0 5F2#CA00
(1493280582.480307) can0 1FD#0000000000000000
(1493280582.483326) can0 3A8#7597A249D68C2724
(1493280582.510912) can0 30B#5F00110000000098
(1493280582.533420) can0 2B8#71C7EC53B7A2E4
(1493280582.540197) can0 1FD#0000000000000000
(1493280582.544153) can0 3C0#6A7E1335
(1493280582.553821) can0 1BFC38B1#0000000000000000
(1493280582.554169) can0 1BFC38BB#FFFFFFFFFFFFFFFF
(1493280582.554421) can0 1BFC38BA#535553500000001A
(1493280582.554766) can0 1BFC38B9#020096408008FC68
(1493280582.555143) can0 1BFC38B8#0000000800000000
(1493280582.555391) can0 1BFC38B7#80016484250202BE
(1493280582.555767) can0 1BFC38B6#0000169D00000000
(1493280582.556018) can0 1BFC38B5#0502FF1202028A12
(1493280582.556437) can0 1BFC38B4#110F01010000A322
(1493280582.556667) can0 1BFC38B3#800164843240CCBB
(1493280582.557058) can0 1BFC38B2#80016484838380EF
(1493280582.560317) can0 30B#5F00110000000098
(1493280582.560681) can0 65E#880892C591710500
(1493280582.571413) can0 62F#4451000F28
(1493280582.583535) can0 589#DEB44D11FE54
(1493280582.600286) can0 1FD#0000000000000000
(1493280582.610931) can0 30B#5F00110000000098
(1493280582.633810) can0 74C#42F74665824C4551
(1493280582.647628) can0 3C0#6A7E1335
(1493280582.661421) can0 6C7#04051101020001
(1493280582.661791) can0 1FD#0000000000000000
(1493280582.662054) can0 30B#5F00110000000098
(1493280582.662150) can0 5F2#CA00
(1493280582.683934) can0 552#D04A2D1BC712FC34
(1493280582.710948) can0 30B#5F00110000000098
(1493280582.720795) can0 1FD#0000000000000000
(1493280582.734071) can0 7CC#7083CD
(1493280582.751384) can0 3C0#6A7E1335
(1493280582.761585) can0 30B#5F00110000000098
(1493280582.780324) can0 1FD#0000000000000000
(1493280582.784156) can0 257#EB2F58762F764E0F
(1493280582.802438) can0 1BFC38B1#0000000000000000
(1493280582.802789) can0 1BFC38BB#FFFFFFFFFFFFFFFF
(1493280582.803188) can0 1BFC38BA#0000000700000014
(1493280582.803418) can0 1BFC38B9#020096408008FC68
(1493280582.803805) can0 1BFC38B8#0000000800000000
(1493280582.804022) can0 1BFC38B7#80016484250202BE
(1493280582.804431) can0 1BFC38B6#0000169F00000000
(1493280582.804680) can0 1BFC38B5#0502FF1202028A12
(1493280582.805062) can0 1BFC38B4#110F01010000A322
(1493280582.805287) can0 1BFC38B3#800164843240CCBB
(1493280582.805653) can0 1BFC38B2#80016484838380EF
(1493280582.811828) can0 30B#5F00110000000098
(1493280582.834466) can0 72E#0D83F24FD772877F
(1493280582.840303) can0 1FD#0000000000000000
(1493280582.855427) can0 3C0#6A7E1335
(1493280582.861423) can0 6C7#04051101020001
(1493280582.861676) can0 30B#5F00110000000098
(1493280582.861793) can0 5F2#CA00
(1493280582.884564) can0 3CB#ADFF
(1493280582.900296) can0 1FD#0000000000000000
(1493280582.911052) can0 30B#5F00110000000098
(1493280582.934692) can0 069#3AE1D52AF2BD7176
(1493280582.958893) can0 3C0#6A7E1335
(1493280582.961711) can0 1FD#0000000000000000
(1493280582.961938) can0 30B#5F00110000000098
(1493280582.984824) can0 735#F012B37E81AE3F62
(1493280583.010925) can0 30B#5F00110000000098
(1493280583.020559) can0 1FD#0000000000000000
(1493280583.034939) can0 3D3#03FB84
(1493280583.053934) can0 1BFC38B1#0000000000000000
(1493280583.054164) can0 1BFC38BB#FFFFFFFFFFFFFFFF
(1493280583.054545) can0 1BFC38BA#0000000700000014
(1493280583.054801) can0 1BFC38B9#020096408008FC68
(1493280583.055174) can0 1BFC38B8#0000000800000000
(1493280583.055543) can0 1BFC38B7#80016484250202BE
(1493280583.055807) can0 1BFC38B6#000016A20000A322
(1493280583.056180) can0 1BFC38B5#0502FF1202028A12
(1493280583.056392) can0 1BFC38B4#110F01010000A322
(1493280583.056773) can0 1BFC38B3#8001648431001100
(1493280583.057024) can0 1BFC38B2#8001648483838035
(1493280583.060320) can0 6C7#04051101020001
(1493280583.060671) can0 30B#5F00110000000098
(1493280583.060780) can0 5F2#CA00
(1493280583.060883) can0 643#000200
(1493280583.061273) can0 64E#00A3220000000000
(1493280583.061517) can0 65E#8808D2F18F6D0800
(1493280583.061806) can0 6B8#6D08000000000000
(1493280583.062043) can0 6BC#92823651324C07BF
(1493280583.062675) can0 3C0#6A7E1335
(1493280583.080307) can0 1FD#0000000000000000
(1493280583.085073) can0 6CB#EDF36323
(1493280583.110978) can0 30B#5F00110000000098
(1493280583.135194) can0 5D7#0DA98C182F903811
(1493280583.140316) can0 1FD#0000000000000000
(1493280583.161433) can0 30B#5F00110000000098
(1493280583.166645) can0 3C0#6A7E1335
(1493280583.170811) can0 6B6#390C1C000F28
(1493280583.171057) can0 6B7#BEB4000008FF80FE
(1493280583.185311) can0 107#5E06872036703B2F
(1493280583.200315) can0 1FD#0000000000000000
(1493280583.210968) can0 30B#5F00110000000098
(1493280583.235443) can0 527#0DE3C22EF2B05B43
(1493280583.261445) can0 6C7#04051101020001
(1493280583.261815) can0 1FD#0000000000000000
(1493280583.262056) can0 30B#5F00110000000098
(1493280583.262141) can0 5F2#CA00
(1493280583.270194) can0 3C0#6A7E1335
(1493280583.285747) can0 3EE#75EF4C0D57AC1E5B
(1493280583.302569) can0 1BFC38B1#0000000000000000
(1493280583.302819) can0 1BFC38BB#FFFFFFFFFFFFFFFF
(1493280583.303191) can0 1BFC38BA#0000000700000014
(1493280583.303437) can0 1BFC38B9#020096408008FC68
(1493280583.303831) can0 1BFC38B8#0000000800000000
(1493280583.304067) can0 1BFC38B7#80016484250202BE
(1493280583.304474) can0 1BFC38B6#000016A402028A12
(1493280583.304849) can0 1BFC38B5#0502FF1202028A12
(1493280583.305110) can0 1BFC38B4#110F01010000A322
(1493280583.305363) can0 1BFC38B3#8001648431001100
(1493280583.305708) can0 1BFC38B2#8001648483838035
(1493280583.311851) can0 30B#5F00110000000098
(1493280583.320470) can0 1FD#0000000000000000
(1493280583.335833) can0 1D9#4A6A90510E096865
(1493280583.360824) can0 30B#5F00110000000098
(1493280583.373561) can0 3C0#6A7E1335
(1493280583.380341) can0 1FD#0000000000000000
(1493280583.386026) can0 6C8#90B7A7479B521F2F
(1493280583.411073) can0 30B#5F00110000000098
(1493280583.436086) can0 76D#C13387
(1493280583.440330) can0 1FD#0000000000000000
(1493280583.461449) can0 6C7#04051101020001
(1493280583.461684) can0 30B#5F00110000000098
(1493280583.461953) can0 5F2#CA00
(1493280583.476937) can0 3C0#6A7E1335
(1493280583.486228) can0 067#CF54311C3F9ED76F
(1493280583.500330) can0 1FD#0000000000000000
(1493280583.511077) can0 30B#5F00110000000098
(1493280583.536476) can0 70C#6E2E10011490980B
(1493280583.553847) can0 1BFC38B1#0000000000000000
(1493280583.554083) can0 1BFC38BB#FFFFFFFFFFFFFFFF
(1493280583.554465) can0 1BFC38BA#0000000700000014
(1493280583.554703) can0 1BFC38B9#030296408005A3F4
(1493280583.555110) can0 1BFC38B8#0000000800000000
(1493280583.555486) can0 1BFC38B7#80016484250202FA
(1493280583.555744) can0 1BFC38B6#000016A700000000
(1493280583.556117) can0 1BFC38B5#0502FF1202028A12
(1493280583.556330) can0 1BFC38B4#110F01010000A322
(1493280583.556691) can0 1BFC38B3#8001648431001100
(1493280583.556967) can0 1BFC38B2#8001648483838035
(1493280583.562083) can0 1FD#0000000000000000
(1493280583.562329) can0 30B#5F00110000000098
(1493280583.562711) can0 65E#8808B18671E90600
(1493280583.571584) can0 62F#4451000F29
(1493280583.580724) can0 3C0#6A7E1335
(1493280583.586575) can0 6D6#4A00D43AFD73D267
(1493280583.611086) can0 30B#5F00110000000098
(1493280583.620582) can0 1FD#0000000000000000
(1493280583.636709) can0 638#F0242E2B26621F
(1493280583.661460) can0 6C7#04051101020001
(1493280583.661699) can0 30B#5F00110000000098
(1493280583.661944) can0 5F2#CA00
(1493280583.662208) can0 630#33EB0104010000
(1493280583.680336) can0 1FD#0000000000000000
(1493280583.684074) can0 3C0#6A7E1335
(1493280583.686823) can0 611#7D0E3E77EB
(1493280583.711081) can0 30B#5F00110000000098
(1493280583.737103) can0 515#F9787E6BDD4BE4
(1493280583.740338) can0 1FD#0000000000000000
(1493280583.761622) can0 30B#5F00110000000098
(1493280583.787180) can0 602#789E03146F7D4F4D
(1493280583.787936) can0 3C0#6A7E1335
(1493280583.800351) can0 1FD#0000000000000000
(1493280583.802621) can0 1BFC38B1#0000000000000000
(1493280583.802835) can0 1BFC38BB#FFFFFFFFFFFFFFFF
(1493280583.803229) can0 1BFC38BA#535553500000001A
(1493280583.803430) can0 1BFC38B9#030296408005A3F4
(1493280583.803820) can0 1BFC38B8#0000000800000000
(1493280583.804233) can0 1BFC38B7#80016484250202FA
(1493280583.804470) can0 1BFC38B6#000016A900000000
(1493280583.804862) can0 1BFC38B5#0502FF1202028A12
(1493280583.805060) can0 1BFC38B4#110F01010000A322
(1493280583.805472) can0 1BFC38B3#8001648431001100
(1493280583.805671) can0 1BFC38B2#8001648483838035
(1493280583.811878) can0 30B#5F00110000000098
(1493280583.837358) can0 31D#A833E76384DB3178
(1493280583.860338) can0 6C7#04051101020001
(1493280583.860742) can0 1FD#0000000000000000
(1493280583.860958) can0 30B#5F00110000000098
(1493280583.861070) can0 5F2#CA00
(1493280583.887465) can0 1E9#C3790968F59892
(1493280583.891677) can0 3C0#6A7E1335
(1493280583.911095) can0 30B#5F00110000000098
(1493280583.920846) can0 1FD#0000000000000000
(1493280583.937736) can0 654#09
(1493280583.961596) can0 30B#5F00110000000098
(1493280583.980352) can0 1FD#0000000000000000
(1493280583.987725) can0 4FE#28D14B
(1493280583.995187) can0 3C0#6A7E1335
(1493280584.011099) can0 30B#5F00110000000098
(1493280584.037850) can0 4AA#5CFDE038BCD29E50
(1493280584.040348) can0 1FD#0000000000000000
(1493280584.053866) can0 1BFC38B1#0000000000000000
(1493280584.054227) can0 1BFC38BB#FFFFFFFFFFFFFFFF
(1493280584.054474) can0 1BFC38BA#535553500000001A
(1493280584.054862) can0 1BFC38B9#030296408005A3F4
(1493280584.055094) can0 1BFC38B8#0000000800000000
(1493280584.055435) can0 1BFC38B7#80016484250202FA
(1493280584.055686) can0 1BFC38B6#000016AC0000A322
(1493280584.056132) can0 1BFC38B5#0502FF1202028A12
(1493280584.056531) can0 1BFC38B4#110F01010000A322
(1493280584.056727) can0 1BFC38B3#8001648431003322
(1493280584.057002) can0 1BFC38B2#80016484838300BA
(1493280584.060381) can0 6C7#04051101020001
(1493280584.060726) can0 30B#5F00110000000098
(1493280584.060839) can0 5F2#CA00
(1493280584.060959) can0 643#000200
(1493280584.061348) can0 64E#00A3220000000000
(1493280584.061600) can0 65E#880862D5CF150700
(1493280584.061849) can0 6B8#6D08000000000000
(1493280584.062109) can0 6BC#92823651324C07C0
(1493280584.071493) can0 62D#3482030012000300
(1493280584.087977) can0 27D#A742B55692EF9234
(1493280584.098693) can0 3C0#6A7E1335
(1493280584.100342) can0 1FD#0000000000000000
(1493280584.111102) can0 30B#5F00110000000098
(1493280584.138054) can0 4A1#
(1493280584.161633) can0 1FD#0000000000000000
(1493280584.161840) can0 30B#5F00110000000098
(1493280584.161954) can0 631#34CD00
(1493280584.170857) can0 6B6#390C1C000F29
(1493280584.171104) can0 6B7#BEB4000008FF80FE
(1493280584.188231) can0 42A#12F84E5F47CFAC23
(1493280584.202220) can0 3C0#6A7E1335
(1493280584.211120) can0 30B#5F00110000000098
(1493280584.220761) can0 1FD#0000000000000000
(1493280584.238500) can0 422#CBAADE1B0BA67B51
(1493280584.261623) can0 6C7#04051101020001
(1493280584.261823) can0 30B#5F00110000000098
(1493280584.261945) can0 5F2#CA00
(1493280584.280516) can0 1FD#0000000000000000
(1493280584.288649) can0 432#003F0E36863A2578
(1493280584.302611) can0 1BFC38B1#0000000000000000
(1493280584.303022) can0 1BFC38BB#FFFFFFFFFFFFFFFF
(1493280584.303220) can0 1BFC38BA#535553500000001A
(1493280584.303611) can0 1BFC38B9#030296408005A3F4
(1493280584.303833) can0 1BFC38B8#0000000800000000
(1493280584.304229) can0 1BFC38B7#80016484250202FA
(1493280584.304476) can0 1BFC38B6#000016AE000034A8
(1493280584.304821) can0 1BFC38B5#0502FF1202028A12
(1493280584.305072) can0 1BFC38B4#110F01010000A322
(1493280584.305445) can0 1BFC38B3#8001648431003322
(1493280584.305703) can0 3C0#6A7E1335
(1493280584.305705) can0 1BFC38B2#80016484838300BA
(1493280584.311893) can0 30B#5F00110000000098
(1493280584.338727) can0 4C0#B1979E70BEA9B277
(1493280584.340403) can0 1FD#0000000000000000
(1493280584.361007) can0 30B#5F00110000000098
(1493280584.388856) can0 15D#F4447414089ECE65
(1493280584.400381) can0 1FD#0000000000000000
(1493280584.409617) can0 3C0#6A7E1335
(1493280584.411847) can0 30B#5F00110000000098
(1493280584.422365) can0 64E#00A44F0000000000
(1493280584.438992) can0 6F1#
(1493280584.461651) can0 6C7#04051101020001
(1493280584.461867) can0 1FD#0000000000000000
(1493280584.462143) can0 30B#5F00110000000098
(1493280584.462368) can0 5F2#CA00
(1493280584.489235) can0 62A#0159EC54CBD26176
(1493280584.511122) can0 30B#5F00110000000098
(1493280584.512958) can0 3C0#6A7E1335
(1493280584.520490) can0 1FD#0000000000000000
(1493280584.539400) can0 70B#
(1493280584.553999) can0 1BFC38B1#0000000000000000
(1493280584.554387) can0 1BFC38BB#FFFFFFFFFFFFFFFF
(1493280584.554751) can0 1BFC38BA#535553500000001A
(1493280584.554995) can0 1BFC38B9#040096408008FC68
(1493280584.555225) can0 1BFC38B8#0000000800000000
(1493280584.555578) can0 1BFC38B7#8001648425020236
(1493280584.555958) can0 1BFC38B6#000016B100000000
(1493280584.556245) can0 1BFC38B5#0502FF1202028A12
(1493280584.556588) can0 1BFC38B4#110F01010000A322
(1493280584.556846) can0 1BFC38B3#8001648431003322
(1493280584.557104) can0 1BFC38B2#80016484838300BA
(1493280584.560504) can0 30B#5F00110000000098
(1493280584.560776) can0 65E#88085A13A1520B00
(1493280584.572008) can0 62F#4451000F2A
(1493280584.580526) can0 1FD#0000000000000000
(1493280584.589504) can0 658#
(1493280584.611149) can0 30B#5F00110000000098
(1493280584.616365) can0 3C0#6A7E1335
(1493280584.639777) can0 13B#85C05F4C6D25356E
(1493280584.640532) can0 1FD#0000000000000000
(1493280584.661871) can0 6C7#04051101020001
(1493280584.662112) can0 30B#5F00110000000098
(1493280584.662372) can0 5F2#CA00
(1493280584.689877) can0 1D7#F35F5A6697C6
(1493280584.700501) can0 1FD#0000000000000000
(1493280584.711129) can0 30B#5F00110000000098
(1493280584.719717) can0 3C0#6A7E1335
(1493280584.739989) can0 790#5670D86C
(1493280584.761753) can0 1FD#0000000000000000
(1493280584.762003) can0 30B#5F00110000000098
(1493280584.790272) can0 07D#F596AE5F6EBF4704
(1493280584.802755) can0 1BFC38B1#0000000000000000
(1493280584.803002) can0 1BFC38BB#FFFFFFFFFFFFFFFF
(1493280584.803235) can0 1BFC38BA#0000000700000014
(1493280584.803620) can0 1BFC38B9#040096408008FC68
(1493280584.804030) can0 1BFC38B8#0000000800000000
(1493280584.804255) can0 1BFC38B7#8001648425020236
(1493280584.804621) can0 1BFC38B6#000016B300000000
(1493280584.804881) can0 1BFC38B5#0502FF1202028A12
(1493280584.805222) can0 1BFC38B4#110F01010000A322
(1493280584.805472) can0 1BFC38B3#8001648431003322
(1493280584.805864) can0 1BFC38B2#80016484838300BA
(1493280584.811886) can0 30B#5F00110000000098
(1493280584.820504) can0 1FD#0000000000000000
(1493280584.823099) can0 3C0#6A7E1335
(1493280584.840291) can0 79B#DD28A124C545164C
(1493280584.860546) can0 6C7#04051101020001
(1493280584.860867) can0 30B#5F00110000000098
(1493280584.861040) can0 5F2#CA00
(1493280584.880514) can0 1FD#0000000000000000
(1493280584.890523) can0 324#90187842302A9572
(1493280584.911164) can0 30B#5F00110000000098
(1493280584.926847) can0 3C0#6A7E1335
(1493280584.940461) can0 1FD#0000000000000000
(1493280584.940628) can0 64E#65854537A784CF03
(1493280584.961795) can0 30B#5F00110000000098
(1493280584.990764) can0 37E#219F
(1493280585.000513) can0 1FD#0000000000000000
(1493280585.011637) can0 30B#5F00110000000098
(1493280585.030009) can0 3C0#6A7E1335
(1493280585.040947) can0 52A#2642A54B017F02
(1493280585.054012) can0 1BFC38B1#0000000000000000
(1493280585.054233) can0 1BFC38BB#FFFFFFFFFFFFFFFF
(1493280585.054621) can0 1BFC38BA#0000000700000014
(1493280585.054864) can0 1BFC38B9#040096408008FC68
(1493280585.055248) can0 1BFC38B8#0000000800000000
(1493280585.055492) can0 1BFC38B7#8001648425020236
(1493280585.055877) can0 1BFC38B6#000016B60000A44F
(1493280585.056175) can0 1BFC38B5#0502FF1202028A12
(1493280585.056591) can0 1BFC38B4#110F01010000A44F
(1493280585.056766) can0 1BFC38B3#8001648432408877
(1493280585.057123) can0 1BFC38B2#80016484838380D1
(1493280585.062169) can0 6C7#04051101020001
(1493280585.062511) can0 1FD#0000000000000000
(1493280585.062763) can0 30B#5F00110000000098
(1493280585.062840) can0 5F2#CA00
(1493280585.063118) can0 643#000200
(1493280585.063368) can0 64E#00A44F0000000000
(1493280585.063743) can0 65E#8808B9C674410700
(1493280585.063963) can0 6B8#6D08000000000000
(1493280585.064291) can0 6BC#92823651324C07C1
(1493280585.091020) can0 72D#98452821BDC62876
(1493280585.111153) can0 30B#5F00110000000098
(1493280585.120768) can0 1FD#0000000000000000
(1493280585.133388) can0 3C0#6A7E1335
(1493280585.141168) can0 1BE#AABF08703CFADB30
(1493280585.161899) can0 30B#5F00110000000098
(1493280585.171517) can0 6B6#390C1C000F2A
(1493280585.171892) can0 6B7#BEB4000008FF80FE
(1493280585.180521) can0 1FD#0000000000000000
(1493280585.191263) can0 339#
(1493280585.211274) can0 30B#5F00110000000098
(1493280585.237168) can0 3C0#6A7E1335
(1493280585.240532) can0 1FD#0000000000000000
(1493280585.241475) can0 659#99A8052A7E1912
(1493280585.261769) can0 6C7#04051101020001
(1493280585.262025) can0 30B#5F00110000000098
(1493280585.262106) can0 5F2#CA00
(1493280585.291490) can0 465#AE43A77BB47A433B
(1493280585.300555) can0 1FD#0000000000000000
(1493280585.302773) can0 1BFC38B1#0000000000000000
(1493280585.303026) can0 1BFC38BB#FFFFFFFFFFFFFFFF
(1493280585.303396) can0 1BFC38BA#0000000700000014
(1493280585.303617) can0 1BFC38B9#040096408008FC68
(1493280585.303989) can0 1BFC38B8#0000000800000000
(1493280585.304281) can0 1BFC38B7#8001648425020236
(1493280585.304655) can0 1BFC38B6#000016B802028A12
(1493280585.304922) can0 1BFC38B5#0502FF1202028A12
(1493280585.305252) can0 1BFC38B4#110F01010000A44F
(1493280585.305505) can0 1BFC38B3#8001648432408877
(1493280585.305858) can0 1BFC38B2#80016484838380D1
(1493280585.312024) can0 30B#5F00110000000098
(1493280585.341242) can0 3C0#6A7E1335
(1493280585.341621) can0 727#5BFF12
(1493280585.361282) can0 1FD#0000000000000000
(1493280585.361526) can0 30B#5F00110000000098
(1493280585.391795) can0 0F5#5FEF50471FFE6D76
(1493280585.411306) can0 30B#5F00110000000098
(1493280585.420657) can0 1FD#0000000000000000
(1493280585.441908) can0 623#207D702250
(1493280585.444878) can0 3C0#6A7E1335
(1493280585.462028) can0 6C7#04051101020001
(1493280585.462443) can0 30B#5F00110000000098
(1493280585.462548) can0 5F2#CA00
(1493280585.480558) can0 1FD#0000000000000000
(1493280585.492151) can0 39F#0D24844C5E6DEE4D
(1493280585.511535) can0 30B#5F00110000000098
(1493280585.540534) can0 1FD#0000000000000000
(1493280585.542281) can0 0A7#9A67CA7EE0E3E660
(1493280585.548793) can0 3C0#6A7E1335
(1493280585.554317) can0 1BFC38B1#0000000000000000
(1493280585.554669) can0 1BFC38BB#FFFFFFFFFFFFFFFF
(1493280585.554925) can0 1BFC38BA#0000000700000014
(1493280585.555304) can0 1BFC38B9#050296408005A3F4
(1493280585.555542) can0 1BFC38B8#0000000800000000
(1493280585.555921) can0 1BFC38B7#8001648425020270
(1493280585.556164) can0 1BFC38B6#000016BB00000000
(1493280585.556554) can0 1BFC38B5#0502FF1202028A12
(1493280585.556808) can0 1BFC38B4#110F01010000A44F
(1493280585.557183) can0 1BFC38B3#8001648432408877
(1493280585.557377) can0 1BFC38B2#80016484838380D1
(1493280585.560815) can0 30B#5F00110000000098
(1493280585.561079) can0 65E#8808A38587410800
(1493280585.571940) can0 62F#4451000F2B
(1493280585.592401) can0 258#B446D63E
(1493280585.600536) can0 1FD#0000000000000000
(1493280585.611283) can0 30B#5F00110000000098
(1493280585.642681) can0 3CC#2FB2297B31680561
(1493280585.652287) can0 3C0#6A7E1335
(1493280585.661953) can0 6C7#04051101020001
(1493280585.662163) can0 1FD#0000000000000000
(1493280585.662418) can0 30B#5F00110000000098
(1493280585.662640) can0 5F2#CA00
(1493280585.662897) can0 630#33C203000F000403
(1493280585.692814) can0 076#E5E2481C9DD7B00C
(1493280585.711307) can0 30B#5F00110000000098
(1493280585.720794) can0 1FD#0000000000000000
(1493280585.742935) can0 6F1#
(1493280585.755760) can0 3C0#6A7E1335
(1493280585.762041) can0 30B#5F00110000000098
(1493280585.780539) can0 1FD#0000000000000000
(1493280585.793103) can0 0BD#0636
(1493280585.802793) can0 1BFC38B1#0000000000000000
(1493280585.803072) can0 1BFC38BB#FFFFFFFFFFFFFFFF
(1493280585.803457) can0 1BFC38BA#535553500000001A
(1493280585.803806) can0 1BFC38B9#050296408005A3F4
(1493280585.804018) can0 1BFC38B8#0000000800000000
(1493280585.804296) can0 1BFC38B7#8001648425020270
(1493280585.804669) can0 1BFC38B6#000016BD00000000
(1493280585.804923) can0 1BFC38B5#0502FF1202028A12
(1493280585.805291) can0 1BFC38B4#110F01010000A44F
(1493280585.805541) can0 1BFC38B3#8001648432408877
(1493280585.805944) can0 1BFC38B2#80016484838380D1
(1493280585.812036) can0 30B#5F00110000000098
(1493280585.840549) can0 1FD#0000000000000000
(1493280585.843335) can0 327#31DC5778C79E
(1493280585.858916) can0 3C0#6A7E1335
(1493280585.860827) can0 6C7#04051101020001
(1493280585.861054) can0 30B#5F00110000000098
(1493280585.861175) can0 5F2#CA00
(1493280585.893455) can0 5DF#250CBD6387EE5D2A
(1493280585.900582) can0 1FD#0000000000000000
(1493280585.911298) can0 30B#5F00110000000098
(1493280585.943715) can0 3F6#67D2440B4E1EAD0D
(1493280585.961805) can0 1FD#0000000000000000
(1493280585.962002) can0 30B#5F00110000000098
(1493280585.965054) can0 3C0#6A7E1335
(1493280585.993798) can0 503#00B7C47FCF982824
(1493280586.011318) can0 30B#5F00110000000098
(1493280586.020945) can0 1FD#0000000000000000
(1493280586.043933) can0 069#01012E05E0B85008
(1493280586.054079) can0 1BFC38B1#0000000000000000
(1493280586.054446) can0 1BFC38BB#FFFFFFFFFFFFFFFF
(1493280586.054842) can0 1BFC38BA#535553500000001A
(1493280586.055046) can0 1BFC38B9#050296408005A3F4
(1493280586.055296) can0 1BFC38B8#0000000800000000
(1493280586.055672) can0 1BFC38B7#8001648425020270
(1493280586.055914) can0 1BFC38B6#000016C00000A44F
(1493280586.056301) can0 1BFC38B5#0502FF1202028A12
(1493280586.056581) can0 1BFC38B4#110F01010000A44F
(1493280586.056929) can0 1BFC38B3#800164843100DDCC
(1493280586.057180) can0 1BFC38B2#8001648483838077
(1493280586.062333) can0 6C7#04051101020001
(1493280586.062562) can0 30B#5F00110000000098
(1493280586.062850) can0 5F2#CA00
(1493280586.062946) can0 643#000200
(1493280586.063184) can0 64E#00A44F0000000000
(1493280586.063552) can0 65E#8808B99376910800
(1493280586.063803) can0 6B8#6D08000000000000
(1493280586.064020) can0 6BC#92823651324C07C3
(1493280586.069075) can0 3C0#6A7E1335
(1493280586.071928) can0 62D#34837801F8000000
(1493280586.080557) can0 1FD#0000000000000000
(1493280586.094058) can0 70D#7D900115FE1D
(1493280586.111310) can0 30B#5F00110000000098
(1493280586.140552) can0 1FD#0000000000000000
(1493280586.144369) can0 627#
(1493280586.161941) can0 30B#5F00110000000098
(1493280586.162175) can0 631#34CE01
(1493280586.170812) can0 6B6#390C1C000F2B
(1493280586.171188) can0 6B7#BEB4000008FF80FE
(1493280586.172663) can0 3C0#6A7E1335
(1493280586.194441) can0 462#C4C5F1378A9F4E1A
(1493280586.200542) can0 1FD#0000000000000000
(1493280586.211309) can0 30B#5F00110000000098
(1493280586.244563) can0 711#513E1D30F0
(1493280586.261976) can0 6C7#04051101020001
(1493280586.262327) can0 1FD#0000000000000000
(1493280586.262559) can0 30B#5F00110000000098
(1493280586.262804) can0 5F2#CA00
(1493280586.276577) can0 3C0#6A7E1335
(1493280586.294703) can0 234#77A3D3222A86
(1493280586.302814) can0 1BFC38B1#0000000000000000
(1493280586.303189) can0 1BFC38BB#FFFFFFFFFFFFFFFF
(1493280586.303452) can0 1BFC38BA#535553500000001A
(1493280586.303828) can0 1BFC38B9#050296408005A3F4
(1493280586.304059) can0 1BFC38B8#0000000800000000
(1493280586.304496) can0 1BFC38B7#8001648425020270
(1493280586.304683) can0 1BFC38B6#000016C2000034A8
(1493280586.305074) can0 1BFC38B5#0502FF1202028A12
(1493280586.305326) can0 1BFC38B4#110F01010000A44F
(1493280586.305670) can0 1BFC38B3#800164843100DDCC
(1493280586.305920) can0 1BFC38B2#8001648483838077
(1493280586.312033) can0 30B#5F00110000000098
(1493280586.320824) can0 1FD#0000000000000000
(1493280586.344841) can0 635#79A43B043853D70C
(1493280586.361206) can0 30B#5F00110000000098
(1493280586.380319) can0 3C0#6A7E1335
(1493280586.380517) can0 1FD#0000000000000000
(1493280586.394979) can0 6FB#08ECFF3064972A2B
(1493280586.411570) can0 30B#5F00110000000098
(1493280586.440586) can0 1FD#0000000000000000
(1493280586.445095) can0 4A8#44507B33B523AE70
(1493280586.461976) can0 6C7#04051101020001
(1493280586.462188) can0 30B#5F00110000000098
(1493280586.462412) can0 5F2#CA00
(1493280586.483792) can0 3C0#6A7E1335
(1493280586.495207) can0 0EF#B341
(1493280586.500696) can0 1FD#0000000000000000
(1493280586.511356) can0 30B#5F00110000000098
(1493280586.545457) can0 382#FADD6C6AE5EF851D
(1493280586.554326) can0 1BFC38B1#0000000000000000
(1493280586.554562) can0 1BFC38BB#FFFFFFFFFFFFFFFF
(1493280586.554940) can0 1BFC38BA#535553500000001A
(1493280586.555149) can0 1BFC38B9#060096408008FC68
(1493280586.555523) can0 1BFC38B8#0000000800000000
(1493280586.555853) can0 1BFC38B7#80016484250202AC
(1493280586.556205) can0 1BFC38B6#000016C500000000
(1493280586.556443) can0 1BFC38B5#0502FF1202028A12
(1493280586.556828) can0 1BFC38B4#110F01010000A44F
(1493280586.557082) can0 1BFC38B3#800164843100DDCC
(1493280586.557464) can0 1BFC38B2#8001648483838077
(1493280586.560835) can0 1FD#0000000000000000
(1493280586.561085) can0 30B#5F00110000000098
(1493280586.561318) can0 65E#8808C581BCE60800
(1493280586.571985) can0 62F#4451000F2C
(1493280586.587314) can0 3C0#6A7E1335
(1493280586.595461) can0 382#6F8FD43793622C4E
(1493280586.611331) can0 30B#5F00110000000098
(1493280586.620702) can0 1FD#0000000000000000
(1493280586.645719) can0 5B4#
(1493280586.661954) can0 6C7#04051101020001
(1493280586.662330) can0 30B#5F00110000000098
(1493280586.662442) can0 5F2#CA00
(1493280586.680744) can0 1FD#0000000000000000
(1493280586.690820) can0 3C0#6A7E1335
(1493280586.695845) can0 036#136E5C3E6BD62D72
(1493280586.711334) can0 30B#5F00110000000098
(1493280586.740714) can0 1FD#0000000000000000
(1493280586.745970) can0 0DA#A329057FD5BFC10F
(1493280586.761968) can0 30B#5F00110000000098
(1493280586.794602) can0 3C0#6A7E1335
(1493280586.796037) can0 605#3A57EC3AAD328745
(1493280586.800747) can0 1FD#0000000000000000
(1493280586.802845) can0 1BFC38B1#0000000000000000
(1493280586.803192) can0 1BFC38BB#FFFFFFFFFFFFFFFF
(1493280586.803449) can0 1BFC38BA#0000000700000014
(1493280586.803816) can0 1BFC38B9#060096408008FC68
(1493280586.804232) can0 1BFC38B8#0000000800000000
(1493280586.804474) can0 1BFC38B7#80016484250202AC
(1493280586.804863) can0 1BFC38B6#000016C700000000
(1493280586.805124) can0 1BFC38B5#0502FF1202028A12
(1493280586.805442) can0 1BFC38B4#110F01010000A44F
(1493280586.805813) can0 1BFC38B3#800164843100DDCC
(1493280586.806076) can0 1BFC38B2#8001648483838077
(1493280586.812250) can0 30B#5F00110000000098
(1493280586.846208) can0 2B4#63563536A4D3D73D
(1493280586.860759) can0 6C7#04051101020001
(1493280586.860955) can0 1FD#0000000000000000
(1493280586.861221) can0 30B#5F00110000000098
(1493280586.861441) can0 5F2#CA00
(1493280586.896363) can0 040#BA6A4F12C3A3
(1493280586.898803) can0 3C0#6A7E1335
(1493280586.911321) can0 30B#5F00110000000098
(1493280586.920866) can0 1FD#0000000000000000
(1493280586.946611) can0 7AE#A8937A2831
(1493280586.961964) can0 30B#5700110000000098
(1493280586.980720) can0 1FD#0000000000000000
(1493280586.996716) can0 474#C4B5FD622832C3
(1493280587.002200) can0 3C0#6A7E1335
(1493280587.011826) can0 30B#5700110000000098
(1493280587.040721) can0 1FD#0000000000000000
(1493280587.046846) can0 0D7#111A91390D090D44
(1493280587.054362) can0 1BFC38B1#0000000000000000
(1493280587.054580) can0 1BFC38BB#FFFFFFFFFFFFFFFF
(1493280587.054979) can0 1BFC38BA#0000000700000014
(1493280587.055187) can0 1BFC38B9#060096408008FC68
(1493280587.055607) can0 1BFC38B8#0000000800000000
(1493280587.055806) can0 1BFC38B7#80016484250202AC
(1493280587.056214) can0 1BFC38B6#000016CA0000A44F
(1493280587.056480) can0 1BFC38B5#0502FF1202028A12
(1493280587.056859) can0 1BFC38B4#110F01010000A44F
(1493280587.057108) can0 1BFC38B3#800164843100FFEE
(1493280587.057477) can0 1BFC38B2#80016484838300DC
(1493280587.060753) can0 6C7#04051101020001
(1493280587.060969) can0 30B#5700110000000098
(1493280587.061091) can0 5F2#CB00
(1493280587.061355) can0 643#000200
(1493280587.061554) can0 64E#00A44F0000000000
(1493280587.061824) can0 65E#8808BD052DE20400
(1493280587.062079) can0 6B8#6D08000000000000
(1493280587.062449) can0 6BC#92823651324C07C5
(1493280587.096977) can0 044#78DF3A36
(1493280587.100721) can0 1FD#0000000000000000
(1493280587.105557) can0 3C0#6A7E1335
(1493280587.111481) can0 30B#5700110000000098
(1493280587.147238) can0 2B0#F478653AB5081E01
(1493280587.161847) can0 1FD#0000000000000000
(1493280587.162096) can0 30B#5700110000000098
(1493280587.171353) can0 6B6#390C1C000F2C
(1493280587.171723) can0 6B7#BEB4000008FF80FE
(1493280587.197218) can0 6C7#623BA5467B21784B
(1493280587.208928) can0 3C0#6A7E1335
(1493280587.211489) can0 30B#5700110000000098
(1493280587.220861) can0 1FD#0000000000000000
(1493280587.247504) can0 7AC#1FF54F09ED
(1493280587.261830) can0 6C7#04051101020001
(1493280587.262181) can0 30B#5700110000000098
(1493280587.262310) can0 5F2#CB00
(1493280587.280723) can0 1FD#0000000000000000
(1493280587.297487) can0 1DC#B0A392258A599125
(1493280587.302892) can0 1BFC38B1#0000000000000000
(1493280587.303263) can0 1BFC38BB#FFFFFFFFFFFFFFFF
(1493280587.303592) can0 1BFC38BA#0000000700000014
(1493280587.303859) can0 1BFC38B9#060096408008FC68
(1493280587.304227) can0 1BFC38B8#0000000800000000
(1493280587.304482) can0 1BFC38B7#80016484250202AC
(1493280587.304727) can0 1BFC38B6#000016CC02028A12
(1493280587.305105) can0 1BFC38B5#0502FF1202028A12
(1493280587.305490) can0 1BFC38B4#110F01010000A44F
(1493280587.305713) can0 1BFC38B3#800164843100FFEE
(1493280587.306082) can0 1BFC38B2#80016484838300DC
(1493280587.312226) can0 30B#5700110000000098
(1493280587.312983) can0 3C0#6A7E1335
(1493280587.340773) can0 1FD#0000000000000000
(1493280587.347879) can0 08F#BBAC623A03957637
(1493280587.361117) can0 30B#5700110000000098
(1493280587.397871) can0 26F#
(1493280587.400736) can0 1FD#0000000000000000
(1493280587.411485) can0 30B#5700110000000098
(1493280587.416622) can0 3C0#6A7E1335
(1493280587.448005) can0 7C8#5354AA3A0CB8155A
(1493280587.461862) can0 6C7#04051101020001
(1493280587.462107) can0 1FD#0000000000000000
(1493280587.462350) can0 30B#5F00110000000098
(1493280587.462628) can0 5F2#CB00
(1493280587.498109) can0 160#2B71B90410043E15
(1493280587.511493) can0 30B#5F00110000000098
(1493280587.520247) can0 3C0#6A7E1335
(1493280587.520863) can0 1FD#0000000000000000
(1493280587.548258) can0 4E6#C50C5C16AD5B6A0B
(1493280587.554238) can0 1BFC38B1#0000000000000000
(1493280587.554614) can0 1BFC38BB#FFFFFFFFFFFFFFFF
(1493280587.554828) can0 1BFC38BA#0000000700000014
(1493280587.555252) can0 1BFC38B9#070296408005A3F4
(1493280587.555482) can0 1BFC38B8#0000000800000000
(1493280587.555882) can0 1BFC38B7#80016484250202E8
(1493280587.556292) can0 1BFC38B6#000016CF00000000
(1493280587.556491) can0 1BFC38B5#0502FF1202028A12
(1493280587.556873) can0 1BFC38B4#110F01010000A44F
(1493280587.557125) can0 1BFC38B3#800164843100FFEE
(1493280587.557348) can0 1BFC38B2#80016484838300DC
(1493280587.560881) can0 30B#5F00110000000098
(1493280587.561109) can0 65E#880886428A480A00
(1493280587.572116) can0 62F#4451000F2D
(1493280587.580783) can0 1FD#0000000000000000
(1493280587.598352) can0 24D#297DE256F9312A18
(1493280587.611506) can0 30B#5F00110000000098
(1493280587.624007) can0 3C0#6A7E1335
(1493280587.640748) can0 1FD#0000000000000000
(1493280587.648552) can0 1ED#E631C832C9031719
(1493280587.661996) can0 6C7#04051101020001
(1493280587.662272) can0 30B#5F00110000000098
(1493280587.662486) can0 5F2#CB00
(1493280587.662880) can0 630#33C37803E0080272
(1493280587.698633) can0 222#545DA83EB17A
(1493280587.700744) can0 1FD#0000000000000000
(1493280587.711499) can0 30B#5F00110000000098
(1493280587.727457) can0 3C0#6A7E1335
(1493280587.748894) can0 4EE#B40FA44B5D67C454
(1493280587.762151) can0 1FD#0000000000000000
(1493280587.762498) can0 30B#5F00110000000098
(1493280587.799014) can0 48F#
(1493280587.802999) can0 1BFC38B1#0000000000000000
(1493280587.803237) can0 1BFC38BB#FFFFFFFFFFFFFFFF
(1493280587.803627) can0 1BFC38BA#535553500000001A
(1493280587.803900) can0 1BFC38B9#070296408005A3F4
(1493280587.804261) can0 1BFC38B8#0000000800000000
(1493280587.804515) can0 1BFC38B7#80016484250202E8
(1493280587.804882) can0 1BFC38B6#000016D100000000
(1493280587.805138) can0 1BFC38B5#0502FF1202028A12
(1493280587.805506) can0 1BFC38B4#110F01010000A44F
(1493280587.805881) can0 1BFC38B3#800164843100FFEE
(1493280587.806177) can0 1BFC38B2#80016484838300DC
(1493280587.812264) can0 30B#5F00110000000098
(1493280587.820890) can0 1FD#0000000000000000
(1493280587.830959) can0 3C0#6A7E1335
(1493280587.849047) can0 01C#645481377D21
(1493280587.860888) can0 6C7#04051101020001
(1493280587.861252) can0 30B#5F00110000000098
(1493280587.861367) can0 5F2#CB00
(1493280587.880753) can0 1FD#0000000000000000
(1493280587.899246) can0 2C1#8D259F47A877161D
(1493280587.911520) can0 30B#5F00110000000098
(1493280587.934384) can0 3C0#6A7E1335
(1493280587.940772) can0 1FD#0000000000000000
(1493280587.949460) can0 7AE#55D380
(1493280587.962257) can0 30B#5F00110000000098
(1493280587.999491) can0 27B#F59BF4476854D814
(1493280588.000882) can0 1FD#0000000000000000
(1493280588.011884) can0 30B#5F00110000000098
(1493280588.037622) can0 3C0#6A7E1335
(1493280588.049693) can0 2C7#3258EF2DE994675B
(1493280588.054257) can0 1BFC38B1#0000000000000000
(1493280588.054646) can0 1BFC38BB#FFFFFFFFFFFFFFFF
(1493280588.054865) can0 1BFC38BA#535553500000001A
(1493280588.055235) can0 1BFC38B9#070296408005A3F4
(1493280588.055494) can0 1BFC38B8#0000000800000000
(1493280588.055863) can0 1BFC38B7#80016484250202E8
(1493280588.056135) can0 1BFC38B6#000016D40000A44F
(1493280588.056541) can0 1BFC38B5#0502FF1202028A12
(1493280588.056886) can0 1BFC38B4#110F01010000A44F
(1493280588.057151) can0 1BFC38B3#8001648432404433
(1493280588.057382) can0 1BFC38B2#80016484838380F3
(1493280588.062541) can0 6C7#04051101020001
(1493280588.062777) can0 1FD#0000000000000000
(1493280588.063012) can0 30B#5F00110000000098
(1493280588.063270) can0 5F2#CB00
(1493280588.063394) can0 643#000200
(1493280588.063631) can0 64E#00A44F0000000000
(1493280588.064006) can0 65E#880814B5987C0400
(1493280588.064286) can0 6B8#6D08000000000000
(1493280588.064473) can0 6BC#92823651324C07C6
(1493280588.071915) can0 62D#348414
(1493280588.099741) can0 372#9B0F956F60B0
(1493280588.111503) can0 30B#5F00110000000098
(1493280588.121015) can0 1FD#0000000000000000
(1493280588.141253) can0 3C0#6A7E1335
(1493280588.150068) can0 795#BE17444E252C0E7C
(1493280588.162392) can0 30B#5F00110000000098
(1493280588.162909) can0 631#34CF00
(1493280588.171043) can0 6B6#390C1C000F2D
(1493280588.171248) can0 6B7#BEB4000008FF80FE
