(1493279506.282095) can0 30B#7F00110000000098
(1493279506.332415) can0 1FD#0000000000000000
(1493279506.332746) can0 30B#7F00110000000098
(1493279506.341745) can0 6B6#390C1C000C19
(1493279506.341991) can0 6B7#BEB4000008FF80FE
(1493279506.352871) can0 3C0#6A7E1335
(1493279506.382128) can0 30B#7F00110000000098
(1493279506.391873) can0 1FD#0000000000000000
(1493279506.432372) can0 6C7#04051101020000
(1493279506.432611) can0 30B#7F00110000000098
(1493279506.432843) can0 5F2#CA00
(1493279506.451505) can0 1FD#0000000000000000
(1493279506.456619) can0 3C0#6A7E1335
(1493279506.473904) can0 1BFC38B1#0000000000000000
(1493279506.474121) can0 1BFC38BB#FFFFFFFFFFFFFFFF
(1493279506.474509) can0 1BFC38BA#0000000700000014
(1493279506.474891) can0 1BFC38B9#000096408008FC68
(1493279506.475106) can0 1BFC38B8#0000000800000000
(1493279506.475355) can0 1BFC38B7#80016484250202E6
(1493279506.475728) can0 1BFC38B6#00001D2002028292
(1493279506.475983) can0 1BFC38B5#0502FF9202028292
(1493279506.476409) can0 1BFC38B4#00010101001F0003
(1493279506.476780) can0 1BFC38B3#8001648431007766
(1493279506.476996) can0 1BFC38B2#80016484838380F8
(1493279506.482904) can0 30B#7F00110000000098
(1493279506.511515) can0 1FD#0000000000000000
(1493279506.532461) can0 30B#7F00110000000098
(1493279506.560355) can0 3C0#6A7E1335
(1493279506.571531) can0 1FD#0000000000000000
(1493279506.582158) can0 30B#7F00110000000098
(1493279506.632375) can0 6C7#04051101020000
(1493279506.632607) can0 1FD#0000000000000000
(1493279506.632874) can0 30B#7F00110000000098
(1493279506.632960) can0 5F2#CA00
(1493279506.664260) can0 3C0#6A7E1335
(1493279506.682126) can0 30B#7F00110000000098
(1493279506.691883) can0 1FD#0000000000000000
(1493279506.725031) can0 1BFC38B1#0000000000000000
(1493279506.725235) can0 1BFC38BB#FFFFFFFFFFFFFFFF
(1493279506.725625) can0 1BFC38BA#0000000700000014
(1493279506.725865) can0 1BFC38B9#010296408005A3F4
(1493279506.726246) can0 1BFC38B8#0000000800000000
(1493279506.726499) can0 1BFC38B7#8001648425020222
(1493279506.726873) can0 1BFC38B6#00001D2300000000
(1493279506.727252) can0 1BFC38B5#0502FF9202028292
(1493279506.727500) can0 1BFC38B4#00010101001F0003
(1493279506.727872) can0 1BFC38B3#8001648431007766
(1493279506.728125) can0 1BFC38B2#80016484838380F8
(1493279506.732982) can0 30B#7F00110000000098
(1493279506.733271) can0 65E#88085EB85AD60900
(1493279506.742529) can0 62F#4451000C1A
(1493279506.751496) can0 1FD#0000000000000000
(1493279506.767716) can0 3C0#6A7E1335
(1493279506.782152) can0 30B#7F00110000000098
(1493279506.811494) can0 1FD#0000000000000000
(1493279506.832379) can0 6C7#04051101020000
(1493279506.832614) can0 30B#7F00110000000098
(1493279506.832865) can0 5F2#CA00
(1493279506.832977) can0 630#33EA010000
(1493279506.871476) can0 3C0#6A7E1335
(1493279506.871480) can0 1FD#0000000000000000
(1493279506.882155) can0 30B#7F00110000000098
(1493279506.932381) can0 1FD#0000000000000000
(1493279506.932613) can0 30B#7F00110000000098
(1493279506.973860) can0 1BFC38B1#0000000000000000
(1493279506.974094) can0 1BFC38BB#FFFFFFFFFFFFFFFF
(1493279506.974482) can0 1BFC38BA#535553500000001A
(1493279506.974862) can0 1BFC38B9#010296408005A3F4
(1493279506.975113) can0 1BFC38B8#0000000800000000
(1493279506.975200) can0 3C0#6A7E1335
(1493279506.975327) can0 1BFC38B7#8001648425020222
(1493279506.975827) can0 1BFC38B6#00001D2500000000
(1493279506.976197) can0 1BFC38B5#0502FF9202028292
(1493279506.976498) can0 1BFC38B4#00010101001F0003
(1493279506.976868) can0 1BFC38B3#8001648431007766
(1493279506.977157) can0 1BFC38B2#80016484838380F8
(1493279506.982856) can0 30B#7F00110000000098
(1493279506.991750) can0 1FD#0000000000000000
(1493279507.032376) can0 6C7#04051101020000
(1493279507.032606) can0 30B#7F00110000000098
(1493279507.032872) can0 5F2#CA00
(1493279507.051501) can0 1FD#0000000000000000
(1493279507.078868) can0 3C0#6A7E1335
(1493279507.082261) can0 30B#7F00110000000098
(1493279507.111502) can0 1FD#0000000000000000
(1493279507.132330) can0 30B#7F00110000000098
(1493279507.171538) can0 1FD#0000000000000000
(1493279507.182209) can0 30B#7F00110000000098
(1493279507.182591) can0 3C0#6A7E1335
(1493279507.224983) can0 1BFC38B1#0000000000000000
(1493279507.225351) can0 1BFC38BB#FFFFFFFFFFFFFFFF
(1493279507.225595) can0 1BFC38BA#535553500000001A
(1493279507.225990) can0 1BFC38B9#010296408005A3F4
(1493279507.226224) can0 1BFC38B8#0000000800000000
(1493279507.226604) can0 1BFC38B7#8001648425020222
(1493279507.226850) can0 1BFC38B6#00001D28001F0003
(1493279507.227227) can0 1BFC38B5#0502FF9202028292
(1493279507.227480) can0 1BFC38B4#00010101001F0003
(1493279507.227854) can0 1BFC38B3#800164843240CCBB
(1493279507.228113) can0 1BFC38B2#8001648483830060
(1493279507.233009) can0 6C7#04051101020000
(1493279507.233258) can0 1FD#0000000000000000
(1493279507.233644) can0 30B#7F00110000000098
(1493279507.233890) can0 5F2#CA00
(1493279507.233893) can0 643#000200
(1493279507.234258) can0 64E#00B1040000000000
(1493279507.234510) can0 65E#88080325733C0A00
(1493279507.234854) can0 6B8#6D08000000000000
(1493279507.234952) can0 6BC#C2824551324C077E
(1493279507.282259) can0 30B#7F00110000000098
(1493279507.286474) can0 3C0#6A7E1335
(1493279507.291780) can0 1FD#0000000000000000
(1493279507.332654) can0 30B#7F00110000000098
(1493279507.332998) can0 631#34D200
(1493279507.333248) can0 62D#3490205800
(1493279507.341968) can0 6B6#390C1C000C1A
(1493279507.342212) can0 6B7#BEB4000008FF80FE
(1493279507.351637) can0 1FD#0000000000000000
(1493279507.382127) can0 30B#7F00110000000098
(1493279507.390387) can0 3C0#6A7E1335
(1493279507.411504) can0 1FD#0000000000000000
(1493279507.432497) can0 6C7#04051101020000
(1493279507.432874) can0 30B#7F00110000000098
(1493279507.432877) can0 5F2#CA00
(1493279507.471519) can0 1FD#0000000000000000
(1493279507.473899) can0 1BFC38B1#0000000000000000
(1493279507.474258) can0 1BFC38BB#FFFFFFFFFFFFFFFF
(1493279507.474483) can0 1BFC38BA#535553500000001A
(1493279507.474872) can0 1BFC38B9#010296408005A3F4
(1493279507.475122) can0 1BFC38B8#0000000800000000
(1493279507.475497) can0 1BFC38B7#8001648425020222
(1493279507.475882) can0 1BFC38B6#00001D2A001F34A8
(1493279507.476111) can0 1BFC38B5#0502FF9202028292
(1493279507.476372) can0 1BFC38B4#00010101001F0003
(1493279507.476763) can0 1BFC38B3#800164843240CCBB
(1493279507.476991) can0 1BFC38B2#8001648483830060
(1493279507.482857) can0 30B#7F00110000000098
(1493279507.494126) can0 3C0#6A7E1335
(1493279507.532649) can0 1FD#0000000000000000
(1493279507.532871) can0 30B#7F00110000000098
(1493279507.582134) can0 30B#7F00110000000098
(1493279507.591783) can0 1FD#0000000000000000
(1493279507.597866) can0 3C0#6A7E1335
(1493279507.632498) can0 6C7#04051101020000
(1493279507.632732) can0 30B#7F00110000000098
(1493279507.632847) can0 5F2#CA00
(1493279507.651618) can0 1FD#0000000000000000
(1493279507.682126) can0 30B#7F00110000000098
(1493279507.701618) can0 3C0#6A7E1335
(1493279507.711534) can0 1FD#0000000000000000
(1493279507.725026) can0 1BFC38B1#0000000000000000
(1493279507.725402) can0 1BFC38BB#FFFFFFFFFFFFFFFF
(1493279507.725616) can0 1BFC38BA#535553500000001A
(1493279507.726007) can0 1BFC38B9#020096408008FC68
(1493279507.726205) can0 1BFC38B8#0000000800000000
(1493279507.726629) can0 1BFC38B7#800164842502025E
(1493279507.726872) can0 1BFC38B6#00001D2D00000000
(1493279507.727261) can0 1BFC38B5#0502FF9202028292
(1493279507.727501) can0 1BFC38B4#00010101001F0003
(1493279507.727857) can0 1BFC38B3#800164843240CCBB
(1493279507.728133) can0 1BFC38B2#8001648483830060
(1493279507.733026) can0 30B#7F00110000000098
(1493279507.733286) can0 65E#880818F75FA60800
(1493279507.742760) can0 62F#4451000C1B
(1493279507.771654) can0 1FD#0000000000000000
(1493279507.782250) can0 30B#7F00110000000098
(1493279507.805259) can0 3C0#6A7E1335
(1493279507.832497) can0 6C7#04051101020000
(1493279507.832888) can0 1FD#0000000000000000
(1493279507.832988) can0 30B#7F00110000000098
(1493279507.833251) can0 5F2#CA00
(1493279507.882249) can0 30B#7F00110000000098
(1493279507.891919) can0 1FD#0000000000000000
(1493279507.909581) can0 3C0#6A7E1335
(1493279507.932525) can0 30B#7F00110000000098
(1493279507.951649) can0 1FD#0000000000000000
(1493279507.973856) can0 1BFC38B1#0000000000000000
(1493279507.974239) can0 1BFC38BB#FFFFFFFFFFFFFFFF
(1493279507.974494) can0 1BFC38BA#0000000700000014
(1493279507.974856) can0 1BFC38B9#020096408008FC68
(1493279507.975110) can0 1BFC38B8#0000000800000000
(1493279507.975445) can0 1BFC38B7#800164842502025E
(1493279507.975935) can0 1BFC38B6#00001D2F00000000
(1493279507.976079) can0 1BFC38B5#0502FF9202028292
(1493279507.976475) can0 1BFC38B4#00010101001F0003
(1493279507.976839) can0 1BFC38B3#800164843240CCBB
(1493279507.977096) can0 1BFC38B2#8001648483830060
(1493279507.983009) can0 30B#7F00110000000098
(1493279508.011625) can0 1FD#0000000000000000
(1493279508.013593) can0 3C0#6A7E1335
(1493279508.032622) can0 6C7#04051101020000
(1493279508.032993) can0 30B#7F00110000000098
(1493279508.033096) can0 5F2#CA00
(1493279508.071619) can0 1FD#0000000000000000
(1493279508.082247) can0 30B#7F00110000000098
(1493279508.117340) can0 3C0#6A7E1335
(1493279508.132645) can0 1FD#0000000000000000
(1493279508.132877) can0 30B#7F00110000000098
(1493279508.182247) can0 30B#7F00110000000098
(1493279508.191882) can0 1FD#0000000000000000
(1493279508.221245) can0 3C0#6A7E1335
(1493279508.225153) can0 1BFC38B1#0000000000000000
(1493279508.225365) can0 1BFC38BB#FFFFFFFFFFFFFFFF
(1493279508.225758) can0 1BFC38BA#0000000700000014
(1493279508.225967) can0 1BFC38B9#020096408008FC68
(1493279508.226349) can0 1BFC38B8#0000000800000000
(1493279508.226604) can0 1BFC38B7#800164842502025E
(1493279508.226973) can0 1BFC38B6#00001D32001F0003
(1493279508.227350) can0 1BFC38B5#0502FF9202028292
(1493279508.227596) can0 1BFC38B4#00010101001F0003
(1493279508.227981) can0 1BFC38B3#8001648431001100
(1493279508.228257) can0 1BFC38B2#80016484838300B6
(1493279508.233004) can0 6C7#04051101020000
(1493279508.233283) can0 30B#7F00110000000098
(1493279508.233464) can0 5F2#CA00
(1493279508.233591) can0 643#000200
(1493279508.233977) can0 64E#00B1040000000000
(1493279508.234225) can0 65E#880877489E9F0B00
(1493279508.234483) can0 6B8#6D08000000000000
(1493279508.234847) can0 6BC#C2824551324C0786
(1493279508.251622) can0 1FD#0000000000000000
(1493279508.282257) can0 30B#7F00110000000098
(1493279508.311622) can0 1FD#0000000000000000
(1493279508.325202) can0 3C0#6A7E1335
(1493279508.332619) can0 30B#7F00110000000098
(1493279508.342118) can0 6B6#390C1C000C1B
(1493279508.342374) can0 6B7#BEB4000008FF80FE
(1493279508.371620) can0 1FD#0000000000000000
(1493279508.382274) can0 30B#7F00110000000098
(1493279508.428738) can0 3C0#6A7E1335
(1493279508.432401) can0 6C7#04051101020000
(1493279508.432621) can0 1FD#0000000000000000
(1493279508.432865) can0 30B#7F00110000000098
(1493279508.433162) can0 5F2#CA00
(1493279508.473875) can0 1BFC38B1#0000000000000000
(1493279508.474241) can0 1BFC38BB#FFFFFFFFFFFFFFFF
(1493279508.474622) can0 1BFC38BA#0000000700000014
(1493279508.474865) can0 1BFC38B9#020096408008FC68
(1493279508.475205) can0 1BFC38B8#0000000800000000
(1493279508.475453) can0 1BFC38B7#800164842502025E
(1493279508.475851) can0 1BFC38B6#00001D3402028292
(1493279508.476124) can0 1BFC38B5#0502FF9202028292
(1493279508.476522) can0 1BFC38B4#00010101001F0003
(1493279508.476885) can0 1BFC38B3#8001648431001100
(1493279508.477142) can0 1BFC38B2#80016484838300B6
(1493279508.482882) can0 30B#7F00110000000098
(1493279508.491624) can0 1FD#0000000000000000
(1493279508.532234) can0 3C0#6A7E1335
(1493279508.532619) can0 30B#7F00110000000098
(1493279508.551652) can0 1FD#0000000000000000
(1493279508.582247) can0 30B#7F00110000000098
(1493279508.611625) can0 1FD#0000000000000000
(1493279508.632371) can0 6C7#04051101020000
(1493279508.632606) can0 30B#7F00110000000098
(1493279508.632869) can0 5F2#CA00
(1493279508.636119) can0 3C0#6A7E1335
(1493279508.671619) can0 1FD#0000000000000000
(1493279508.682279) can0 30B#7F00110000000098
(1493279508.725153) can0 1BFC38B1#0000000000000000
(1493279508.725353) can0 1BFC38BB#FFFFFFFFFFFFFFFF
(1493279508.725741) can0 1BFC38BA#0000000700000014
(1493279508.725954) can0 1BFC38B9#030296408005A3F4
(1493279508.726371) can0 1BFC38B8#0000000800000000
(1493279508.726616) can0 1BFC38B7#800164842502029A
(1493279508.727003) can0 1BFC38B6#00001D3700000000
(1493279508.727334) can0 1BFC38B5#0502FF9202028292
(1493279508.727585) can0 1BFC38B4#00010101001F0003
(1493279508.728027) can0 1BFC38B3#8001648431001100
(1493279508.728236) can0 1BFC38B2#80016484838300B6
(1493279508.733120) can0 1FD#0000000000000000
(1493279508.733374) can0 30B#7F00110000000098
(1493279508.733621) can0 65E#88085E65880C0700
(1493279508.739702) can0 3C0#6A7E1335
(1493279508.742775) can0 62F#4451000C1C
(1493279508.782282) can0 30B#7F00110000000098
(1493279508.791755) can0 1FD#0000000000000000
(1493279508.832493) can0 6C7#04051101020000
(1493279508.832750) can0 30B#7F00110000000098
(1493279508.832825) can0 5F2#CA00
(1493279508.833108) can0 630#33EB0103010000
(1493279508.843571) can0 3C0#6A7E1335
(1493279508.851606) can0 1FD#0000000000000000
(1493279508.882259) can0 30B#7F00110000000098
(1493279508.911631) can0 1FD#0000000000000000
(1493279508.932524) can0 30B#7F00110000000098
(1493279508.947232) can0 3C0#6A7E1335
(1493279508.971619) can0 1FD#0000000000000000
(1493279508.974032) can0 1BFC38B1#0000000000000000
(1493279508.974241) can0 1BFC38BB#FFFFFFFFFFFFFFFF
(1493279508.974629) can0 1BFC38BA#535553500000001A
(1493279508.974850) can0 1BFC38B9#030296408005A3F4
(1493279508.975222) can0 1BFC38B8#0000000800000000
(1493279508.975471) can0 1BFC38B7#800164842502029A
(1493279508.975846) can0 1BFC38B6#00001D3900000000
(1493279508.976142) can0 1BFC38B5#0502FF9202028292
(1493279508.976520) can0 1BFC38B4#00010101001F0003
(1493279508.976926) can0 1BFC38B3#8001648431001100
(1493279508.977114) can0 1BFC38B2#80016484838300B6
(1493279508.982957) can0 30B#7F00110000000098
(1493279509.032373) can0 6C7#04051101020000
(1493279509.032746) can0 1FD#0000000000000000
(1493279509.032995) can0 30B#7F00110000000098
(1493279509.033098) can0 5F2#CA00
(1493279509.050849) can0 3C0#6A7E1335
(1493279509.082246) can0 30B#7F00110000000098
(1493279509.091997) can0 1FD#0000000000000000
(1493279509.132456) can0 30B#7F00110000000098
(1493279509.151620) can0 1FD#0000000000000000
(1493279509.154482) can0 3C0#6A7E1335
(1493279509.182248) can0 30B#7F00110000000098
(1493279509.211638) can0 1FD#0000000000000000
(1493279509.225098) can0 1BFC38B1#0000000000000000
(1493279509.225393) can0 1BFC38BB#FFFFFFFFFFFFFFFF
(1493279509.225773) can0 1BFC38BA#535553500000001A
(1493279509.226152) can0 1BFC38B9#030296408005A3F4
(1493279509.226353) can0 1BFC38B8#0000000800000000
(1493279509.226738) can0 1BFC38B7#800164842502029A
(1493279509.226996) can0 1BFC38B6#00001D3C001F0003
(1493279509.227354) can0 1BFC38B5#0502FF9202028292
(1493279509.227609) can0 1BFC38B4#00010101001F0003
(1493279509.228003) can0 1BFC38B3#8001648431003322
(1493279509.228202) can0 1BFC38B2#800164848383802A
(1493279509.233000) can0 6C7#04051101020000
(1493279509.233448) can0 30B#7F00110000000098
(1493279509.233624) can0 5F2#CA00
(1493279509.233626) can0 643#000200
(1493279509.234021) can0 64E#00B1040000000000
(1493279509.234219) can0 65E#8808C479AABD0800
(1493279509.234467) can0 6B8#6D08000000000000
(1493279509.234842) can0 6BC#C2824551324C078E
(1493279509.258193) can0 3C0#6A7E1335
(1493279509.271589) can0 1FD#0000000000000000
(1493279509.282245) can0 30B#7F00110000000098
(1493279509.332704) can0 1FD#0000000000000000
(1493279509.332953) can0 30B#7F00110000000098
(1493279509.333203) can0 62D#3491024501
(1493279509.333316) can0 631#34D300
(1493279509.341880) can0 6B6#390C1C000C1C
(1493279509.342262) can0 6B7#BEB4000008FF80FE
(1493279509.361998) can0 3C0#6A7E1335
(1493279509.382276) can0 30B#7F00110000000098
(1493279509.391874) can0 1FD#0000000000000000
(1493279509.432483) can0 6C7#04051101020000
(1493279509.432859) can0 30B#7F00110000000098
(1493279509.432976) can0 5F2#CA00
(1493279509.451654) can0 1FD#0000000000000000
(1493279509.465736) can0 3C0#6A7E1335
(1493279509.474020) can0 1BFC38B1#0000000000000000
(1493279509.474234) can0 1BFC38BB#FFFFFFFFFFFFFFFF
(1493279509.474598) can0 1BFC38BA#535553500000001A
(1493279509.474854) can0 1BFC38B9#030296408005A3F4
(1493279509.475222) can0 1BFC38B8#0000000800000000
(1493279509.475472) can0 1BFC38B7#800164842502029A
(1493279509.475849) can0 1BFC38B6#00001D3E001F34A8
(1493279509.476133) can0 1BFC38B5#0502FF9202028292
(1493279509.476518) can0 1BFC38B4#00010101001F0003
(1493279509.476878) can0 1BFC38B3#8001648431003322
(1493279509.477132) can0 1BFC38B2#800164848383802A
(1493279509.483023) can0 30B#7F00110000000098
(1493279509.511636) can0 1FD#0000000000000000
(1493279509.532748) can0 30B#7F00110000000098
(1493279509.569580) can0 3C0#6A7E1335
(1493279509.571718) can0 1FD#0000000000000000
(1493279509.582252) can0 30B#7F00110000000098
(1493279509.632644) can0 6C7#04051101020000
(1493279509.632867) can0 1FD#0000000000000000
(1493279509.633119) can0 30B#7F00110000000098
(1493279509.633347) can0 5F2#CA00
(1493279509.673703) can0 3C0#6A7E1335
(1493279509.682325) can0 30B#7F00110000000098
(1493279509.691884) can0 1FD#0000000000000000
(1493279509.725143) can0 1BFC38B1#0000000000000000
(1493279509.725515) can0 1BFC38BB#FFFFFFFFFFFFFFFF
(1493279509.725867) can0 1BFC38BA#535553500000001A
(1493279509.726104) can0 1BFC38B9#040096408008FC68
(1493279509.726379) can0 1BFC38B8#0000000800000000
(1493279509.726724) can0 1BFC38B7#80016484250202D6
(1493279509.726973) can0 1BFC38B6#00001D4100000000
(1493279509.727349) can0 1BFC38B5#0502FF9202028292
(1493279509.727747) can0 1BFC38B4#00010101001F0003
(1493279509.727955) can0 1BFC38B3#8001648431003322
(1493279509.728224) can0 1BFC38B2#800164848383802A
(1493279509.733102) can0 30B#7F00110000000098
(1493279509.733318) can0 65E#8808E2B672870500
(1493279509.742733) can0 62F#4451000C1D
(1493279509.751639) can0 1FD#0000000000000000
(1493279509.777369) can0 3C0#6A7E1335
(1493279509.782400) can0 30B#7F00110000000098
(1493279509.811641) can0 1FD#0000000000000000
(1493279509.832628) can0 6C7#04051101020000
(1493279509.832866) can0 30B#7F00110000000098
(1493279509.833110) can0 5F2#CB00
(1493279509.871742) can0 1FD#0000000000000000
(1493279509.881318) can0 3C0#6A7E1335
(1493279509.882329) can0 30B#7F00110000000098
(1493279509.932629) can0 1FD#0000000000000000
(1493279509.932836) can0 30B#7F00110000000098
(1493279509.974004) can0 1BFC38B1#0000000000000000
(1493279509.974367) can0 1BFC38BB#FFFFFFFFFFFFFFFF
(1493279509.974570) can0 1BFC38BA#0000000700000014
(1493279509.974991) can0 1BFC38B9#040096408008FC68
(1493279509.975195) can0 1BFC38B8#0000000800000000
(1493279509.975580) can0 1BFC38B7#80016484250202D6
(1493279509.975825) can0 1BFC38B6#00001D4300000000
(1493279509.976252) can0 1BFC38B5#0502FF9202028292
(1493279509.976501) can0 1BFC38B4#00010101001F0003
(1493279509.976879) can0 1BFC38B3#8001648431003322
(1493279509.977130) can0 1BFC38B2#800164848383802A
(1493279509.982985) can0 30B#7F00110000000098
(1493279509.985077) can0 3C0#6A7E1335
(1493279509.991908) can0 1FD#0000000000000000
(1493279510.032630) can0 6C7#04051101020000
(1493279510.032825) can0 30B#7F00110000000098
(1493279510.033110) can0 5F2#CB00
(1493279510.051755) can0 1FD#0000000000000000
(1493279510.082400) can0 30B#7F00110000000098
(1493279510.088828) can0 3C0#6A7E1335
(1493279510.111787) can0 1FD#0000000000000000
(1493279510.132744) can0 30B#7F00110000000098
(1493279510.171713) can0 1FD#0000000000000000
(1493279510.182351) can0 30B#7F00110000000098
(1493279510.192869) can0 3C0#6A7E1335
(1493279510.225126) can0 1BFC38B1#0000000000000000
(1493279510.225509) can0 1BFC38BB#FFFFFFFFFFFFFFFF
(1493279510.225875) can0 1BFC38BA#0000000700000014
(1493279510.226101) can0 1BFC38B9#040096408008FC68
(1493279510.226471) can0 1BFC38B8#0000000800000000
(1493279510.226732) can0 1BFC38B7#80016484250202D6
(1493279510.226974) can0 1BFC38B6#00001D46001F0003
(1493279510.227347) can0 1BFC38B5#0502FF9202028292
(1493279510.227719) can0 1BFC38B4#00010101001F0003
(1493279510.227959) can0 1BFC38B3#8001648432408877
(1493279510.228206) can0 1BFC38B2#8001648483830072
(1493279510.233124) can0 6C7#04051101020000
(1493279510.233380) can0 1FD#0000000000000000
(1493279510.233641) can0 30B#7F00110000000098
(1493279510.233854) can0 5F2#CB00
(1493279510.233959) can0 643#000200
(1493279510.234325) can0 64E#00B1040000000000
(1493279510.234609) can0 65E#8808A3C69EAF0700
(1493279510.234856) can0 6B8#6D08000000000000
(1493279510.235094) can0 6BC#C2824551324C0792
(1493279510.282899) can0 30B#7F00110000000098
(1493279510.291992) can0 1FD#0000000000000000
(1493279510.296823) can0 3C0#6A7E1335
(1493279510.333257) can0 30B#7F00110000000098
(1493279510.341765) can0 6B6#390C1C000C1D
(1493279510.341990) can0 6B7#BEB4000008FF80FE
(1493279510.351704) can0 1FD#0000000000000000
(1493279510.382274) can0 30B#7F00110000000098
(1493279510.400961) can0 3C0#6A7E1335
(1493279510.411862) can0 1FD#0000000000000000
(1493279510.433139) can0 6C7#04051101020000
(1493279510.433493) can0 30B#7F00110000000098
(1493279510.433607) can0 5F2#CB00
(1493279510.471784) can0 1FD#0000000000000000
(1493279510.474377) can0 1BFC38B1#0000000000000000
(1493279510.474596) can0 1BFC38BA#0000000700000014
(1493279510.474974) can0 1BFC38BB#FFFFFFFFFFFFFFFF
(1493279510.475347) can0 1BFC38B9#040096408008FC68
(1493279510.475594) can0 1BFC38B8#0000000800000000
(1493279510.475988) can0 1BFC38B7#80016484250202D6
(1493279510.476251) can0 1BFC38B6#00001D4802048292
(1493279510.476638) can0 1BFC38B5#0502FF9202048292
(1493279510.476871) can0 1BFC38B4#00010101001F0003
(1493279510.477262) can0 1BFC38B3#8001648432408877
(1493279510.477471) can0 1BFC38B2#8001648483830072
(1493279510.482943) can0 30B#7F00110000000098
(1493279510.504622) can0 3C0#6A7E1335
(1493279510.532865) can0 1FD#0000000000000000
(1493279510.533116) can0 30B#7F00110000000098
(1493279510.582365) can0 30B#7F00110000000098
(1493279510.591990) can0 1FD#0000000000000000
(1493279510.608339) can0 3C0#6A7E1335
(1493279510.632492) can0 6C7#04051101020000
(1493279510.632862) can0 30B#7F00110000000098
(1493279510.632991) can0 5F2#CB00
(1493279510.651735) can0 1FD#0000000000000000
(1493279510.682376) can0 30B#7F00110000000098
(1493279510.711715) can0 1FD#0000000000000000
(1493279510.712609) can0 3C0#6A7E1335
(1493279510.725226) can0 1BFC38B1#0000000000000000
(1493279510.725614) can0 1BFC38BB#FFFFFFFFFFFFFFFF
(1493279510.725969) can0 1BFC38BA#0000000700000014
(1493279510.726230) can0 1BFC38B9#050296408005A3F4
(1493279510.726594) can0 1BFC38B8#0000000800000000
(1493279510.726836) can0 1BFC38B7#8001648425020212
(1493279510.727217) can0 1BFC38B6#00001D4B00000000
(1493279510.727467) can0 1BFC38B5#0502FF9202048292
(1493279510.727843) can0 1BFC38B4#00010101001F0003
(1493279510.728143) can0 1BFC38B3#8001648432408877
(1493279510.728513) can0 1BFC38B2#8001648483830072
(1493279510.733392) can0 30B#7F00110000000098
(1493279510.733619) can0 65E#8808B52679530500
(1493279510.742739) can0 62F#4451000C1E
(1493279510.771742) can0 1FD#0000000000000000
(1493279510.782367) can0 30B#7F00110000000098
(1493279510.816356) can0 3C0#6A7E1335
(1493279510.832626) can0 6C7#04051101020000
(1493279510.832984) can0 1FD#0000000000000000
(1493279510.833233) can0 30B#7F00110000000098
(1493279510.833367) can0 5F2#CB00
(1493279510.833693) can0 630#33C203000F000403
(1493279510.882380) can0 30B#7F00110000000098
(1493279510.892008) can0 1FD#0000000000000000
(1493279510.920453) can0 3C0#6A7E1335
(1493279510.932744) can0 30B#7F00110000000098
(1493279510.951760) can0 1FD#0000000000000000
(1493279510.974111) can0 1BFC38B1#0000000000000000
(1493279510.974330) can0 1BFC38BB#FFFFFFFFFFFFFFFF
(1493279510.974720) can0 1BFC38BA#535553500000001A
(1493279510.974984) can0 1BFC38B9#050296408005A3F4
(1493279510.975345) can0 1BFC38B8#0000000800000000
(1493279510.975589) can0 1BFC38B7#8001648425020212
(1493279510.975954) can0 1BFC38B6#00001D4D00000000
(1493279510.976219) can0 1BFC38B5#0502FF9202048292
(1493279510.976592) can0 1BFC38B4#00010101001F0003
(1493279510.976842) can0 1BFC38B3#8001648432408877
(1493279510.977217) can0 1BFC38B2#8001648483830072
(1493279510.983129) can0 30B#7F00110000000098
(1493279511.011778) can0 1FD#0000000000000000
(1493279511.024745) can0 3C0#6A7E1335
(1493279511.032645) can0 6C7#04051101020000
(1493279511.032841) can0 30B#7F00110000000098
(1493279511.032958) can0 5F2#CB00
(1493279511.071755) can0 1FD#0000000000000000
(1493279511.082328) can0 30B#7F00110000000098
(1493279511.128610) can0 3C0#6A7E1335
(1493279511.132649) can0 1FD#0000000000000000
(1493279511.133002) can0 30B#7F00110000000098
(1493279511.182376) can0 30B#7F00110000000098
(1493279511.192108) can0 1FD#0000000000000000
(1493279511.225225) can0 1BFC38B1#0000000000000000
(1493279511.225609) can0 1BFC38BB#FFFFFFFFFFFFFFFF
(1493279511.225875) can0 1BFC38BA#535553500000001A
(1493279511.226249) can0 1BFC38B9#050296408005A3F4
(1493279511.226486) can0 1BFC38B8#0000000800000000
(1493279511.226875) can0 1BFC38B7#8001648425020212
(1493279511.227108) can0 1BFC38B6#00001D50001F0003
(1493279511.227567) can0 1BFC38B5#0502FF9202048292
(1493279511.227908) can0 1BFC38B4#00010101001F0003
(1493279511.228079) can0 1BFC38B3#800164843100DDCC
(1493279511.228325) can0 1BFC38B2#80016484838300B8
(1493279511.232613) can0 3C0#6A7E1335
(1493279511.233188) can0 6C7#04051101020000
(1493279511.233449) can0 30B#7F00110000000098
(1493279511.233570) can0 5F2#CB00
(1493279511.233823) can0 643#000200
(1493279511.234070) can0 64E#00B1040000000000
(1493279511.234450) can0 65E#8808F85359BC0800
(1493279511.234715) can0 6B8#6D08000000000000
(1493279511.234968) can0 6BC#C2824551324C0798
(1493279511.251754) can0 1FD#0000000000000000
(1493279511.282366) can0 30B#7F00110000000098
(1493279511.311741) can0 1FD#0000000000000000
(1493279511.332740) can0 30B#7F00110000000098
(1493279511.332959) can0 631#34D400
(1493279511.333187) can0 62D#349220C900
(1493279511.336442) can0 3C0#6A7E1335
(1493279511.342114) can0 6B6#390C1C000C1E
(1493279511.342356) can0 6B7#BEB4000008FF80FE
(1493279511.371877) can0 1FD#0000000000000000
(1493279511.382395) can0 30B#7F00110000000098
(1493279511.432488) can0 6C7#04051101020000
(1493279511.432876) can0 1FD#0000000000000000
(1493279511.433097) can0 30B#7F00110000000098
(1493279511.433231) can0 5F2#CB00
(1493279511.439827) can0 3C0#6A7E1335
(1493279511.474137) can0 1BFC38B1#0000000000000000
(1493279511.474348) can0 1BFC38BB#FFFFFFFFFFFFFFFF
(1493279511.474764) can0 1BFC38BA#535553500000001A
(1493279511.474954) can0 1BFC38B9#050296408005A3F4
(1493279511.475376) can0 1BFC38B8#0000000800000000
(1493279511.475576) can0 1BFC38B7#8001648425020212
(1493279511.476063) can0 1BFC38B6#00001D52001F34A8
(1493279511.476227) can0 1BFC38B5#0502FF9202048292
(1493279511.476639) can0 1BFC38B4#00010101001F0003
(1493279511.477030) can0 1BFC38B3#800164843100DDCC
(1493279511.477222) can0 1BFC38B2#80016484838300B8
(1493279511.483149) can0 30B#7F00110000000098
(1493279511.491899) can0 1FD#0000000000000000
(1493279511.532610) can0 30B#7F00110000000098
(1493279511.543011) can0 3C0#6A7E1335
(1493279511.551836) can0 1FD#0000000000000000
(1493279511.557589) can0 3E0#7455D7629F4E3C72
(1493279511.582326) can0 30B#7F00110000000098
(1493279511.607914) can0 378#2557673E7A95AE03
(1493279511.611841) can0 1FD#0000000000000000
(1493279511.632513) can0 6C7#04051101020000
(1493279511.632863) can0 30B#7F00110000000098
(1493279511.632972) can0 5F2#CB00
(1493279511.646953) can0 3C0#6A7E1335
(1493279511.658033) can0 04E#32E23C650EA54A73
(1493279511.671861) can0 1FD#0000000000000000
(1493279511.682369) can0 30B#7F00110000000098
(1493279511.708127) can0 257#
(1493279511.725239) can0 1BFC38B1#0000000000000000
(1493279511.725608) can0 1BFC38BB#FFFFFFFFFFFFFFFF
(1493279511.725845) can0 1BFC38BA#535553500000001A
(1493279511.726223) can0 1BFC38B9#060096408008FC68
(1493279511.726491) can0 1BFC38B8#0000000800000000
(1493279511.726870) can0 1BFC38B7#800164842502024E
(1493279511.727073) can0 1BFC38B6#00001D5500000000
(1493279511.727447) can0 1BFC38B5#0502FF9202048292
(1493279511.727814) can0 1BFC38B4#00010101001F0003
(1493279511.728132) can0 1BFC38B3#800164843100DDCC
(1493279511.728380) can0 1BFC38B2#80016484838300B8
(1493279511.733251) can0 1FD#0000000000000000
(1493279511.733636) can0 30B#7F00110000000098
(1493279511.733862) can0 65E#880812B460240700
(1493279511.743004) can0 62F#4451000C1F
(1493279511.750821) can0 3C0#6A7E1335
(1493279511.758239) can0 3DD#C32A621DCB3EDB63
(1493279511.782373) can0 30B#7F00110000000098
(1493279511.791893) can0 1FD#0000000000000000
(1493279511.808368) can0 0DB#
(1493279511.832612) can0 6C7#04051101020000
(1493279511.833003) can0 30B#7F00110000000098
(1493279511.833006) can0 5F2#CB00
(1493279511.851861) can0 1FD#0000000000000000
(1493279511.854357) can0 3C0#6A7E1335
(1493279511.858617) can0 6D4#BEFA
(1493279511.882402) can0 30B#7F00110000000098
(1493279511.908843) can0 093#BC5F
(1493279511.911897) can0 1FD#0000000000000000
(1493279511.932625) can0 30B#7F00110000000098
(1493279511.958112) can0 3C0#6A7E1335
(1493279511.958828) can0 2EB#
(1493279511.971860) can0 1FD#0000000000000000
(1493279511.974109) can0 1BFC38B1#0000000000000000
(1493279511.974499) can0 1BFC38BB#FFFFFFFFFFFFFFFF
(1493279511.974728) can0 1BFC38BA#0000000700000014
(1493279511.975093) can0 1BFC38B9#060096408008FC68
(1493279511.975338) can0 1BFC38B8#0000000800000000
(1493279511.975715) can0 1BFC38B7#800164842502024E
(1493279511.975947) can0 1BFC38B6#00001D5700000000
(1493279511.976391) can0 1BFC38B5#0502FF9202048292
(1493279511.976607) can0 1BFC38B4#00010101001F0003
(1493279511.976985) can0 1BFC38B3#800164843100DDCC
(1493279511.977264) can0 1BFC38B2#80016484838300B8
(1493279511.983153) can0 30B#7F00110000000098
(1493279512.009127) can0 5BA#DD33002208961B2B
(1493279512.032738) can0 6C7#04051101020000
(1493279512.032969) can0 1FD#0000000000000000
(1493279512.033364) can0 30B#7F00110000000098
(1493279512.033472) can0 5F2#CB00
(1493279512.059254) can0 3B6#
(1493279512.061736) can0 3C0#6A7E1335
(1493279512.082363) can0 30B#7F00110000000098
(1493279512.092014) can0 1FD#0000000000000000
(1493279512.109505) can0 2D0#60FB1264AD3E8C6C
(1493279512.132612) can0 30B#7F00110000000098
(1493279512.151852) can0 1FD#0000000000000000
(1493279512.159605) can0 1E8#787D67
(1493279512.165361) can0 3C0#6A7E1335
(1493279512.182486) can0 30B#7F00110000000098
(1493279512.209614) can0 4D4#D5EE9C59A8334730
(1493279512.211860) can0 1FD#0000000000000000
(1493279512.225252) can0 1BFC38B1#0000000000000000
(1493279512.225591) can0 1BFC38BB#FFFFFFFFFFFFFFFF
(1493279512.226001) can0 1BFC38BA#0000000700000014
(1493279512.226189) can0 1BFC38B9#060096408008FC68
(1493279512.226604) can0 1BFC38B8#0000000800000000
(1493279512.226827) can0 1BFC38B7#800164842502024E
(1493279512.227203) can0 1BFC38B6#00001D5A001F0003
(1493279512.227446) can0 1BFC38B5#0502FF9202048292
(1493279512.227822) can0 1BFC38B4#00010101001F0003
(1493279512.228243) can0 1BFC38B3#800164843100FFEE
(1493279512.228439) can0 1BFC38B2#800164848383803C
(1493279512.233243) can0 6C7#04051101020000
(1493279512.233439) can0 30B#7F00110000000098
(1493279512.233728) can0 5F2#CB00
(1493279512.233814) can0 643#000200
(1493279512.234079) can0 64E#00B1040000000000
(1493279512.234474) can0 65E#88086D456F430800
(1493279512.234704) can0 6B8#6D08000000000000
(1493279512.234950) can0 6BC#C2824551324C0799
(1493279512.259891) can0 18E#0861C3
(1493279512.269235) can0 3C0#6A7E1335
(1493279512.271885) can0 1FD#0000000000000000
(1493279512.282486) can0 30B#7F00110000000098
(1493279512.309994) can0 7F6#95069447
(1493279512.332894) can0 1FD#0000000000000000
(1493279512.333110) can0 30B#7F00110000000098
(1493279512.342241) can0 6B6#390C1C000C1F
(1493279512.342650) can0 6B7#BEB4000008FF80FE
(1493279512.360125) can0 5F5#45094364AFF3B633
(1493279512.372726) can0 3C0#6A7E1335
(1493279512.382519) can0 30B#7F00110000000098
(1493279512.392113) can0 1FD#0000000000000000
(1493279512.410254) can0 3E1#B789
(1493279512.432499) can0 6C7#04051101020000
(1493279512.432861) can0 30B#7F00110000000098
(1493279512.432978) can0 5F2#CB00
(1493279512.451888) can0 1FD#0000000000000000
(1493279512.460386) can0 332#A69D487302365511
(1493279512.474110) can0 1BFC38B1#0000000000000000
(1493279512.474478) can0 1BFC38BB#FFFFFFFFFFFFFFFF
(1493279512.474841) can0 1BFC38BA#0000000700000014
(1493279512.475067) can0 1BFC38B9#060096408008FC68
(1493279512.475444) can0 1BFC38B8#0000000800000000
(1493279512.475696) can0 1BFC38B7#800164842502024E
(1493279512.475962) can0 1BFC38B6#00001D5C02028292
(1493279512.476317) can0 1BFC38B5#0502FF9202028292
(1493279512.476439) can0 3C0#6A7E1335
(1493279512.476700) can0 1BFC38B4#00010101001F0003
(1493279512.477071) can0 1BFC38B3#800164843100FFEE
(1493279512.477452) can0 1BFC38B2#800164848383803C
(1493279512.483118) can0 30B#7F00110000000098
(1493279512.510485) can0 09B#AF74E17D845A
(1493279512.511858) can0 1FD#0000000000000000
(1493279512.532738) can0 30B#7F00110000000098
(1493279512.560748) can0 72A#47AD0200FECBC4
(1493279512.571856) can0 1FD#0000000000000000
(1493279512.579965) can0 3C0#6A7E1335
(1493279512.582516) can0 30B#7F00110000000098
(1493279512.610861) can0 193#A6FF0B7221AB1E3B
(1493279512.632768) can0 6C7#04051101020000
(1493279512.632981) can0 1FD#0000000000000000
(1493279512.633360) can0 30B#7F00110000000098
(1493279512.633472) can0 5F2#CB00
(1493279512.660992) can0 5B0#432D880AA6758564
(1493279512.682473) can0 30B#7F00110000000098
(1493279512.683445) can0 3C0#6A7E1335
(1493279512.692133) can0 1FD#0000000000000000
(1493279512.711082) can0 173#88E0762A6897C502
(1493279512.725244) can0 1BFC38B1#0000000000000000
(1493279512.725612) can0 1BFC38BB#FFFFFFFFFFFFFFFF
(1493279512.725988) can0 1BFC38BA#0000000700000014
(1493279512.726225) can0 1BFC38B9#070296408005A3F4
(1493279512.726606) can0 1BFC38B8#0000000800000000
(1493279512.726825) can0 1BFC38B7#800164842502028A
(1493279512.727248) can0 1BFC38B6#00001D5F00000000
(1493279512.727471) can0 1BFC38B5#0502FF9202028292
(1493279512.727836) can0 1BFC38B4#00010101001F0003
(1493279512.728115) can0 1BFC38B3#800164843100FFEE
(1493279512.728492) can0 1BFC38B2#800164848383803C
(1493279512.733266) can0 30B#7F00110000000098
(1493279512.733648) can0 65E#880848288E7E0800
(1493279512.742859) can0 62F#4451000C20
(1493279512.751860) can0 1FD#0000000000000000
(1493279512.761234) can0 581#178B7C366311E05E
(1493279512.782892) can0 30B#7F00110000000098
(1493279512.787205) can0 3C0#6A7E1335
(1493279512.793487) can0 64E#00A1090000000000
(1493279512.811357) can0 6EF#FB080326227A7D22
(1493279512.811989) can0 1FD#0000000000000000
(1493279512.832985) can0 6C7#04051101020000
(1493279512.833216) can0 30B#7F00110000000098
(1493279512.833328) can0 5F2#CB00
(1493279512.833636) can0 630#33C37803E0080272
(1493279512.861648) can0 19D#24
(1493279512.871858) can0 1FD#0000000000000000
(1493279512.883266) can0 30B#7F00110000000098
(1493279512.890595) can0 3C0#6A7E1335
(1493279512.911774) can0 7A7#BCE4A473
(1493279512.933360) can0 1FD#0000000000000000
(1493279512.933612) can0 30B#7F00110000000098
(1493279512.961859) can0 6FB#CFCA3C0B
(1493279512.974269) can0 1BFC38B1#0000000000000000
(1493279512.974485) can0 1BFC38BB#FFFFFFFFFFFFFFFF
(1493279512.974907) can0 1BFC38BA#535553500000001A
(1493279512.975107) can0 1BFC38B9#070296408005A3F4
(1493279512.975484) can0 1BFC38B8#0000000800000000
(1493279512.975886) can0 1BFC38B7#800164842502028A
(1493279512.976109) can0 1BFC38B6#00001D6100000000
(1493279512.976485) can0 1BFC38B5#0502FF9202028292
(1493279512.976733) can0 1BFC38B4#00010101001F0003
(1493279512.977091) can0 1BFC38B3#800164843100FFEE
(1493279512.977347) can0 1BFC38B2#800164848383803C
(1493279512.983374) can0 30B#7F00110000000098
(1493279512.992811) can0 1FD#0000000000000000
(1493279512.994110) can0 3C0#6A7E1335
(1493279513.012109) can0 621#B0638771D1B3
(1493279513.032858) can0 6C7#04051101020000
(1493279513.033110) can0 30B#7F00110000000098
(1493279513.033225) can0 5F2#CB00
(1493279513.051860) can0 1FD#0000000000000000
(1493279513.062377) can0 324#78291C
(1493279513.082614) can0 30B#7F00110000000098
(1493279513.097604) can0 3C0#6A7E1335
(1493279513.111866) can0 1FD#0000000000000000
(1493279513.112386) can0 4CC#
(1493279513.132890) can0 30B#7F00110000000098
(1493279513.162627) can0 3CD#B0E32231BC1A
(1493279513.171856) can0 1FD#0000000000000000
(1493279513.182748) can0 30B#7F00110000000098
(1493279513.200845) can0 3C0#6A7E1335
(1493279513.212788) can0 3E5#DE94C70E825DA110
(1493279513.225362) can0 1BFC38B1#0000000000000000
(1493279513.225636) can0 1BFC38BB#FFFFFFFFFFFFFFFF
(1493279513.225982) can0 1BFC38BA#535553500000001A
(1493279513.226195) can0 1BFC38B9#070296408005A3F4
(1493279513.226622) can0 1BFC38B8#0000000800000000
(1493279513.226962) can0 1BFC38B7#800164842502028A
(1493279513.227223) can0 1BFC38B6#00001D640000A109
(1493279513.227469) can0 1BFC38B5#0502FF9202028292
(1493279513.227840) can0 1BFC38B4#110F01010000A109
(1493279513.228118) can0 1BFC38B3#8001648432404433
(1493279513.228487) can0 1BFC38B2#8001648483830064
(1493279513.233515) can0 6C7#04051101020000
(1493279513.233750) can0 1FD#0000000000000000
(1493279513.233993) can0 30B#7F00110000000098
(1493279513.234078) can0 5F2#CB00
(1493279513.234335) can0 643#000200
(1493279513.234588) can0 64E#00A1090000000000
(1493279513.234826) can0 65E#880875D756D30600
(1493279513.235212) can0 6B8#6D08000000000000
(1493279513.235476) can0 6BC#C2824551324C079D
(1493279513.262860) can0 34C#BAE7AA
(1493279513.283369) can0 30B#7F00110000000098
(1493279513.292264) can0 1FD#0000000000000000
(1493279513.304352) can0 3C0#6A7E1335
(1493279513.313064) can0 1D7#C5D1902AD2804B
(1493279513.333855) can0 30B#7F00110000000098
(1493279513.334357) can0 631#34D500
(1493279513.334596) can0 62D#349302E900
(1493279513.341869) can0 6B6#390C1C000C20
(1493279513.342123) can0 6B7#BEB4000008FF80FE
(1493279513.351858) can0 1FD#0000000000000000
(1493279513.363118) can0 67B#6139B42A9C
(1493279513.382376) can0 30B#7F00110000000098
(1493279513.408083) can0 3C0#6A7E1335
(1493279513.412018) can0 1FD#0000000000000000
(1493279513.413289) can0 70B#6D40
(1493279513.433609) can0 6C7#04051101020000
(1493279513.433859) can0 30B#7F00110000000098
(1493279513.434108) can0 5F2#CA00
(1493279513.463521) can0 605#C7DEB646D1
(1493279513.471859) can0 1FD#0000000000000000
(1493279513.474484) can0 1BFC38B1#0000000000000000
(1493279513.474859) can0 1BFC38BA#535553500000001A
(1493279513.475096) can0 1BFC38BB#FFFFFFFFFFFFFFFF
(1493279513.475480) can0 1BFC38B9#070296408005A3F4
(1493279513.475859) can0 1BFC38B8#0000000800000000
(1493279513.476135) can0 1BFC38B7#800164842502028A
(1493279513.476363) can0 1BFC38B6#00001D66000034A8
(1493279513.476747) can0 1BFC38B5#0502FF9202028292
(1493279513.476999) can0 1BFC38B4#110F01010000A109
(1493279513.477363) can0 1BFC38B3#8001648432404433
(1493279513.477616) can0 1BFC38B2#8001648483830064
(1493279513.483251) can0 30B#7F00110000000098
(1493279513.511826) can0 3C0#6A7E1335
(1493279513.513612) can0 3E5#1FC5B938B267
(1493279513.533485) can0 1FD#0000000000000000
(1493279513.533885) can0 30B#7F00110000000098
(1493279513.563857) can0 1DD#6F821B18C2B5E85F
(1493279513.582733) can0 30B#7F00110000000098
(1493279513.592362) can0 1FD#0000000000000000
(1493279513.613845) can0 57B#44138A70C7287431
(1493279513.616316) can0 3C0#6A7E1335
(1493279513.633019) can0 6C7#04051101020000
(1493279513.633370) can0 30B#7F00110000000098
(1493279513.633471) can0 5F2#CA00
(1493279513.651857) can0 1FD#0000000000000000
(1493279513.664148) can0 450#BBFB8C1227C6CB5D
(1493279513.682759) can0 30B#7F00110000000098
(1493279513.711861) can0 1FD#0000000000000000
(1493279513.714216) can0 775#FA
(1493279513.720338) can0 3C0#6A7E1335
(1493279513.725484) can0 1BFC38B1#0000000000000000
(1493279513.725855) can0 1BFC38BB#FFFFFFFFFFFFFFFF
(1493279513.726091) can0 1BFC38BA#535553500000001A
(1493279513.726335) can0 1BFC38B9#000096408008FC68
(1493279513.726712) can0 1BFC38B8#0000000800000000
(1493279513.727084) can0 1BFC38B7#80016484250202C3
(1493279513.727335) can0 1BFC38B6#00001D6900000000
(1493279513.727712) can0 1BFC38B5#0502FF9202028292
(1493279513.727949) can0 1BFC38B4#110F01010000A109
(1493279513.728367) can0 1BFC38B3#8001648432404433
(1493279513.728633) can0 1BFC38B2#8001648483830064
(1493279513.731991) can0 30B#7F00110000000098
(1493279513.732213) can0 65E#88085348778A0500
(1493279513.743011) can0 62F#4451000C21
(1493279513.764359) can0 216#8CB2BA7E21D10126
(1493279513.771856) can0 1FD#0000000000000000
(1493279513.782729) can0 30B#7F00110000000098
(1493279513.814626) can0 56D#5063303D734B5231
(1493279513.823820) can0 3C0#6A7E1335
(1493279513.833018) can0 6C7#04051101020000
(1493279513.833234) can0 1FD#0000000000000000
(1493279513.833449) can0 30B#7F00110000000098
(1493279513.833727) can0 5F2#C900
(1493279513.864792) can0 4DF#443EC917C5D005
(1493279513.882736) can0 30B#7F00110000000098
(1493279513.892139) can0 1FD#0000000000000000
(1493279513.914891) can0 4DE#7738D7
(1493279513.927820) can0 3C0#6A7E1335
(1493279513.932853) can0 30B#7F00110000000098
(1493279513.951858) can0 1FD#0000000000000000
(1493279513.965066) can0 433#7DECA33EAE41
(1493279513.974231) can0 1BFC38B1#0000000000000000
(1493279513.974607) can0 1BFC38BB#FFFFFFFFFFFFFFFF
(1493279513.974872) can0 1BFC38BA#0000000700000014
(1493279513.975253) can0 1BFC38B9#000096408008FC68
(1493279513.975506) can0 1BFC38B8#0000000800000000
(1493279513.975869) can0 1BFC38B7#80016484250202C3
(1493279513.976112) can0 1BFC38B6#00001D6B00000000
(1493279513.976505) can0 1BFC38B5#0502FF9202028292
(1493279513.976935) can0 1BFC38B4#110F01010000A109
(1493279513.977097) can0 1BFC38B3#8001648432404433
(1493279513.977395) can0 1BFC38B2#8001648483830064
(1493279513.983357) can0 30B#7F00110000000098
(1493279514.011848) can0 1FD#0000000000000000
(1493279514.015108) can0 234#75
(1493279514.031454) can0 3C0#6A7E1335
(1493279514.032982) can0 6C7#04051101020000
(1493279514.033196) can0 30B#7F00110000000098
(1493279514.033323) can0 5F2#C900
(1493279514.065397) can0 2BF#AC
(1493279514.072068) can0 1FD#0000000000000000
(1493279514.082763) can0 30B#7F00110000000098
(1493279514.115498) can0 3B2#25E8634DC89D
(1493279514.133009) can0 1FD#0000000000000000
(1493279514.133190) can0 30B#7F00110000000098
(1493279514.134857) can0 3C0#6A7E1335
(1493279514.165771) can0 401#E96E
(1493279514.182736) can0 30B#7F00110000000098
(1493279514.191988) can0 1FD#0000000000000000
(1493279514.215869) can0 5AC#E2245B188BEA2F31
(1493279514.225360) can0 1BFC38B1#0000000000000000
(1493279514.225727) can0 1BFC38BB#FFFFFFFFFFFFFFFF
(1493279514.225978) can0 1BFC38BA#0000000700000014
(1493279514.226354) can0 1BFC38B9#000096408008FC68
(1493279514.226603) can0 1BFC38B8#0000000800000000
(1493279514.226994) can0 1BFC38B7#80016484250202C3
(1493279514.227364) can0 1BFC38B6#00001D6E0000A109
(1493279514.227628) can0 1BFC38B5#0502FF9202028292
(1493279514.227836) can0 1BFC38B4#110F01010000A109
(1493279514.228213) can0 1BFC38B3#8001648431009988
(1493279514.228461) can0 1BFC38B2#80016484838300FA
(1493279514.233463) can0 6C7#04051101020000
(1493279514.233866) can0 30B#7F00110000000098
(1493279514.233869) can0 5F2#C800
(1493279514.234068) can0 643#000200
(1493279514.234363) can0 64E#00A1090000000000
(1493279514.234757) can0 65E#8808E72056AE0900
(1493279514.234962) can0 6B8#6D08000000000000
(1493279514.235303) can0 6BC#C2824551324C07BA
(1493279514.238447) can0 3C0#6A7E1335
(1493279514.251931) can0 1FD#0000000000000000
(1493279514.265994) can0 451#50BB357E2F19
(1493279514.283498) can0 30B#7F00110000000098
(1493279514.312111) can0 1FD#0000000000000000
(1493279514.316106) can0 68A#EA4F2D32BD12073B
(1493279514.333989) can0 30B#7F00110000000098
(1493279514.341976) can0 6B6#390C1C000C21
(1493279514.342193) can0 3C0#6A7E1335
(1493279514.342196) can0 6B7#BEB4000008FF80FE
(1493279514.366375) can0 6AE#6B546936E280D5
(1493279514.372011) can0 1FD#0000000000000000
(1493279514.382636) can0 30B#7F00110000000098
(1493279514.416354) can0 428#
(1493279514.433871) can0 6C7#04051101020000
(1493279514.434228) can0 1FD#0000000000000000
(1493279514.434480) can0 30B#7F00110000000098
(1493279514.434558) can0 5F2#C600
(1493279514.446117) can0 3C0#6A7E1335
(1493279514.466607) can0 511#1CF949
(1493279514.474482) can0 1BFC38B1#0000000000000000
(1493279514.474852) can0 1BFC38B9#000096408008FC68
(1493279514.475108) can0 1BFC38BA#0000000700000014
(1493279514.475441) can0 1BFC38B8#0000000800000000
(1493279514.475858) can0 1BFC38B7#80016484250202C3
(1493279514.476101) can0 1BFC38B6#00001D7002048292
(1493279514.476558) can0 1BFC38B5#0502FF9202048292
(1493279514.476731) can0 1BFC38B4#110F01010000A109
(1493279514.477115) can0 1BFC38B3#8001648431009988
(1493279514.477363) can0 1BFC38B2#80016484838300FA
(1493279514.477740) can0 1BFC38BB#FFFFFFFFFFFFFFFF
(1493279514.483243) can0 30B#7F00110000000098
(1493279514.492979) can0 1FD#0000000000000000
(1493279514.516617) can0 7B9#8BF6
(1493279514.533234) can0 30B#7F00110000000098
(1493279514.549361) can0 3C0#6A7E1335
(1493279514.551985) can0 1FD#0000000000000000
(1493279514.566866) can0 3F4#29758866
(1493279514.582637) can0 30B#7F00110000000098
(1493279514.612011) can0 1FD#0000000000000000
(1493279514.616973) can0 7AE#2BF4AA45FF4B244D
(1493279514.632820) can0 6C7#04051101020000
(1493279514.633188) can0 30B#7F00110000000098
(1493279514.633315) can0 5F2#C400
(1493279514.653240) can0 3C0#6A7E1335
(1493279514.667121) can0 532#2E659620BC63AF2F
(1493279514.672029) can0 1FD#0000000000000000
(1493279514.682732) can0 30B#7F00110000000098
(1493279514.717227) can0 344#7976B66AF251ED42
(1493279514.725506) can0 1BFC38B1#0000000000000000
(1493279514.725855) can0 1BFC38BB#FFFFFFFFFFFFFFFF
(1493279514.726096) can0 1BFC38BA#0000000700000014
(1493279514.726354) can0 1BFC38B9#010296408005A3F4
(1493279514.726729) can0 1BFC38B8#0000000800000000
(1493279514.727103) can0 1BFC38B7#80016484250202FF
(1493279514.727334) can0 1BFC38B6#00001D7300000000
(1493279514.727729) can0 1BFC38B5#0502FF9202048292
(1493279514.727997) can0 1BFC38B4#110F01010000A109
(1493279514.728349) can0 1BFC38B3#8001648431009988
(1493279514.728619) can0 1BFC38B2#80016484838300FA
(1493279514.733636) can0 1FD#0000000000000000
(1493279514.733865) can0 30B#7F00110000000098
(1493279514.734227) can0 65E#8808561891CB0900
(1493279514.743139) can0 62F#4451000C22
(1493279514.756716) can0 3C0#6A7E1335
(1493279514.767323) can0 17F#D5D2C202
(1493279514.782728) can0 30B#7F00110000000098
(1493279514.792095) can0 1FD#0000000000000000
(1493279514.817482) can0 1C4#8E64F622D6AE0227
(1493279514.833108) can0 6C7#04051101020000
(1493279514.833335) can0 30B#7F00110000000098
(1493279514.833588) can0 5F2#C200
(1493279514.833847) can0 630#33C414
(1493279514.851980) can0 1FD#0000000000000000
(1493279514.860230) can0 3C0#6A7E1335
(1493279514.867894) can0 64F#990727460806B175
(1493279514.882731) can0 30B#7F00110000000098
(1493279514.911982) can0 1FD#0000000000000000
(1493279514.918019) can0 6ED#C2A13075E1
(1493279514.933236) can0 30B#7F00110000000098
(1493279514.963573) can0 3C0#6A7E1335
(1493279514.968146) can0 399#81C43565479B556F
(1493279514.972091) can0 1FD#0000000000000000
(1493279514.974258) can0 1BFC38B1#0000000000000000
(1493279514.974616) can0 1BFC38BB#FFFFFFFFFFFFFFFF
(1493279514.974824) can0 1BFC38BA#535553500000001A
(1493279514.975204) can0 1BFC38B9#010296408005A3F4
(1493279514.975584) can0 1BFC38B8#0000000800000000
(1493279514.975833) can0 1BFC38B7#80016484250202FF
(1493279514.976242) can0 1BFC38B6#00001D7500000000
(1493279514.976476) can0 1BFC38B5#0502FF9202048292
(1493279514.976859) can0 1BFC38B4#110F01010000A109
(1493279514.977118) can0 1BFC38B3#8001648431009988
(1493279514.977500) can0 1BFC38B2#80016484838300FA
(1493279514.983389) can0 30B#7F00110000000098
(1493279515.018227) can0 0F7#46E7793C29AEA409
(1493279515.033085) can0 6C7#04051101020000
(1493279515.033350) can0 1FD#0000000000000000
(1493279515.033710) can0 30B#7F00110000000098
(1493279515.033838) can0 5F2#BF00
(1493279515.067101) can0 3C0#6A7E1335
(1493279515.068349) can0 028#E5115439
(1493279515.082728) can0 30B#7F00110000000098
(1493279515.092077) can0 1FD#0000000000000000
(1493279515.118480) can0 18C#5F5D9C6C0BF36873
(1493279515.133104) can0 30B#7F00110000000098
(1493279515.151981) can0 1FD#0000000000000000
(1493279515.168747) can0 342#B220FD56
(1493279515.170959) can0 3C0#6A7E1335
(1493279515.182729) can0 30B#7F00110000000098
(1493279515.212016) can0 1FD#0000000000000000
(1493279515.218846) can0 270#DD
(1493279515.225519) can0 1BFC38B1#0000000000000000
(1493279515.225849) can0 1BFC38BB#FFFFFFFFFFFFFFFF
(1493279515.226103) can0 1BFC38BA#535553500000001A
(1493279515.226488) can0 1BFC38B9#010296408005A3F4
(1493279515.226865) can0 1BFC38B8#0000000800000000
(1493279515.227106) can0 1BFC38B7#80016484250202FF
(1493279515.227482) can0 1BFC38B6#00001D780000A109
(1493279515.227762) can0 1BFC38B5#0502FF9202048292
(1493279515.228131) can0 1BFC38B4#110F01010000A109
(1493279515.228360) can0 1BFC38B3#800164843100BBAA
(1493279515.228736) can0 1BFC38B2#800164848383806E
(1493279515.233641) can0 6C7#04051101020000
(1493279515.233856) can0 30B#7F00110000000098
(1493279515.234112) can0 5F2#BD00
(1493279515.234198) can0 643#000200
(1493279515.234486) can0 64E#00A1090000000000
(1493279515.234868) can0 65E#8808B033859F0B00
(1493279515.235072) can0 6B8#6D08000000000000
(1493279515.235318) can0 6BC#C2824551324C0701
(1493279515.269127) can0 2EC#C7DE2E0DD921
(1493279515.271992) can0 1FD#0000000000000000
(1493279515.274820) can0 3C0#6A7E1335
(1493279515.283366) can0 30B#7F00110000000098
(1493279515.319240) can0 19B#BADCDC2435F52204
(1493279515.333982) can0 1FD#0000000000000000
(1493279515.334214) can0 30B#7F00110000000098
(1493279515.334477) can0 631#34D602
(1493279515.342105) can0 6B6#390C1C000C22
(1493279515.342348) can0 6B7#BEB4000008FF80FE
(1493279515.342590) can0 62D#3482030012000300
(1493279515.369351) can0 775#7C9078736D48B538
(1493279515.378229) can0 3C0#6A7E1335
(1493279515.382632) can0 30B#7F00110000000098
(1493279515.392350) can0 1FD#0000000000000000
(1493279515.419480) can0 1E7#96F659
(1493279515.433605) can0 6C7#04051101020000
(1493279515.433995) can0 30B#7F00110000000098
(1493279515.433997) can0 5F2#BB00
(1493279515.451975) can0 1FD#0000000000000000
(1493279515.469744) can0 437#7CCD634DC4C5D63C
(1493279515.474604) can0 1BFC38B1#0000000000000000
(1493279515.474852) can0 1BFC38BA#535553500000001A
(1493279515.475227) can0 1BFC38BB#FFFFFFFFFFFFFFFF
(1493279515.475475) can0 1BFC38B9#010296408005A3F4
(1493279515.475871) can0 1BFC38B8#0000000800000000
(1493279515.476231) can0 1BFC38B7#80016484250202FF
(1493279515.476504) can0 1BFC38B6#00001D7A000034A8
(1493279515.476863) can0 1BFC38B5#0502FF9202048292
(1493279515.477109) can0 1BFC38B4#110F01010000A109
(1493279515.477484) can0 1BFC38B3#800164843100BBAA
(1493279515.477864) can0 1BFC38B2#800164848383806E
(1493279515.482074) can0 3C0#6A7E1335
(1493279515.483328) can0 30B#7F00110000000098
(1493279515.512227) can0 1FD#0000000000000000
(1493279515.519816) can0 0DA#CFB83F301DE4E264
(1493279515.533239) can0 30B#7F00110000000098
(1493279515.570153) can0 30F#24C1
(1493279515.571980) can0 1FD#0000000000000000
(1493279515.582856) can0 30B#7F00110000000098
(1493279515.585341) can0 3C0#6A7E1335
(1493279515.620261) can0 6C3#3E
(1493279515.632859) can0 6C7#04051101020000
(1493279515.633265) can0 1FD#0000000000000000
(1493279515.633464) can0 30B#7F00110000000098
(1493279515.633553) can0 5F2#B900
(1493279515.670378) can0 077#8863863413
(1493279515.682885) can0 30B#7F00110000000098
(1493279515.688587) can0 3C0#6A7E1335
(1493279515.692386) can0 1FD#0000000000000000
(1493279515.720536) can0 58F#4867
(1493279515.725476) can0 1BFC38B1#0000000000000000
(1493279515.725851) can0 1BFC38BB#FFFFFFFFFFFFFFFF
(1493279515.726114) can0 1BFC38BA#535553500000001A
(1493279515.726350) can0 1BFC38B9#020096408008FC68
(1493279515.726706) can0 1BFC38B8#0000000800000000
(1493279515.726962) can0 1BFC38B7#800164842502023B
(1493279515.727330) can0 1BFC38B6#00001D7D00000000
(1493279515.727577) can0 1BFC38B5#0502FF9202048292
(1493279515.727997) can0 1BFC38B4#110F01010000A109
(1493279515.728219) can0 1BFC38B3#800164843100BBAA
(1493279515.728631) can0 1BFC38B2#800164848383806E
(1493279515.733599) can0 30B#7F00110000000098
(1493279515.733857) can0 65E#8808365747620200
(1493279515.743257) can0 62F#4451000C23
(1493279515.752006) can0 1FD#0000000000000000
(1493279515.770770) can0 17D#7125843A
(1493279515.782836) can0 30B#7F00110000000098
(1493279515.792480) can0 3C0#6A7E1335
(1493279515.811986) can0 1FD#0000000000000000
(1493279515.820894) can0 787#74FD1D3CBF33A915
(1493279515.832977) can0 6C7#04051101020000
(1493279515.833352) can0 30B#7F00110000000098
(1493279515.833469) can0 5F2#B700
(1493279515.870843) can0 484#83
(1493279515.871981) can0 1FD#0000000000000000
(1493279515.882882) can0 30B#7F00110000000098
(1493279515.896255) can0 3C0#6A7E1335
(1493279515.921148) can0 5CC#7B99
(1493279515.933102) can0 1FD#0000000000000000
(1493279515.933336) can0 30B#7F00110000000098
(1493279515.971212) can0 3D4#5B5E8B6997EA2C0B
(1493279515.974353) can0 1BFC38B1#0000000000000000
(1493279515.974597) can0 1BFC38BB#FFFFFFFFFFFFFFFF
(1493279515.974975) can0 1BFC38BA#0000000700000014
(1493279515.975227) can0 1BFC38B9#020096408008FC68
(1493279515.975600) can0 1BFC38B8#0000000800000000
(1493279515.975851) can0 1BFC38B7#800164842502023B
(1493279515.976239) can0 1BFC38B6#00001D7F00000000
(1493279515.976614) can0 1BFC38B5#0502FF9202048292
(1493279515.976813) can0 1BFC38B4#110F01010000A109
(1493279515.977120) can0 1BFC38B3#800164843100BBAA
(1493279515.977488) can0 1BFC38B2#800164848383806E
(1493279515.983511) can0 30B#7F00110000000098
(1493279515.992105) can0 1FD#0000000000000000
(1493279515.999980) can0 3C0#6A7E1335
(1493279516.021350) can0 7A0#462C916B18883A20
(1493279516.032980) can0 6C7#04051101020000
(1493279516.033349) can0 30B#7F00110000000098
(1493279516.033468) can0 5F2#B600
(1493279516.051980) can0 1FD#0000000000000000
(1493279516.071642) can0 19F#2BFA52012E4FC042
(1493279516.082851) can0 30B#7F00110000000098
(1493279516.103822) can0 3C0#6A7E1335
(1493279516.111991) can0 1FD#0000000000000000
(1493279516.121749) can0 010#332C8F
(1493279516.133349) can0 30B#7F00110000000098
(1493279516.171864) can0 137#F2EC5975
(1493279516.171966) can0 1FD#0000000000000000
(1493279516.182850) can0 30B#7F00110000000098
(1493279516.207085) can0 3C0#6A7E1335
(1493279516.222010) can0 5AC#7EFC915D3092
(1493279516.225631) can0 1BFC38B1#0000000000000000
(1493279516.225860) can0 1BFC38BB#FFFFFFFFFFFFFFFF
(1493279516.226269) can0 1BFC38BA#0000000700000014
(1493279516.226473) can0 1BFC38B9#020096408008FC68
(1493279516.226851) can0 1BFC38B8#0000000800000000
(1493279516.227096) can0 1BFC38B7#800164842502023B
(1493279516.227484) can0 1BFC38B6#00001D820000A109
(1493279516.227862) can0 1BFC38B5#0502FF9202048292
(1493279516.228103) can0 1BFC38B4#110F01010000A109
(1493279516.228369) can0 1BFC38B3#80016484324000FF
(1493279516.228733) can0 1BFC38B2#8001648483830076
(1493279516.233631) can0 6C7#04051101020000
(1493279516.233861) can0 1FD#0000000000000000
(1493279516.234120) can0 30B#7F00110000000098
(1493279516.234383) can0 5F2#B700
(1493279516.234457) can0 643#000200
(1493279516.234860) can0 64E#00A1090000000000
(1493279516.235127) can0 65E#88080EB452C40900
(1493279516.235330) can0 6B8#6D08000000000000
(1493279516.235595) can0 6BC#C2824551324C0702
(1493279516.272098) can0 557#8F
(1493279516.282850) can0 30B#7F00110000000098
(1493279516.292228) can0 1FD#0000000000000000
(1493279516.310806) can0 3C0#6A7E1335
(1493279516.322350) can0 053#00FC5C6B2834CE3C
(1493279516.333226) can0 30B#7F00110000000098
(1493279516.342852) can0 6B6#390C1C000C23
(1493279516.343263) can0 6B7#BEB4000008FF80FE
(1493279516.351981) can0 1FD#0000000000000000
(1493279516.372432) can0 3AA#BF1EFB474AE30B00
(1493279516.382853) can0 30B#7F00110000000098
(1493279516.412103) can0 1FD#0000000000000000
(1493279516.414626) can0 3C0#6A7E1335
(1493279516.422598) can0 6F5#626B462095A8
(1493279516.433127) can0 6C7#04051101020000
(1493279516.433489) can0 30B#7F00110000000098
(1493279516.433587) can0 5F2#B900
(1493279516.472099) can0 1FD#0000000000000000
(1493279516.472852) can0 2D4#C3F76534E5AA1E4D
(1493279516.474349) can0 1BFC38B1#0000000000000000
(1493279516.474763) can0 1BFC38BB#FFFFFFFFFFFFFFFF
(1493279516.474976) can0 1BFC38BA#0000000700000014
(1493279516.475351) can0 1BFC38B9#020096408008FC68
(1493279516.475600) can0 1BFC38B8#0000000800000000
(1493279516.475974) can0 1BFC38B7#800164842502023B
(1493279516.476224) can0 1BFC38B6#00001D8402028292
(1493279516.476601) can0 1BFC38B5#0502FF9202028292
(1493279516.476859) can0 1BFC38B4#110F01010000A109
(1493279516.477230) can0 1BFC38B3#80016484324000FF
(1493279516.477487) can0 1BFC38B2#8001648483830076
(1493279516.483506) can0 30B#7F00110000000098
(1493279516.517939) can0 3C0#6A7E1335
(1493279516.522830) can0 700#725C0F2A3820
(1493279516.533382) can0 1FD#0000000000000000
(1493279516.533639) can0 30B#7F00110000000098
(1493279516.573116) can0 59B#F7E8520F
(1493279516.582848) can0 30B#7F00110000000098
(1493279516.592101) can0 1FD#0000000000000000
(1493279516.621345) can0 3C0#6A7E1335
(1493279516.623219) can0 3CB#7875776822
(1493279516.633223) can0 6C7#04051101020000
(1493279516.633455) can0 30B#7F00110000000098
(1493279516.633567) can0 5F2#BA00
(1493279516.652100) can0 1FD#0000000000000000
(1493279516.673363) can0 376#4694560AC983C8
(1493279516.682850) can0 30B#7F00110000000098
(1493279516.712134) can0 1FD#0000000000000000
(1493279516.723470) can0 611#F1B7960CBBD9
(1493279516.724970) can0 3C0#6A7E1335
(1493279516.725598) can0 1BFC38B1#0000000000000000
(1493279516.725845) can0 1BFC38BB#FFFFFFFFFFFFFFFF
(1493279516.726191) can0 1BFC38BA#0000000700000014
(1493279516.726440) can0 1BFC38B9#030296408005A3F4
(1493279516.726817) can0 1BFC38B8#0000000800000000
(1493279516.727081) can0 1BFC38B7#8001648425020277
(1493279516.727452) can0 1BFC38B6#00001D8700000000
(1493279516.727827) can0 1BFC38B5#0502FF9202028292
(1493279516.728087) can0 1BFC38B4#110F01010000A109
(1493279516.728339) can0 1BFC38B3#80016484324000FF
(1493279516.728690) can0 1BFC38B2#8001648483830076
(1493279516.733760) can0 30B#7F00110000000098
(1493279516.733964) can0 65E#8808D4B286310B00
(1493279516.743223) can0 62F#4451000C24
(1493279516.772101) can0 1FD#0000000000000000
(1493279516.773742) can0 2A2#06
(1493279516.782850) can0 30B#7F00110000000098
(1493279516.823834) can0 1B7#2C32DD0E8BFCC15B
(1493279516.828990) can0 3C0#6A7E1335
(1493279516.833257) can0 6C7#04051101020000
(1493279516.833638) can0 1FD#0000000000000000
(1493279516.833849) can0 30B#7F00110000000098
(1493279516.833936) can0 5F2#BC00
(1493279516.834219) can0 630#33CE1300
(1493279516.873978) can0 5F6#
(1493279516.882846) can0 30B#7F00110000000098
(1493279516.892145) can0 1FD#0000000000000000
(1493279516.924103) can0 5E6#2E751F
(1493279516.932807) can0 3C0#6A7E1335
(1493279516.933348) can0 30B#7F00110000000098
(1493279516.952144) can0 1FD#0000000000000000
(1493279516.974257) can0 547#C9A63A2812
(1493279516.974374) can0 1BFC38B1#0000000000000000
(1493279516.974859) can0 1BFC38BB#FFFFFFFFFFFFFFFF
(1493279516.975250) can0 1BFC38BA#535553500000001A
(1493279516.975434) can0 1BFC38B9#030296408005A3F4
(1493279516.975859) can0 1BFC38B8#0000000800000000
(1493279516.976111) can0 1BFC38B7#8001648425020277
(1493279516.976495) can0 1BFC38B6#00001D8900000000
(1493279516.976723) can0 1BFC38B5#0502FF9202028292
(1493279516.977105) can0 1BFC38B4#110F01010000A109
(1493279516.977366) can0 1BFC38B3#80016484324000FF
(1493279516.977738) can0 1BFC38B2#8001648483830076
(1493279516.983456) can0 30B#7F00110000000098
(1493279517.012049) can0 1FD#0000000000000000
(1493279517.024514) can0 39A#35
(1493279517.033101) can0 6C7#04051101020000
(1493279517.033502) can0 30B#7F00110000000098
(1493279517.033505) can0 5F2#BD00
(1493279517.037689) can0 3C0#6A7E1335
(1493279517.072101) can0 1FD#0000000000000000
(1493279517.074628) can0 148#DAA2162F59770F05
(1493279517.082876) can0 30B#7F00110000000098
(1493279517.124835) can0 6C2#1551B1396479BB19
(1493279517.133093) can0 1FD#0000000000000000
(1493279517.133511) can0 30B#7F00110000000098
(1493279517.141093) can0 3C0#6A7E1335
(1493279517.175005) can0 17C#FB02F33633535D18
(1493279517.182801) can0 30B#7F00110000000098
(1493279517.192315) can0 1FD#0000000000000000
(1493279517.225526) can0 1BFC38B1#0000000000000000
(1493279517.225841) can0 1BFC38BB#FFFFFFFFFFFFFFFF
(1493279517.226204) can0 1BFC38BA#535553500000001A
(1493279517.226453) can0 1BFC38B9#030296408005A3F4
(1493279517.226827) can0 1BFC38B8#0000000800000000
(1493279517.227073) can0 1BFC38B7#8001648425020277
(1493279517.227446) can0 1BFC38B6#00001D8C0000A109
(1493279517.227821) can0 1BFC38B5#0502FF9202028292
(1493279517.228108) can0 1BFC38B4#110F01010000A109
(1493279517.228353) can0 1BFC38B3#8001648431005544
(1493279517.228692) can0 1BFC38B2#80016484838300DC
(1493279517.233557) can0 6C7#04051101020000
(1493279517.233797) can0 30B#7F00110000000098
(1493279517.233923) can0 5F2#BE00
(1493279517.234170) can0 643#000200
(1493279517.234444) can0 64E#00A1090000000000
(1493279517.234800) can0 65E#8808C446744E0800
(1493279517.235093) can0 6B8#6D08000000000000
(1493279517.235307) can0 6BC#C2824551324C070A
(1493279517.244978) can0 3C0#6A7E1335
(1493279517.252099) can0 1FD#0000000000000000
(1493279517.282847) can0 30B#7F00110000000098
(1493279517.312102) can0 1FD#0000000000000000
(1493279517.333093) can0 30B#7F00110000000098
(1493279517.333479) can0 631#34C2030013000301
(1493279517.333845) can0 62D#34837801F8000000
(1493279517.342378) can0 6B6#390C1C000C24
(1493279517.342585) can0 6B7#BEB4000008FF80FE
(1493279517.348605) can0 3C0#6A7E1335
(1493279517.372055) can0 1FD#0000000000000000
(1493279517.382875) can0 30B#7F00110000000098
(1493279517.432977) can0 6C7#04051101020000
(1493279517.433362) can0 1FD#0000000000000000
(1493279517.433599) can0 30B#7F00110000000098
(1493279517.433850) can0 5F2#C000
(1493279517.452227) can0 3C0#6A7E1335
(1493279517.474351) can0 1BFC38B1#0000000000000000
(1493279517.474736) can0 1BFC38BB#FFFFFFFFFFFFFFFF
(1493279517.475081) can0 1BFC38BA#535553500000001A
(1493279517.475342) can0 1BFC38B9#030296408005A3F4
(1493279517.475701) can0 1BFC38B8#0000000800000000
(1493279517.475942) can0 1BFC38B7#8001648425020277
(1493279517.476378) can0 1BFC38B6#00001D8E000034A8
(1493279517.476602) can0 1BFC38B5#0502FF9202028292
(1493279517.477022) can0 1BFC38B4#110F01010000A109
(1493279517.477227) can0 1BFC38B3#8001648431005544
(1493279517.477606) can0 1BFC38B2#80016484838300DC
(1493279517.483503) can0 30B#7F00110000000098
(1493279517.492223) can0 1FD#0000000000000000
(1493279517.533098) can0 30B#7F00110000000098
(1493279517.552103) can0 1FD#0000000000000000
(1493279517.555984) can0 3C0#6A7E1335
(1493279517.582847) can0 30B#7F00110000000098
(1493279517.612113) can0 1FD#0000000000000000
(1493279517.633136) can0 6C7#04051101020000
(1493279517.633467) can0 30B#7F00110000000098
(1493279517.633601) can0 5F2#C100
(1493279517.659811) can0 3C0#6A7E1335
(1493279517.672050) can0 1FD#0000000000000000
(1493279517.682980) can0 30B#7F00110000000098
(1493279517.725600) can0 1BFC38B1#0000000000000000
(1493279517.726010) can0 1BFC38BB#FFFFFFFFFFFFFFFF
(1493279517.726215) can0 1BFC38BA#535553500000001A
(1493279517.726461) can0 1BFC38B9#040096408008FC68
(1493279517.726850) can0 1BFC38B8#0000000800000000
(1493279517.727223) can0 1BFC38B7#80016484250202B3
(1493279517.727473) can0 1BFC38B6#00001D9100000000
(1493279517.727845) can0 1BFC38B5#0502FF9202028292
(1493279517.728097) can0 1BFC38B4#110F01010000A109
(1493279517.728473) can0 1BFC38B3#8001648431005544
(1493279517.728726) can0 1BFC38B2#80016484838300DC
(1493279517.733703) can0 1FD#0000000000000000
(1493279517.734014) can0 30B#7F00110000000098
(1493279517.734219) can0 65E#8808A81577240700
(1493279517.743222) can0 62F#4451000C25
(1493279517.763566) can0 3C0#6A7E1335
(1493279517.782846) can0 30B#7F00110000000098
(1493279517.792471) can0 1FD#0000000000000000
(1493279517.833055) can0 6C7#04051101020000
(1493279517.833299) can0 30B#7F00110000000098
(1493279517.833548) can0 5F2#C300
(1493279517.852187) can0 1FD#0000000000000000
(1493279517.867052) can0 3C0#6A7E1335
(1493279517.882854) can0 30B#7F00110000000098
(1493279517.912101) can0 1FD#0000000000000000
(1493279517.933112) can0 30B#7F00110000000098
(1493279517.971057) can0 3C0#6A7E1335
(1493279517.972097) can0 1FD#0000000000000000
(1493279517.974503) can0 1BFC38B1#0000000000000000
(1493279517.974861) can0 1BFC38BB#FFFFFFFFFFFFFFFF
(1493279517.975126) can0 1BFC38BA#0000000700000014
(1493279517.975337) can0 1BFC38B9#040096408008FC68
(1493279517.975698) can0 1BFC38B8#0000000800000000
(1493279517.976117) can0 1BFC38B7#80016484250202B3
(1493279517.976329) can0 1BFC38B6#00001D9300000000
(1493279517.976702) can0 1BFC38B5#0502FF9202028292
(1493279517.976947) can0 1BFC38B4#110F01010000A109
(1493279517.977328) can0 1BFC38B3#8001648431005544
(1493279517.977573) can0 1BFC38B2#80016484838300DC
(1493279517.983508) can0 30B#7F00110000000098
(1493279518.033108) can0 6C7#04051101020000
(1493279518.033330) can0 1FD#0000000000000000
(1493279518.033596) can0 30B#7F00110000000098
(1493279518.033840) can0 5F2#C300
(1493279518.074688) can0 3C0#6A7E1335
(1493279518.082860) can0 30B#7F00110000000098
(1493279518.092472) can0 1FD#0000000000000000
(1493279518.133095) can0 30B#7F00110000000098
(1493279518.152128) can0 1FD#0000000000000000
(1493279518.178085) can0 3C0#6A7E1335
(1493279518.182876) can0 30B#7F00110000000098
(1493279518.212096) can0 1FD#0000000000000000
(1493279518.225598) can0 1BFC38B1#0000000000000000
(1493279518.225971) can0 1BFC38BB#FFFFFFFFFFFFFFFF
(1493279518.226221) can0 1BFC38BA#0000000700000014
(1493279518.226603) can0 1BFC38B9#040096408008FC68
(1493279518.226837) can0 1BFC38B8#0000000800000000
(1493279518.227248) can0 1BFC38B7#80016484250202B3
(1493279518.227497) can0 1BFC38B6#00001D960000A109
(1493279518.227833) can0 1BFC38B5#0502FF9202028292
(1493279518.228120) can0 1BFC38B4#110F01010000A109
(1493279518.228453) can0 1BFC38B3#8001648431007766
(1493279518.228715) can0 1BFC38B2#8001648483838070
(1493279518.233580) can0 6C7#04051101020000
(1493279518.233951) can0 30B#7F00110000000098
(1493279518.234048) can0 5F2#C500
(1493279518.234188) can0 643#000200
(1493279518.234604) can0 64E#00A1090000000000
(1493279518.234798) can0 65E#8808B1D69D440A00
(1493279518.235123) can0 6B8#6D08000000000000
(1493279518.235363) can0 6BC#C2824551324C0716
(1493279518.272128) can0 1FD#0000000000000000
(1493279518.281582) can0 3C0#6A7E1335
(1493279518.282814) can0 30B#7F00110000000098
(1493279518.333220) can0 1FD#0000000000000000
(1493279518.333474) can0 30B#7F00110000000098
(1493279518.342770) can0 6B6#390C1C000C25
(1493279518.342967) can0 6B7#BEB4000008FF80FE
(1493279518.382847) can0 30B#7F00110000000098
(1493279518.385474) can0 3C0#6A7E1335
(1493279518.392253) can0 1FD#0000000000000000
(1493279518.433079) can0 6C7#04051101020000
(1493279518.433332) can0 30B#7F00110000000098
(1493279518.433445) can0 5F2#C600
(1493279518.452151) can0 1FD#0000000000000000
(1493279518.474475) can0 1BFC38B1#0000000000000000
(1493279518.474857) can0 1BFC38BB#FFFFFFFFFFFFFFFF
(1493279518.475094) can0 1BFC38BA#0000000700000014
(1493279518.475470) can0 1BFC38B9#040096408008FC68
(1493279518.475844) can0 1BFC38B8#0000000800000000
(1493279518.476095) can0 1BFC38B7#80016484250202B3
(1493279518.476341) can0 1BFC38B6#00001D9802028292
(1493279518.476729) can0 1BFC38B5#0502FF9202028292
(1493279518.476992) can0 1BFC38B4#110F01010000A109
(1493279518.477368) can0 1BFC38B3#8001648431007766
(1493279518.477590) can0 1BFC38B2#8001648483838070
(1493279518.483628) can0 30B#7F00110000000098
(1493279518.489349) can0 3C0#6A7E1335
(1493279518.512048) can0 1FD#0000000000000000
(1493279518.533098) can0 30B#7F00110000000098
(1493279518.572132) can0 1FD#0000000000000000
(1493279518.582849) can0 30B#7F00110000000098
(1493279518.592706) can0 3C0#6A7E1335
(1493279518.633096) can0 6C7#04051101020000
(1493279518.633346) can0 1FD#0000000000000000
(1493279518.633601) can0 30B#7F00110000000098
(1493279518.633846) can0 5F2#C700
(1493279518.682864) can0 30B#7F00110000000098
(1493279518.692736) can0 1FD#0000000000000000
(1493279518.696839) can0 3C0#6A7E1335
(1493279518.725611) can0 1BFC38B1#0000000000000000
(1493279518.725842) can0 1BFC38BB#FFFFFFFFFFFFFFFF
(1493279518.726251) can0 1BFC38BA#0000000700000014
(1493279518.726637) can0 1BFC38B9#050296408005A3F4
(1493279518.726814) can0 1BFC38B8#0000000800000000
(1493279518.727203) can0 1BFC38B7#800160B4320303EF
(1493279518.727446) can0 1BFC38B6#00001D9B00000000
(1493279518.727826) can0 1BFC38B5#0502FF9202028292
(1493279518.728133) can0 1BFC38B4#110F01010000A109
(1493279518.728527) can0 1BFC38B3#8001648431007766
(1493279518.728877) can0 1BFC38B2#8001648483838070
(1493279518.733720) can0 30B#7F00110000000098
(1493279518.734014) can0 65E#88080A446BCB0C00
(1493279518.743220) can0 62F#4451000C26
(1493279518.752223) can0 1FD#0000000000000000
(1493279518.782880) can0 30B#7F00110000000098
(1493279518.800207) can0 3C0#6A7E1335
(1493279518.812260) can0 1FD#0000000000000000
(1493279518.833597) can0 6C7#04051101020000
(1493279518.833804) can0 30B#7F00110000000098
(1493279518.834058) can0 5F2#C800
(1493279518.834308) can0 630#33CF00
(1493279518.842458) can0 64E#00A4570000000000
(1493279518.872221) can0 1FD#0000000000000000
(1493279518.882971) can0 30B#7F00110000000098
(1493279518.905056) can0 3C0#6A7E1335
(1493279518.933636) can0 1FD#0000000000000000
(1493279518.933849) can0 30B#7F00110000000098
(1493279518.974468) can0 1BFC38B1#0000000000000000
(1493279518.974861) can0 1BFC38BB#FFFFFFFFFFFFFFFF
(1493279518.975087) can0 1BFC38BA#535553500000001A
(1493279518.975469) can0 1BFC38B9#050296408005A3F4
(1493279518.975871) can0 1BFC38B8#0000000800000000
(1493279518.976087) can0 1BFC38B7#800160B4320303EF
(1493279518.976347) can0 1BFC38B6#00001D9D00000000
(1493279518.976710) can0 1BFC38B5#0502FF9202028292
(1493279518.976969) can0 1BFC38B4#110F01010000A109
(1493279518.977307) can0 1BFC38B3#8001648431007766
(1493279518.977558) can0 1BFC38B2#8001648483838070
(1493279518.982613) can0 30B#7F00110000000098
(1493279518.992373) can0 1FD#0000000000000000
(1493279519.008371) can0 3C0#6A7E1335
(1493279519.033845) can0 6C7#04051101020000
(1493279519.034085) can0 30B#7F00110000000098
(1493279519.034186) can0 5F2#C800
(1493279519.052221) can0 1FD#0000000000000000
(1493279519.082873) can0 30B#7F00110000000098
(1493279519.112087) can0 3C0#6A7E1335
(1493279519.112341) can0 1FD#0000000000000000
(1493279519.134346) can0 30B#7F00110000000098
(1493279519.172233) can0 1FD#0000000000000000
(1493279519.182876) can0 30B#7F00110000000098
(1493279519.215945) can0 3C0#6A7E1335
(1493279519.226754) can0 1BFC38B1#0000000000000000
(1493279519.226971) can0 1BFC38BA#535553500000001A
(1493279519.227324) can0 1BFC38BB#FFFFFFFFFFFFFFFF
(1493279519.227572) can0 1BFC38B9#050296408005A3F4
(1493279519.228026) can0 1BFC38B8#0000000800000000
(1493279519.228218) can0 1BFC38B7#800160B4320303EF
(1493279519.228617) can0 1BFC38B6#00001DA00000A457
(1493279519.228867) can0 1BFC38B5#0502FF9202028292
(1493279519.229229) can0 1BFC38B4#110F01010000A457
(1493279519.229450) can0 1BFC38B3#800164843240CCBB
(1493279519.229825) can0 1BFC38B2#80016484838300E8
(1493279519.232092) can0 6C7#04051101020000
(1493279519.232463) can0 1FD#0000000000000000
(1493279519.232711) can0 30B#7F00110000000098
(1493279519.232792) can0 5F2#C900
(1493279519.233085) can0 643#000200
(1493279519.233338) can0 64E#00A4570000000000
(1493279519.233586) can0 65E#8808D9A372470B00
(1493279519.233804) can0 6B8#6D08000000000000
(1493279519.234215) can0 6BC#C2824551324C0718
(1493279519.282858) can0 30B#7F00110000000098
(1493279519.292878) can0 1FD#0000000000000000
(1493279519.319427) can0 3C0#6A7E1335
(1493279519.334095) can0 30B#7F00110000000098
(1493279519.334979) can0 631#34C37807FE000000
(1493279519.335082) can0 62D#348414
(1493279519.342219) can0 6B6#390C1C000C26
(1493279519.342465) can0 6B7#BEB4000008FF80FE
(1493279519.352215) can0 1FD#0000000000000000
(1493279519.382965) can0 30B#7F00110000000098
(1493279519.412347) can0 1FD#0000000000000000
(1493279519.422964) can0 3C0#6A7E1335
(1493279519.434125) can0 6C7#04051101020000
(1493279519.434481) can0 30B#7F00110000000098
(1493279519.434562) can0 5F2#C900
(1493279519.472242) can0 1FD#0000000000000000
(1493279519.474872) can0 1BFC38B1#0000000000000000
(1493279519.475069) can0 1BFC38B9#050296408005A3F4
(1493279519.475489) can0 1BFC38BA#535553500000001A
(1493279519.475851) can0 1BFC38B8#0000000800000000
(1493279519.476093) can0 1BFC38B7#800160B4320303EF
(1493279519.476331) can0 1BFC38B6#00001DA2000034A8
(1493279519.476718) can0 1BFC38B5#0502FF9202028292
(1493279519.476984) can0 1BFC38B4#110F01010000A457
(1493279519.477352) can0 1BFC38B3#800164843240CCBB
(1493279519.477603) can0 1BFC38B2#80016484838300E8
(1493279519.477979) can0 1BFC38BB#FFFFFFFFFFFFFFFF
(1493279519.483477) can0 30B#7F00110000000098
(1493279519.526812) can0 3C0#6A7E1335
(1493279519.533730) can0 1FD#0000000000000000
(1493279519.533975) can0 30B#7F00110000000098
(1493279519.582854) can0 30B#7F00110000000098
(1493279519.592346) can0 1FD#0000000000000000
(1493279519.630304) can0 3C0#6A7E1335
(1493279519.633382) can0 6C7#04051101020000
(1493279519.633762) can0 30B#7F00110000000098
(1493279519.633867) can0 5F2#C900
(1493279519.652217) can0 1FD#0000000000000000
(1493279519.682971) can0 30B#7F00110000000098
(1493279519.712347) can0 1FD#0000000000000000
(1493279519.725722) can0 1BFC38B1#0000000000000000
(1493279519.725971) can0 1BFC38BB#FFFFFFFFFFFFFFFF
(1493279519.726343) can0 1BFC38BA#535553500000001A
(1493279519.726593) can0 1BFC38B9#060096408008FC68
(1493279519.726958) can0 1BFC38B8#0000000800000000
(1493279519.727204) can0 1BFC38B7#8001648425020229
(1493279519.727620) can0 1BFC38B6#00001DA500000000
(1493279519.727846) can0 1BFC38B5#0502FF9202028292
(1493279519.728227) can0 1BFC38B4#110F01010000A457
(1493279519.728502) can0 1BFC38B3#800164843240CCBB
(1493279519.728865) can0 1BFC38B2#80016484838300E8
(1493279519.733922) can0 3C0#6A7E1335
(1493279519.734168) can0 30B#7F00110000000098
(1493279519.734552) can0 65E#8808645B71620800
(1493279519.743375) can0 62F#4451000C27
(1493279519.772176) can0 1FD#0000000000000000
(1493279519.782976) can0 30B#7F00110000000098
(1493279519.833220) can0 6C7#04051101020000
(1493279519.833460) can0 1FD#0000000000000000
(1493279519.833871) can0 30B#7F00110000000098
(1493279519.833974) can0 5F2#C900
(1493279519.837969) can0 3C0#6A7E1335
(1493279519.882996) can0 30B#7F00110000000098
(1493279519.892468) can0 1FD#0000000000000000
(1493279519.933220) can0 30B#7F00110000000098
(1493279519.941451) can0 3C0#6A7E1335
(1493279519.952253) can0 1FD#0000000000000000
(1493279519.974577) can0 1BFC38B1#0000000000000000
(1493279519.974794) can0 1BFC38BB#FFFFFFFFFFFFFFFF
(1493279519.975200) can0 1BFC38BA#0000000700000014
(1493279519.975453) can0 1BFC38B9#060096408008FC68
(1493279519.975833) can0 1BFC38B8#0000000800000000
(1493279519.976053) can0 1BFC38B7#8001648425020229
(1493279519.976438) can0 1BFC38B6#00001DA700000000
(1493279519.976814) can0 1BFC38B5#0502FF9202028292
(1493279519.977059) can0 1BFC38B4#110F01010000A457
(1493279519.977313) can0 1BFC38B3#800164843240CCBB
(1493279519.977687) can0 1BFC38B2#80016484838300E8
(1493279519.983730) can0 30B#7F00110000000098
(1493279520.012172) can0 1FD#0000000000000000
(1493279520.033218) can0 6C7#04051101020000
(1493279520.033454) can0 30B#7F00110000000098
(1493279520.033730) can0 5F2#C900
(1493279520.045553) can0 3C0#6A7E1335
(1493279520.072253) can0 1FD#0000000000000000
(1493279520.082970) can0 30B#7F00110000000098
(1493279520.133359) can0 1FD#0000000000000000
(1493279520.133587) can0 30B#7F00110000000098
(1493279520.150675) can0 3C0#6A7E1335
(1493279520.183220) can0 30B#7F00110000000098
(1493279520.192619) can0 1FD#0000000000000000
(1493279520.225751) can0 1BFC38B1#0000000000000000
(1493279520.226104) can0 1BFC38BB#FFFFFFFFFFFFFFFF
(1493279520.226331) can0 1BFC38BA#0000000700000014
(1493279520.226718) can0 1BFC38B9#060096408008FC68
(1493279520.226967) can0 1BFC38B8#0000000800000000
(1493279520.227341) can0 1BFC38B7#8001648425020229
(1493279520.227593) can0 1BFC38B6#00001DAA0000A457
(1493279520.227970) can0 1BFC38B5#0502FF9202028292
(1493279520.228255) can0 1BFC38B4#110F01010000A457
(1493279520.228617) can0 1BFC38B3#8001648431001100
(1493279520.228822) can0 1BFC38B2#80016484838300FE
(1493279520.233856) can0 6C7#04051101020000
(1493279520.234056) can0 30B#7F00110000000098
(1493279520.234179) can0 5F2#CA00
(1493279520.234460) can0 643#000200
(1493279520.234708) can0 64E#00A4570000000000
(1493279520.234953) can0 65E#8808231741AE0600
(1493279520.235195) can0 6B8#6D08000000000000
(1493279520.235576) can0 6BC#C2824551324C077E
(1493279520.252182) can0 1FD#0000000000000000
(1493279520.254841) can0 3C0#6A7E1335
(1493279520.282976) can0 30B#7F00110000000098
(1493279520.312217) can0 1FD#0000000000000000
(1493279520.333347) can0 30B#7F00110000000098
(1493279520.342843) can0 6B6#390C1C000C27
(1493279520.343077) can0 6B7#BEB4000008FF80FE
(1493279520.358591) can0 3C0#6A7E1335
(1493279520.372218) can0 1FD#0000000000000000
(1493279520.383120) can0 30B#7F00110000000098
(1493279520.433219) can0 6C7#04051101020000
(1493279520.433452) can0 1FD#0000000000000000
(1493279520.433847) can0 30B#7F00110000000098
(1493279520.433849) can0 5F2#CA00
(1493279520.462086) can0 3C0#6A7E1335
(1493279520.474596) can0 1BFC38B1#0000000000000000
(1493279520.474830) can0 1BFC38BB#FFFFFFFFFFFFFFFF
(1493279520.475230) can0 1BFC38BA#0000000700000014
(1493279520.475426) can0 1BFC38B9#060096408008FC68
(1493279520.475821) can0 1BFC38B8#0000000800000000
(1493279520.476092) can0 1BFC38B7#8001648425020229
(1493279520.476484) can0 1BFC38B6#00001DAC02028292
(1493279520.476864) can0 1BFC38B5#0502FF9202028292
(1493279520.477089) can0 1BFC38B4#110F01010000A457
(1493279520.477324) can0 1BFC38B3#8001648431001100
(1493279520.477698) can0 1BFC38B2#80016484838300FE
(1493279520.483747) can0 30B#7F00110000000098
(1493279520.492422) can0 1FD#0000000000000000
(1493279520.533349) can0 30B#7F00110000000098
(1493279520.552245) can0 1FD#0000000000000000
(1493279520.565720) can0 3C0#6A7E1335
(1493279520.583117) can0 30B#7F00110000000098
(1493279520.612245) can0 1FD#0000000000000000
(1493279520.633219) can0 6C7#04051101020000
(1493279520.633456) can0 30B#7F00110000000098
(1493279520.633567) can0 5F2#CA00
(1493279520.668953) can0 3C0#6A7E1335
(1493279520.672288) can0 1FD#0000000000000000
(1493279520.683089) can0 30B#7F00110000000098
(1493279520.725863) can0 1BFC38B1#0000000000000000
(1493279520.726089) can0 1BFC38BB#FFFFFFFFFFFFFFFF
(1493279520.726478) can0 1BFC38BA#0000000700000014
(1493279520.726678) can0 1BFC38B9#070296408005A3F4
(1493279520.727071) can0 1BFC38B8#0000000800000000
(1493279520.727319) can0 1BFC38B7#8001648425020265
(1493279520.727695) can0 1BFC38B6#00001DAF00000000
(1493279520.727926) can0 1BFC38B5#0502FF9202028292
(1493279520.728353) can0 1BFC38B4#110F01010000A457
(1493279520.728578) can0 1BFC38B3#8001648431001100
(1493279520.728972) can0 1BFC38B2#80016484838300FE
(1493279520.734008) can0 1FD#0000000000000000
(1493279520.734167) can0 30B#7F00110000000098
(1493279520.734493) can0 65E#88083DD88DF00600
(1493279520.743501) can0 62F#4451000C28
(1493279520.772865) can0 3C0#6A7E1335
(1493279520.783124) can0 30B#7F00110000000098
(1493279520.792371) can0 1FD#0000000000000000
(1493279520.833352) can0 6C7#04051101020000
(1493279520.833594) can0 30B#7F00110000000098
(1493279520.833846) can0 5F2#CA00
(1493279520.833961) can0 630#33D03F0102
(1493279520.852256) can0 1FD#0000000000000000
(1493279520.876714) can0 3C0#6A7E1335
(1493279520.883122) can0 30B#7F00110000000098
(1493279520.912225) can0 1FD#0000000000000000
(1493279520.933343) can0 30B#7F00110000000098
(1493279520.972342) can0 1FD#0000000000000000
(1493279520.974587) can0 1BFC38B1#0000000000000000
(1493279520.974981) can0 1BFC38BB#FFFFFFFFFFFFFFFF
(1493279520.975205) can0 1BFC38BA#535553500000001A
(1493279520.975616) can0 1BFC38B9#070296408005A3F4
(1493279520.975866) can0 1BFC38B8#0000000800000000
(1493279520.976224) can0 1BFC38B7#8001648425020265
(1493279520.976476) can0 1BFC38B6#00001DB100000000
(1493279520.976851) can0 1BFC38B5#0502FF9202028292
(1493279520.977084) can0 1BFC38B4#110F01010000A457
(1493279520.977480) can0 1BFC38B3#8001648431001100
(1493279520.977848) can0 1BFC38B2#80016484838300FE
(1493279520.980327) can0 3C0#6A7E1335
(1493279520.983850) can0 30B#7F00110000000098
(1493279521.033178) can0 6C7#04051101020000
(1493279521.033548) can0 1FD#0000000000000000
(1493279521.033803) can0 30B#7F00110000000098
(1493279521.034113) can0 5F2#CA00
(1493279521.083070) can0 30B#7F00110000000098
(1493279521.084588) can0 3C0#6A7E1335
(1493279521.092622) can0 1FD#0000000000000000
(1493279521.133343) can0 30B#7F00110000000098
(1493279521.152342) can0 1FD#0000000000000000
(1493279521.183089) can0 30B#7F00110000000098
(1493279521.188352) can0 3C0#6A7E1335
(1493279521.212342) can0 1FD#0000000000000000
(1493279521.225836) can0 1BFC38B1#0000000000000000
(1493279521.226100) can0 1BFC38BB#FFFFFFFFFFFFFFFF
(1493279521.226323) can0 1BFC38BA#535553500000001A
(1493279521.226722) can0 1BFC38B9#070296408005A3F4
(1493279521.227098) can0 1BFC38B8#0000000800000000
(1493279521.227360) can0 1BFC38B7#8001648425020265
(1493279521.227737) can0 1BFC38B6#00001DB40000A457
(1493279521.227963) can0 1BFC38B5#0502FF9202028292
(1493279521.228348) can0 1BFC38B4#110F01010000A457
(1493279521.228604) can0 1BFC38B3#8001648431003322
(1493279521.228835) can0 1BFC38B2#8001648483838072
(1493279521.233847) can0 6C7#04051101020000
(1493279521.234104) can0 30B#7F00110000000098
(1493279521.234329) can0 5F2#CA00
(1493279521.234452) can0 643#000200
(1493279521.234852) can0 64E#00A4570000000000
(1493279521.235080) can0 65E#8808B959BBE10C00
(1493279521.235359) can0 6B8#6D08000000000000
(1493279521.235613) can0 6BC#C2824551324C0786
(1493279521.272351) can0 1FD#0000000000000000
(1493279521.283104) can0 30B#7F00110000000098
(1493279521.292014) can0 3C0#6A7E1335
(1493279521.333467) can0 1FD#0000000000000000
(1493279521.333876) can0 30B#7F00110000000098
(1493279521.333981) can0 631#34C414
(1493279521.334200) can0 62D#348F00
(1493279521.342417) can0 6B6#390C1C000C28
(1493279521.342791) can0 6B7#BEB4000008FF80FE
(1493279521.383087) can0 30B#7F00110000000098
(1493279521.392370) can0 1FD#0000000000000000
(1493279521.395952) can0 3C0#6A7E1335
(1493279521.433342) can0 6C7#04051101020000
(1493279521.433590) can0 30B#7F00110000000098
(1493279521.433818) can0 5F2#CA00
(1493279521.452341) can0 1FD#0000000000000000
(1493279521.474592) can0 1BFC38B1#0000000000000000
(1493279521.474959) can0 1BFC38BB#FFFFFFFFFFFFFFFF
(1493279521.475204) can0 1BFC38BA#535553500000001A
(1493279521.475589) can0 1BFC38B9#070296408005A3F4
(1493279521.475840) can0 1BFC38B8#0000000800000000
(1493279521.476216) can0 1BFC38B7#8001648425020265
(1493279521.476465) can0 1BFC38B6#00001DB6000034A8
(1493279521.476839) can0 1BFC38B5#0502FF9202028292
(1493279521.477085) can0 1BFC38B4#110F01010000A457
(1493279521.477446) can0 1BFC38B3#8001648431003322
(1493279521.477818) can0 1BFC38B2#8001648483838072
(1493279521.483818) can0 30B#7F00110000000098
(1493279521.499808) can0 3C0#6A7E1335
(1493279521.512337) can0 1FD#0000000000000000
(1493279521.533466) can0 30B#7F00110000000098
(1493279521.572352) can0 1FD#0000000000000000
(1493279521.583088) can0 30B#7F00110000000098
(1493279521.603804) can0 3C0#6A7E1335
(1493279521.633342) can0 6C7#04051101020000
(1493279521.633573) can0 1FD#0000000000000000
(1493279521.633794) can0 30B#7F00110000000098
(1493279521.634051) can0 5F2#CA00
(1493279521.683095) can0 30B#7F00110000000098
(1493279521.692581) can0 1FD#0000000000000000
(1493279521.707796) can0 3C0#6A7E1335
(1493279521.725862) can0 1BFC38B1#0000000000000000
(1493279521.726090) can0 1BFC38BB#FFFFFFFFFFFFFFFF
(1493279521.726315) can0 1BFC38BA#535553500000001A
(1493279521.726725) can0 1BFC38B9#000096408008FC68
(1493279521.727051) can0 1BFC38B8#0000000800000000
(1493279521.727304) can0 1BFC38B7#80016484250202A1
(1493279521.727692) can0 1BFC38B6#00001DB900000000
(1493279521.728087) can0 1BFC38B5#0502FF9202028292
(1493279521.728338) can0 1BFC38B4#110F01010000A457
(1493279521.728578) can0 1BFC38B3#8001648431003322
(1493279521.729015) can0 1BFC38B2#8001648483838072
(1493279521.733837) can0 30B#7F00110000000098
(1493279521.734175) can0 65E#880843B8B7B50B00
(1493279521.743621) can0 62F#4451000C29
(1493279521.752339) can0 1FD#0000000000000000
(1493279521.783094) can0 30B#7F00110000000098
(1493279521.811695) can0 3C0#6A7E1335
(1493279521.812341) can0 1FD#0000000000000000
(1493279521.833336) can0 6C7#04051101020000
(1493279521.833585) can0 30B#7F00110000000098
(1493279521.833829) can0 5F2#CB00
(1493279521.872343) can0 1FD#0000000000000000
(1493279521.883087) can0 30B#7F00110000000098
(1493279521.915163) can0 3C0#6A7E1335
(1493279521.933448) can0 1FD#0000000000000000
(1493279521.933841) can0 30B#7F00110000000098
(1493279521.974628) can0 1BFC38B1#0000000000000000
(1493279521.974958) can0 1BFC38BB#FFFFFFFFFFFFFFFF
(1493279521.975337) can0 1BFC38BA#0000000700000014
(1493279521.975589) can0 1BFC38B9#000096408008FC68
(1493279521.975973) can0 1BFC38B8#0000000800000000
(1493279521.976189) can0 1BFC38B7#80016484250202A1
(1493279521.976587) can0 1BFC38B6#00001DBB00000000
(1493279521.976834) can0 1BFC38B5#0502FF9202028292
(1493279521.977203) can0 1BFC38B4#110F01010000A457
(1493279521.977457) can0 1BFC38B3#8001648431003322
(1493279521.977833) can0 1BFC38B2#8001648483838072
(1493279521.983839) can0 30B#7F00110000000098
(1493279521.992603) can0 1FD#0000000000000000
(1493279522.018295) can0 3C0#6A7E1335
(1493279522.033493) can0 6C7#04051101020000
(1493279522.033877) can0 30B#7F00110000000098
(1493279522.033880) can0 5F2#CB00
(1493279522.052338) can0 1FD#0000000000000000
(1493279522.083089) can0 30B#7F00110000000098
(1493279522.112343) can0 1FD#0000000000000000
(1493279522.121706) can0 3C0#6A7E1335
(1493279522.133424) can0 30B#7F00110000000098
(1493279522.172341) can0 1FD#0000000000000000
(1493279522.183090) can0 30B#7F00110000000098
(1493279522.225465) can0 3C0#6A7E1335
(1493279522.225813) can0 1BFC38B1#0000000000000000
(1493279522.226286) can0 1BFC38BB#FFFFFFFFFFFFFFFF
(1493279522.226553) can0 1BFC38BA#0000000700000014
(1493279522.226924) can0 1BFC38B9#000096408008FC68
(1493279522.227172) can0 1BFC38B8#0000000800000000
(1493279522.227566) can0 1BFC38B7#80016484250202A1
(1493279522.227828) can0 1BFC38B6#00001DBE0000A457
(1493279522.228221) can0 1BFC38B5#0502FF9202028292
(1493279522.228472) can0 1BFC38B4#110F01010000A457
(1493279522.228856) can0 1BFC38B3#8001648432408877
(1493279522.229086) can0 1BFC38B2#80016484838300FA
(1493279522.233868) can0 6C7#04051101020000
(1493279522.234090) can0 1FD#0000000000000000
(1493279522.234471) can0 30B#7F00110000000098
(1493279522.234556) can0 5F2#CB00
(1493279522.234836) can0 643#000200
(1493279522.235066) can0 64E#00A4570000000000
(1493279522.235316) can0 65E#8808ECF98A7F0700
(1493279522.235565) can0 6B8#6D08000000000000
(1493279522.235973) can0 6BC#C2824551324C078E
