(1493280076.243161) can0 1BFC38B1#0000000000000000
(1493280076.243508) can0 1BFC38BB#FFFFFFFFFFFFFFFF
(1493280076.243757) can0 1BFC38BA#535553500000001A
(1493280076.244004) can0 1BFC38B9#070296408005A3F4
(1493280076.244385) can0 1BFC38B8#0000000800000000
(1493280076.244631) can0 1BFC38B7#80016484250202A5
(1493280076.245005) can0 1BFC38B6#000002D6000034A8
(1493280076.245259) can0 1BFC38B5#0502FF9202028292
(1493280076.245632) can0 1BFC38B4#110F01010000A317
(1493280076.245878) can0 1BFC38B3#8001648431005544
(1493280076.246259) can0 1BFC38B2#80016484838300D4
(1493280076.252322) can0 30B#5F00110000000098
(1493280076.260965) can0 1FD#0000000000000000
(1493280076.280203) can0 3C0#6A7E1335
(1493280076.302099) can0 30B#5F00110000000098
(1493280076.320943) can0 1FD#0000000000000000
(1493280076.351577) can0 30B#5F00110000000098
(1493280076.380962) can0 1FD#0000000000000000
(1493280076.383780) can0 3C0#6A7E1335
(1493280076.402058) can0 6C7#04051101020000
(1493280076.402449) can0 30B#5F00110000000098
(1493280076.402560) can0 5F2#CB00
(1493280076.440955) can0 1FD#0000000000000000
(1493280076.451576) can0 30B#5F00110000000098
(1493280076.487298) can0 3C0#6A7E1335
(1493280076.494581) can0 1BFC38B1#0000000000000000
(1493280076.494988) can0 1BFC38BB#FFFFFFFFFFFFFFFF
(1493280076.495169) can0 1BFC38BA#535553500000001A
(1493280076.495560) can0 1BFC38B9#000096408008FC68
(1493280076.495811) can0 1BFC38B8#0000000800000000
(1493280076.496228) can0 1BFC38B7#80016484250202E1
(1493280076.496457) can0 1BFC38B6#000002D900000000
(1493280076.496842) can0 1BFC38B5#0502FF9202028292
(1493280076.497070) can0 1BFC38B4#110F01010000A317
(1493280076.497437) can0 1BFC38B3#8001648431005544
(1493280076.497699) can0 1BFC38B2#80016484838300D4
(1493280076.501114) can0 1FD#0000000000000000
(1493280076.501336) can0 30B#5F00110000000098
(1493280076.501590) can0 65E#88085E78856D0800
(1493280076.512206) can0 62F#445100070E
(1493280076.551599) can0 30B#5F00110000000098
(1493280076.561339) can0 1FD#0000000000000000
(1493280076.591466) can0 3C0#6A7E1335
(1493280076.602124) can0 6C7#04051101020000
(1493280076.602342) can0 30B#5F00110000000098
(1493280076.602588) can0 5F2#CB00
(1493280076.620993) can0 1FD#0000000000000000
(1493280076.651594) can0 30B#5F00110000000098
(1493280076.681003) can0 1FD#0000000000000000
(1493280076.694966) can0 3C0#6A7E1335
(1493280076.702108) can0 30B#5F00110000000098
(1493280076.740977) can0 1FD#0000000000000000
(1493280076.743228) can0 1BFC38B1#0000000000000000
(1493280076.743603) can0 1BFC38BB#FFFFFFFFFFFFFFFF
(1493280076.743840) can0 1BFC38BA#0000000700000014
(1493280076.744230) can0 1BFC38B9#000096408008FC68
(1493280076.744614) can0 1BFC38B8#0000000800000000
(1493280076.744874) can0 1BFC38B7#80016484250202E1
(1493280076.745057) can0 1BFC38B6#000002DB00000000
(1493280076.745511) can0 1BFC38B5#0502FF9202028292
(1493280076.745771) can0 1BFC38B4#110F01010000A317
(1493280076.746101) can0 1BFC38B3#8001648431005544
(1493280076.746347) can0 1BFC38B2#80016484838300D4
(1493280076.752366) can0 30B#5F00110000000098
(1493280076.798737) can0 3C0#6A7E1335
(1493280076.802142) can0 6C7#04051101020000
(1493280076.802367) can0 1FD#0000000000000000
(1493280076.802730) can0 30B#5F00110000000098
(1493280076.802822) can0 5F2#CB00
(1493280076.851615) can0 30B#5F00110000000098
(1493280076.861493) can0 1FD#0000000000000000
(1493280076.902088) can0 30B#5F00110000000098
(1493280076.902953) can0 3C0#6A7E1335
(1493280076.921140) can0 1FD#0000000000000000
(1493280076.951648) can0 30B#5F00110000000098
(1493280076.981018) can0 1FD#0000000000000000
(1493280076.994631) can0 1BFC38B1#0000000000000000
(1493280076.994835) can0 1BFC38BB#FFFFFFFFFFFFFFFF
(1493280076.995248) can0 1BFC38BA#0000000700000014
(1493280076.995467) can0 1BFC38B9#000096408008FC68
(1493280076.995837) can0 1BFC38B8#0000000800000000
(1493280076.996093) can0 1BFC38B7#80016484250202E1
(1493280076.996465) can0 1BFC38B6#000002DE0000A317
(1493280076.996710) can0 1BFC38B5#0502FF9202028292
(1493280076.997089) can0 1BFC38B4#110F01010000A317
(1493280076.997386) can0 1BFC38B3#8001648431007766
(1493280076.997766) can0 1BFC38B2#80016484838380F8
(1493280077.002634) can0 6C7#04051101020000
(1493280077.003020) can0 30B#5F00110000000098
(1493280077.003155) can0 5F2#CB00
(1493280077.003409) can0 643#000200
(1493280077.003626) can0 64E#00A3170000000000
(1493280077.003894) can0 65E#88082F07592B0800
(1493280077.004089) can0 6B8#6D08000000000000
(1493280077.004479) can0 6BC#9A823851324C078E
(1493280077.006857) can0 3C0#6A7E1335
(1493280077.041020) can0 1FD#0000000000000000
(1493280077.051795) can0 30B#5F00110000000098
(1493280077.102297) can0 1FD#0000000000000000
(1493280077.102650) can0 30B#5F00110000000098
(1493280077.110637) can0 3C0#6A7E1335
(1493280077.111336) can0 6B6#390C1C00070E
(1493280077.111611) can0 6B7#BEB4000008FF80FE
(1493280077.151646) can0 30B#5F00110000000098
(1493280077.161394) can0 1FD#0000000000000000
(1493280077.202164) can0 6C7#04051101020000
(1493280077.202391) can0 30B#5F00110000000098
(1493280077.202671) can0 5F2#CB00
(1493280077.214610) can0 3C0#6A7E1335
(1493280077.221156) can0 1FD#0000000000000000
(1493280077.243276) can0 1BFC38B1#0000000000000000
(1493280077.243662) can0 1BFC38BB#FFFFFFFFFFFFFFFF
(1493280077.243917) can0 1BFC38BA#0000000700000014
(1493280077.244305) can0 1BFC38B9#000096408008FC68
(1493280077.244677) can0 1BFC38B8#0000000800000000
(1493280077.244897) can0 1BFC38B7#80016484250202E1
(1493280077.245284) can0 1BFC38B6#000002E002028292
(1493280077.245508) can0 1BFC38B5#0502FF9202028292
(1493280077.245881) can0 1BFC38B4#110F01010000A317
(1493280077.246126) can0 1BFC38B3#8001648431007766
(1493280077.246501) can0 1BFC38B2#80016484838380F8
(1493280077.252500) can0 30B#5F00110000000098
(1493280077.281129) can0 1FD#0000000000000000
(1493280077.302291) can0 30B#5F00110000000098
(1493280077.318490) can0 3C0#6A7E1335
(1493280077.341160) can0 1FD#0000000000000000
(1493280077.351810) can0 30B#5F00110000000098
(1493280077.402161) can0 6C7#04051101020000
(1493280077.402398) can0 1FD#0000000000000000
(1493280077.402788) can0 30B#5F00110000000098
(1493280077.402897) can0 5F2#CB00
(1493280077.421883) can0 3C0#6A7E1335
(1493280077.451794) can0 30B#5F00110000000098
(1493280077.461543) can0 1FD#0000000000000000
(1493280077.494671) can0 1BFC38B1#0000000000000000
(1493280077.494922) can0 1BFC38BB#FFFFFFFFFFFFFFFF
(1493280077.495299) can0 1BFC38BA#0000000700000014
(1493280077.495677) can0 1BFC38B9#010296408005A3F4
(1493280077.495949) can0 1BFC38B8#0000000800000000
(1493280077.496152) can0 1BFC38B7#800164842502021D
(1493280077.496534) can0 1BFC38B6#000002E300000000
(1493280077.496949) can0 1BFC38B5#0502FF9202028292
(1493280077.497167) can0 1BFC38B4#110F01010000A317
(1493280077.497545) can0 1BFC38B3#8001648431007766
(1493280077.497792) can0 1BFC38B2#80016484838380F8
(1493280077.502797) can0 30B#5F00110000000098
(1493280077.503049) can0 65E#8808668588360700
(1493280077.512423) can0 62F#445100070F
(1493280077.521207) can0 1FD#0000000000000000
(1493280077.525418) can0 3C0#6A7E1335
(1493280077.551802) can0 30B#5F00110000000098
(1493280077.581183) can0 1FD#0000000000000000
(1493280077.602183) can0 6C7#04051101020000
(1493280077.602413) can0 30B#5F00110000000098
(1493280077.602693) can0 5F2#CC00
(1493280077.628689) can0 3C0#6A7E1335
(1493280077.641186) can0 1FD#0000000000000000
(1493280077.651843) can0 30B#5F00110000000098
(1493280077.702192) can0 1FD#0000000000000000
(1493280077.702571) can0 30B#5F00110000000098
(1493280077.731910) can0 3C0#6A7E1335
(1493280077.743353) can0 1BFC38B1#0000000000000000
(1493280077.743706) can0 1BFC38BB#FFFFFFFFFFFFFFFF
(1493280077.744026) can0 1BFC38BA#535553500000001A
(1493280077.744321) can0 1BFC38B9#010296408005A3F4
(1493280077.744686) can0 1BFC38B8#0000000800000000
(1493280077.744942) can0 1BFC38B7#800164842502021D
(1493280077.745298) can0 1BFC38B6#000002E500000000
(1493280077.745546) can0 1BFC38B5#0502FF9202028292
(1493280077.745921) can0 1BFC38B4#110F01010000A317
(1493280077.746175) can0 1BFC38B3#8001648431007766
(1493280077.746547) can0 1BFC38B2#80016484838380F8
(1493280077.752599) can0 30B#5F00110000000098
(1493280077.761198) can0 1FD#0000000000000000
(1493280077.802232) can0 6C7#04051101020000
(1493280077.802622) can0 30B#5F00110000000098
(1493280077.802625) can0 5F2#CC00
(1493280077.821201) can0 1FD#0000000000000000
(1493280077.835667) can0 3C0#6A7E1335
(1493280077.851832) can0 30B#5F00110000000098
(1493280077.881210) can0 1FD#0000000000000000
(1493280077.902325) can0 30B#5F00110000000098
(1493280077.939812) can0 3C0#6A7E1335
(1493280077.941207) can0 1FD#0000000000000000
(1493280077.952039) can0 30B#5F00110000000098
(1493280077.994716) can0 1BFC38B1#0000000000000000
(1493280077.994935) can0 1BFC38BB#FFFFFFFFFFFFFFFF
(1493280077.995342) can0 1BFC38BA#535553500000001A
(1493280077.995718) can0 1BFC38B9#010296408005A3F4
(1493280077.995965) can0 1BFC38B8#0000000800000000
(1493280077.996203) can0 1BFC38B7#800164842502021D
(1493280077.996582) can0 1BFC38B6#000002E80000A317
(1493280077.996831) can0 1BFC38B5#0502FF9202028292
(1493280077.997202) can0 1BFC38B4#110F01010000A317
(1493280077.997463) can0 1BFC38B3#800164843240CCBB
(1493280077.997838) can0 1BFC38B2#8001648483830060
(1493280078.002830) can0 6C7#04051101020000
(1493280078.003089) can0 1FD#0000000000000000
(1493280078.003465) can0 30B#5F00110000000098
(1493280078.003539) can0 5F2#CC00
(1493280078.003729) can0 643#000200
(1493280078.004090) can0 64E#00A3170000000000
(1493280078.004300) can0 65E#88088AE570020D00
(1493280078.004683) can0 6B8#6D08000000000000
(1493280078.004806) can0 6BC#9A823851324C0792
(1493280078.043424) can0 3C0#6A7E1335
(1493280078.051859) can0 30B#5F00110000000098
(1493280078.061346) can0 1FD#0000000000000000
(1493280078.102366) can0 30B#5F00110000000098
(1493280078.102847) can0 630#33C203000F000403
(1493280078.102959) can0 631#34D400
(1493280078.103229) can0 62D#3490205300
(1493280078.111479) can0 6B6#390C1C00070F
(1493280078.111728) can0 6B7#BEB4000008FF80FE
(1493280078.121228) can0 1FD#0000000000000000
(1493280078.146989) can0 3C0#6A7E1335
(1493280078.151895) can0 30B#5F00110000000098
(1493280078.181236) can0 1FD#0000000000000000
(1493280078.202250) can0 6C7#04051101020000
(1493280078.202482) can0 30B#5F00110000000098
(1493280078.202754) can0 5F2#CC00
(1493280078.241243) can0 1FD#0000000000000000
(1493280078.243489) can0 1BFC38B1#0000000000000000
(1493280078.243739) can0 1BFC38BB#FFFFFFFFFFFFFFFF
(1493280078.244115) can0 1BFC38BA#535553500000001A
(1493280078.244362) can0 1BFC38B9#010296408005A3F4
(1493280078.244738) can0 1BFC38B8#0000000800000000
(1493280078.244974) can0 1BFC38B7#800164842502021D
(1493280078.245349) can0 1BFC38B6#000002EA000034A8
(1493280078.245735) can0 1BFC38B5#0502FF9202028292
(1493280078.245984) can0 1BFC38B4#110F01010000A317
(1493280078.246234) can0 1BFC38B3#800164843240CCBB
(1493280078.246594) can0 1BFC38B2#8001648483830060
(1493280078.250710) can0 3C0#6A7E1335
(1493280078.252745) can0 30B#5F00110000000098
(1493280078.302408) can0 1FD#0000000000000000
(1493280078.302731) can0 30B#5F00110000000098
(1493280078.351870) can0 30B#5F00110000000098
(1493280078.354626) can0 3C0#6A7E1335
(1493280078.361751) can0 1FD#0000000000000000
(1493280078.402250) can0 6C7#04051101020000
(1493280078.402644) can0 30B#5F00110000000098
(1493280078.402748) can0 5F2#CC00
(1493280078.421257) can0 1FD#0000000000000000
(1493280078.451886) can0 30B#5F00110000000098
(1493280078.458014) can0 3C0#6A7E1335
(1493280078.481261) can0 1FD#0000000000000000
(1493280078.494788) can0 1BFC38B1#0000000000000000
(1493280078.494997) can0 1BFC38BB#FFFFFFFFFFFFFFFF
(1493280078.495384) can0 1BFC38BA#535553500000001A
(1493280078.495761) can0 1BFC38B9#020096408008FC68
(1493280078.495993) can0 1BFC38B8#0000000800000000
(1493280078.496380) can0 1BFC38B7#8001648425020259
(1493280078.496638) can0 1BFC38B6#000002ED00000000
(1493280078.496994) can0 1BFC38B5#0502FF9202028292
(1493280078.497249) can0 1BFC38B4#110F01010000A317
(1493280078.497660) can0 1BFC38B3#800164843240CCBB
(1493280078.497869) can0 1BFC38B2#8001648483830060
(1493280078.502887) can0 30B#5F00110000000098
(1493280078.503268) can0 65E#8808A03572100800
(1493280078.512511) can0 62F#4451000710
(1493280078.541272) can0 1FD#0000000000000000
(1493280078.551893) can0 30B#5F00110000000098
(1493280078.561846) can0 3C0#6A7E1335
(1493280078.602270) can0 6C7#04051101020000
(1493280078.602652) can0 1FD#0000000000000000
(1493280078.602895) can0 30B#5F00110000000098
(1493280078.603003) can0 5F2#CC00
(1493280078.651946) can0 30B#5F00110000000098
(1493280078.661779) can0 1FD#0000000000000000
(1493280078.665901) can0 3C0#6A7E1335
(1493280078.702415) can0 30B#5F00110000000098
(1493280078.721285) can0 1FD#0000000000000000
(1493280078.743534) can0 1BFC38B1#0000000000000000
(1493280078.743783) can0 1BFC38BB#FFFFFFFFFFFFFFFF
(1493280078.744158) can0 1BFC38BA#0000000700000014
(1493280078.744560) can0 1BFC38B9#020096408008FC68
(1493280078.744785) can0 1BFC38B8#0000000800000000
(1493280078.745159) can0 1BFC38B7#8001648425020259
(1493280078.745413) can0 1BFC38B6#000002EF00000000
(1493280078.745806) can0 1BFC38B5#0502FF9202028292
(1493280078.746007) can0 1BFC38B4#110F01010000A317
(1493280078.746417) can0 1BFC38B3#800164843240CCBB
(1493280078.746794) can0 1BFC38B2#8001648483830060
(1493280078.752793) can0 30B#5F00110000000098
(1493280078.769790) can0 3C0#6A7E1335
(1493280078.781315) can0 1FD#0000000000000000
(1493280078.802411) can0 6C7#04051101020000
(1493280078.802690) can0 30B#5F00110000000098
(1493280078.802788) can0 5F2#CC00
(1493280078.841301) can0 1FD#0000000000000000
(1493280078.851935) can0 30B#5F00110000000098
(1493280078.873381) can0 3C0#6A7E1335
(1493280078.902437) can0 1FD#0000000000000000
(1493280078.902683) can0 30B#5F00110000000098
(1493280078.951944) can0 30B#5F00110000000098
(1493280078.961800) can0 1FD#0000000000000000
(1493280078.976798) can0 3C0#6A7E1335
(1493280078.994834) can0 1BFC38B1#0000000000000000
(1493280078.995192) can0 1BFC38BB#FFFFFFFFFFFFFFFF
(1493280078.995414) can0 1BFC38BA#0000000700000014
(1493280078.995786) can0 1BFC38B9#020096408008FC68
(1493280078.996203) can0 1BFC38B8#0000000800000000
(1493280078.996458) can0 1BFC38B7#8001648425020259
(1493280078.996830) can0 1BFC38B6#000002F20000A317
(1493280078.997050) can0 1BFC38B5#0502FF9202028292
(1493280078.997437) can0 1BFC38B4#110F01010000A317
(1493280078.997694) can0 1BFC38B3#8001648431001100
(1493280078.998038) can0 1BFC38B2#80016484838300F6
(1493280079.002959) can0 6C7#04051101020000
(1493280079.003328) can0 30B#5F00110000000098
(1493280079.003422) can0 5F2#CC00
(1493280079.003505) can0 643#000200
(1493280079.003919) can0 64E#00A3170000000000
(1493280079.004205) can0 65E#88081985B69F0B00
(1493280079.004427) can0 6B8#6D08000000000000
(1493280079.004830) can0 6BC#9A823851324C0798
(1493280079.021466) can0 1FD#0000000000000000
(1493280079.051944) can0 30B#5F00110000000098
(1493280079.080047) can0 3C0#6A7E1335
(1493280079.081438) can0 1FD#0000000000000000
(1493280079.102682) can0 30B#5F00110000000098
(1493280079.111569) can0 6B6#390C1C000710
(1493280079.111969) can0 6B7#BEB4000008FF80FE
(1493280079.141447) can0 1FD#0000000000000000
(1493280079.151948) can0 30B#5F00110000000098
(1493280079.183805) can0 3C0#6A7E1335
(1493280079.202464) can0 6C7#04051101020000
(1493280079.202833) can0 1FD#0000000000000000
(1493280079.203096) can0 30B#5F00110000000098
(1493280079.203173) can0 5F2#CC00
(1493280079.243580) can0 1BFC38B1#0000000000000000
(1493280079.243971) can0 1BFC38BB#FFFFFFFFFFFFFFFF
(1493280079.244194) can0 1BFC38BA#0000000700000014
(1493280079.244569) can0 1BFC38B9#020096408008FC68
(1493280079.244813) can0 1BFC38B8#0000000800000000
(1493280079.245193) can0 1BFC38B7#8001648425020259
(1493280079.245446) can0 1BFC38B6#000002F402028292
(1493280079.245813) can0 1BFC38B5#0502FF9202028292
(1493280079.246079) can0 1BFC38B4#110F01010000A317
(1493280079.246446) can0 1BFC38B3#8001648431001100
(1493280079.246817) can0 1BFC38B2#80016484838300F6
(1493280079.252826) can0 30B#5F00110000000098
(1493280079.261459) can0 1FD#0000000000000000
(1493280079.287563) can0 3C0#6A7E1335
(1493280079.302591) can0 30B#5F00110000000098
(1493280079.321458) can0 1FD#0000000000000000
(1493280079.352593) can0 30B#5F00110000000098
(1493280079.371461) can0 64E#00B1040000000000
(1493280079.381471) can0 1FD#0000000000000000
(1493280079.390952) can0 3C0#6A7E1335
(1493280079.402482) can0 6C7#04051101020000
(1493280079.402683) can0 30B#5F00110000000098
(1493280079.402805) can0 5F2#CC00
(1493280079.441476) can0 1FD#0000000000000000
(1493280079.452016) can0 30B#5F00110000000098
(1493280079.494726) can0 3C0#6A7E1335
(1493280079.495302) can0 1BFC38B1#0000000000000000
(1493280079.495559) can0 1BFC38BB#FFFFFFFFFFFFFFFF
(1493280079.495996) can0 1BFC38BA#0000000700000014
(1493280079.496221) can0 1BFC38B9#030296408005A3F4
(1493280079.496627) can0 1BFC38B8#0000000800000000
(1493280079.496857) can0 1BFC38B7#8001648425020295
(1493280079.497248) can0 1BFC38B6#000002F700000000
(1493280079.497496) can0 1BFC38B5#0502FF9202028292
(1493280079.497829) can0 1BFC38B4#110F01010000A317
(1493280079.498078) can0 1BFC38B3#8001648431001100
(1493280079.498455) can0 1BFC38B2#80016484838300F6
(1493280079.501745) can0 1FD#0000000000000000
(1493280079.501939) can0 30B#5F00110000000098
(1493280079.502210) can0 65E#8808506773160600
(1493280079.512733) can0 62F#4451000711
(1493280079.551985) can0 30B#5F00110000000098
(1493280079.561487) can0 1FD#0000000000000000
(1493280079.598610) can0 3C0#6A7E1335
(1493280079.603146) can0 6C7#04051101020000
(1493280079.603371) can0 30B#5F00110000000098
(1493280079.603457) can0 5F2#CC00
(1493280079.621489) can0 1FD#0000000000000000
(1493280079.652033) can0 30B#5F00110000000098
(1493280079.681497) can0 1FD#0000000000000000
(1493280079.702115) can0 3C0#6A7E1335
(1493280079.702838) can0 30B#5F00110000000098
(1493280079.741534) can0 1FD#0000000000000000
(1493280079.743650) can0 1BFC38B1#0000000000000000
(1493280079.744001) can0 1BFC38BB#FFFFFFFFFFFFFFFF
(1493280079.744390) can0 1BFC38BA#535553500000001A
(1493280079.744625) can0 1BFC38B9#030296408005A3F4
(1493280079.745000) can0 1BFC38B8#0000000800000000
(1493280079.745248) can0 1BFC38B7#8001648425020295
(1493280079.745624) can0 1BFC38B6#000002F900000000
(1493280079.746000) can0 1BFC38B5#0502FF9202028292
(1493280079.746248) can0 1BFC38B4#110F01010000A317
(1493280079.746619) can0 1BFC38B3#8001648431001100
(1493280079.746886) can0 1BFC38B2#80016484838300F6
(1493280079.752889) can0 30B#5F00110000000098
(1493280079.802763) can0 6C7#04051101020000
(1493280079.802999) can0 1FD#0000000000000000
(1493280079.803400) can0 30B#5F00110000000098
(1493280079.803403) can0 5F2#CC00
(1493280079.805996) can0 3C0#6A7E1335
(1493280079.852138) can0 30B#5F00110000000098
(1493280079.861639) can0 1FD#0000000000000000
(1493280079.902641) can0 30B#5F00110000000098
(1493280079.909381) can0 3C0#6A7E1335
(1493280079.921518) can0 1FD#0000000000000000
(1493280079.952137) can0 30B#5F00110000000098
(1493280079.981522) can0 1FD#0000000000000000
(1493280079.995020) can0 1BFC38B1#0000000000000000
(1493280079.995259) can0 1BFC38BB#FFFFFFFFFFFFFFFF
(1493280079.995647) can0 1BFC38BA#535553500000001A
(1493280079.995883) can0 1BFC38B9#030296408005A3F4
(1493280079.996271) can0 1BFC38B8#0000000800000000
(1493280079.996521) can0 1BFC38B7#8001648425020295
(1493280079.996894) can0 1BFC38B6#000002FC001F0003
(1493280079.997150) can0 1BFC38B5#0502FF9202028292
(1493280079.997520) can0 1BFC38B4#00010101001F0003
(1493280079.997912) can0 1BFC38B3#8001648431003322
(1493280079.998150) can0 1BFC38B2#800164848383806A
(1493280080.003165) can0 6C7#04051101020000
(1493280080.003369) can0 30B#5F00110000000098
(1493280080.003519) can0 5F2#CC00
(1493280080.003793) can0 643#000200
(1493280080.004016) can0 64E#00B1040000000000
(1493280080.004296) can0 65E#8808CC9370410500
(1493280080.004703) can0 6B8#6D08000000000000
(1493280080.004900) can0 6BC#9A823851324C079D
(1493280080.013148) can0 3C0#6A7E1335
(1493280080.041527) can0 1FD#0000000000000000
(1493280080.052147) can0 30B#5F00110000000098
(1493280080.102659) can0 1FD#0000000000000000
(1493280080.102891) can0 30B#5F00110000000098
(1493280080.103283) can0 630#33C37803E0080272
(1493280080.103397) can0 62D#3491023801
(1493280080.111923) can0 6B6#390C1C000711
(1493280080.112281) can0 6B7#BEB4000008FF80FE
(1493280080.112666) can0 631#34D500
(1493280080.116527) can0 3C0#6A7E1335
(1493280080.152162) can0 30B#5F00110000000098
(1493280080.161663) can0 1FD#0000000000000000
(1493280080.202544) can0 6C7#04051101020000
(1493280080.202773) can0 30B#5F00110000000098
(1493280080.203050) can0 5F2#CC00
(1493280080.220040) can0 3C0#6A7E1335
(1493280080.221533) can0 1FD#0000000000000000
(1493280080.243794) can0 1BFC38B1#0000000000000000
(1493280080.243998) can0 1BFC38BB#FFFFFFFFFFFFFFFF
(1493280080.244416) can0 1BFC38BA#535553500000001A
(1493280080.244650) can0 1BFC38B9#030296408005A3F4
(1493280080.245046) can0 1BFC38B8#0000000800000000
(1493280080.245292) can0 1BFC38B7#8001648425020295
(1493280080.245682) can0 1BFC38B6#000002FE001F34A8
(1493280080.245905) can0 1BFC38B5#0502FF9202028292
(1493280080.246309) can0 1BFC38B4#00010101001F0003
(1493280080.246542) can0 1BFC38B3#8001648431003322
(1493280080.246928) can0 1BFC38B2#800164848383806A
(1493280080.252925) can0 30B#5F00110000000098
(1493280080.281557) can0 1FD#0000000000000000
(1493280080.302702) can0 30B#5F00110000000098
(1493280080.323902) can0 3C0#6A7E1335
(1493280080.341555) can0 1FD#0000000000000000
(1493280080.352176) can0 30B#5F00110000000098
(1493280080.402687) can0 6C7#04051101020000
(1493280080.402920) can0 1FD#0000000000000000
(1493280080.403319) can0 30B#5F00110000000098
(1493280080.403413) can0 5F2#CC00
(1493280080.427294) can0 3C0#6A7E1335
(1493280080.452327) can0 30B#5F00110000000098
(1493280080.461937) can0 1FD#0000000000000000
(1493280080.495068) can0 1BFC38B1#0000000000000000
(1493280080.495309) can0 1BFC38BB#FFFFFFFFFFFFFFFF
(1493280080.495692) can0 1BFC38BA#535553500000001A
(1493280080.495922) can0 1BFC38B9#040096408008FC68
(1493280080.496340) can0 1BFC38B8#0000000800000000
(1493280080.496717) can0 1BFC38B7#80016484A50A02CD
(1493280080.496939) can0 1BFC38B6#0000030100000000
(1493280080.497190) can0 1BFC38B5#0502FF9202028292
(1493280080.497568) can0 1BFC38B4#00010101001F0003
(1493280080.497942) can0 1BFC38B3#8001648431003322
(1493280080.498191) can0 1BFC38B2#800164848383806A
(1493280080.503195) can0 30B#5F00110000000098
(1493280080.503443) can0 65E#88088FE25BDA0500
(1493280080.512833) can0 62F#4451000712
(1493280080.521602) can0 1FD#0000000000000000
(1493280080.530934) can0 3C0#6A7E1335
(1493280080.552227) can0 30B#5F00110000000098
(1493280080.581599) can0 1FD#0000000000000000
(1493280080.602581) can0 6C7#04051101020000
(1493280080.602968) can0 30B#5F00110000000098
(1493280080.602970) can0 5F2#CC00
(1493280080.634662) can0 3C0#6A7E1335
(1493280080.641568) can0 1FD#0000000000000000
(1493280080.644200) can0 4EF#ED982426
(1493280080.652180) can0 30B#5F00110000000098
(1493280080.694482) can0 1E8#F5
(1493280080.702740) can0 1FD#0000000000000000
(1493280080.702960) can0 30B#5F00110000000098
(1493280080.739111) can0 3C0#6A7E1335
(1493280080.743882) can0 1BFC38B1#0000000000000000
(1493280080.744066) can0 1BFC38BB#FFFFFFFFFFFFFFFF
(1493280080.744438) can0 1BFC38BA#0000000700000014
(1493280080.744559) can0 048#FA01823D9D
(1493280080.744859) can0 1BFC38B9#040096408008FC68
(1493280080.745228) can0 1BFC38B8#0000000800000000
(1493280080.745599) can0 1BFC38B7#80016484A50A02CD
(1493280080.745941) can0 1BFC38B6#0000030300000000
(1493280080.746201) can0 1BFC38B5#0502FF9202028292
(1493280080.746447) can0 1BFC38B4#00010101001F0003
(1493280080.746814) can0 1BFC38B3#8001648431003322
(1493280080.747065) can0 1BFC38B2#800164848383806A
(1493280080.752979) can0 30B#5F00110000000098
(1493280080.761741) can0 1FD#0000000000000000
(1493280080.794855) can0 756#6C99270C314BF579
(1493280080.802697) can0 6C7#04051101020000
(1493280080.802988) can0 30B#5F00110000000098
(1493280080.803094) can0 5F2#CC00
(1493280080.821609) can0 1FD#0000000000000000
(1493280080.842467) can0 3C0#6A7E1335
(1493280080.844993) can0 2E3#A06A607309FBDB32
(1493280080.852248) can0 30B#5F00110000000098
(1493280080.881602) can0 1FD#0000000000000000
(1493280080.895115) can0 6B7#742B4959DA897A52
(1493280080.902737) can0 30B#5F00110000000098
(1493280080.941610) can0 1FD#0000000000000000
(1493280080.945213) can0 720#3024
(1493280080.945845) can0 3C0#6A7E1335
(1493280080.952355) can0 30B#5F00110000000098
(1493280080.995149) can0 1BFC38B1#0000000000000000
(1493280080.995349) can0 16E#B6ED
(1493280080.995477) can0 1BFC38BB#FFFFFFFFFFFFFFFF
(1493280080.995717) can0 1BFC38BA#0000000700000014
(1493280080.996234) can0 1BFC38B9#040096408008FC68
(1493280080.996473) can0 1BFC38B8#0000000800000000
(1493280080.996863) can0 1BFC38B7#80016484A50A02CD
(1493280080.997109) can0 1BFC38B6#00000306001F0003
(1493280080.997471) can0 1BFC38B5#0502FF9202028292
(1493280080.997717) can0 1BFC38B4#00010101001F0003
(1493280080.998133) can0 1BFC38B3#8001648432408877
(1493280080.998388) can0 1BFC38B2#8001648483830072
(1493280081.003343) can0 6C7#04051101020000
(1493280081.003606) can0 1FD#0000000000000000
(1493280081.003869) can0 30B#5F00110000000098
(1493280081.003984) can0 5F2#CC00
(1493280081.004251) can0 643#000200
(1493280081.004476) can0 64E#00B1040000000000
(1493280081.004752) can0 65E#88086915718E0800
(1493280081.005092) can0 6B8#6D08000000000000
(1493280081.005329) can0 6BC#9A823851324C07BA
(1493280081.045520) can0 5E6#F1E29718
(1493280081.049706) can0 3C0#6A7E1335
(1493280081.052280) can0 30B#5F00110000000098
(1493280081.061774) can0 1FD#0000000000000000
(1493280081.095786) can0 5A5#3692953AEDE5
(1493280081.102998) can0 30B#5F00110000000098
(1493280081.111870) can0 6B6#390C1C000712
(1493280081.112111) can0 6B7#BEB4000008FF80FE
(1493280081.121665) can0 1FD#0000000000000000
(1493280081.146033) can0 6EB#
(1493280081.152208) can0 30B#5F00110000000098
(1493280081.153599) can0 3C0#6A7E1335
(1493280081.181630) can0 1FD#0000000000000000
(1493280081.196161) can0 0EA#7291DC31CD8B
(1493280081.202755) can0 6C7#04051101020000
(1493280081.203001) can0 30B#5F00110000000098
(1493280081.203258) can0 5F2#CC00
(1493280081.241673) can0 1FD#0000000000000000
(1493280081.243851) can0 1BFC38B1#0000000000000000
(1493280081.244219) can0 1BFC38BB#FFFFFFFFFFFFFFFF
(1493280081.244471) can0 1BFC38BA#0000000700000014
(1493280081.244845) can0 1BFC38B9#040096408008FC68
(1493280081.245091) can0 1BFC38B8#0000000800000000
(1493280081.245490) can0 1BFC38B7#80016484A50A02CD
(1493280081.245862) can0 1BFC38B6#0000030802028292
(1493280081.246093) can0 1BFC38B5#0502FF9202028292
(1493280081.246255) can0 3F1#D7863A
(1493280081.246508) can0 1BFC38B4#00010101001F0003
(1493280081.246891) can0 1BFC38B3#8001648432408877
(1493280081.247270) can0 1BFC38B2#8001648483830072
(1493280081.253145) can0 30B#5F00110000000098
(1493280081.257670) can0 3C0#6A7E1335
(1493280081.296439) can0 7AF#831CBF01CFD68045
(1493280081.302889) can0 1FD#0000000000000000
(1493280081.303121) can0 30B#5F00110000000098
(1493280081.346544) can0 5BD#5675CE
(1493280081.352398) can0 30B#5F00110000000098
(1493280081.361002) can0 3C0#6A7E1335
(1493280081.361986) can0 1FD#0000000000000000
(1493280081.396725) can0 5C5#898D2944AB530954
(1493280081.402769) can0 6C7#04051101020000
(1493280081.403010) can0 30B#5F00110000000098
(1493280081.403120) can0 5F2#CC00
(1493280081.421800) can0 1FD#0000000000000000
(1493280081.446802) can0 1B0#79737C535547EC6E
(1493280081.452401) can0 30B#5F00110000000098
(1493280081.464770) can0 3C0#6A7E1335
(1493280081.481667) can0 1FD#0000000000000000
(1493280081.495126) can0 1BFC38B1#0000000000000000
(1493280081.495489) can0 1BFC38BB#FFFFFFFFFFFFFFFF
(1493280081.495885) can0 1BFC38BA#0000000700000014
(1493280081.496145) can0 1BFC38B9#050296408005A3F4
(1493280081.496528) can0 1BFC38B8#0000000800000000
(1493280081.496789) can0 1BFC38B7#8001648425020209
(1493280081.497042) can0 261#
(1493280081.497045) can0 1BFC38B6#0000030B00000000
(1493280081.497542) can0 1BFC38B5#0502FF9202028292
(1493280081.497791) can0 1BFC38B4#00010101001F0003
(1493280081.498169) can0 1BFC38B3#8001648432408877
(1493280081.498369) can0 1BFC38B2#8001648483830072
(1493280081.503436) can0 30B#5F00110000000098
(1493280081.503653) can0 65E#8808F5A39D5D0B00
(1493280081.512794) can0 62F#4451000713
(1493280081.541686) can0 1FD#0000000000000000
(1493280081.547035) can0 1E0#8E4F6170CAE2766D
(1493280081.552410) can0 30B#5F00110000000098
(1493280081.568882) can0 3C0#6A7E1335
(1493280081.597329) can0 3C3#98
(1493280081.602791) can0 6C7#04051101020000
(1493280081.603031) can0 1FD#0000000000000000
(1493280081.603415) can0 30B#5F00110000000098
(1493280081.603503) can0 5F2#CC00
(1493280081.647437) can0 514#5E6A6F42C3149905
(1493280081.652423) can0 30B#5F00110000000098
(1493280081.662047) can0 1FD#0000000000000000
(1493280081.672165) can0 3C0#6A7E1335
(1493280081.697715) can0 7BA#92
(1493280081.702804) can0 30B#5F00110000000098
(1493280081.721833) can0 1FD#0000000000000000
(1493280081.743930) can0 1BFC38B1#0000000000000000
(1493280081.744301) can0 1BFC38BB#FFFFFFFFFFFFFFFF
(1493280081.744552) can0 1BFC38BA#535553500000001A
(1493280081.744930) can0 1BFC38B9#050296408005A3F4
(1493280081.745179) can0 1BFC38B8#0000000800000000
(1493280081.745567) can0 1BFC38B7#8001648425020209
(1493280081.745803) can0 1BFC38B6#0000030D00000000
(1493280081.746186) can0 1BFC38B5#0502FF9202028292
(1493280081.746445) can0 1BFC38B4#00010101001F0003
(1493280081.746812) can0 1BFC38B3#8001648432408877
(1493280081.747058) can0 1BFC38B2#8001648483830072
(1493280081.747689) can0 795#A3B47C725A3D7C02
(1493280081.753210) can0 30B#5F00110000000098
(1493280081.775536) can0 3C0#6A7E1335
(1493280081.781816) can0 1FD#0000000000000000
(1493280081.797809) can0 3F5#06918556A5ADD504
(1493280081.802836) can0 6C7#04051101020000
(1493280081.803217) can0 30B#5F00110000000098
(1493280081.803323) can0 5F2#CC00
(1493280081.841812) can0 1FD#0000000000000000
(1493280081.847913) can0 2A8#FBF4C173099D1249
(1493280081.852404) can0 30B#5F00110000000098
(1493280081.879281) can0 3C0#6A7E1335
(1493280081.898075) can0 22F#56A68C0110A43D3E
(1493280081.902846) can0 1FD#0000000000000000
(1493280081.903220) can0 30B#5F00110000000098
(1493280081.948200) can0 60A#DA86B42BCE
(1493280081.952482) can0 30B#5F00110000000098
(1493280081.962210) can0 1FD#0000000000000000
(1493280081.983669) can0 3C0#6A7E1335
(1493280081.995361) can0 1BFC38B1#0000000000000000
(1493280081.995710) can0 1BFC38BB#FFFFFFFFFFFFFFFF
(1493280081.996064) can0 1BFC38BA#535553500000001A
(1493280081.996313) can0 1BFC38B9#050296408005A3F4
(1493280081.996720) can0 1BFC38B8#0000000800000000
(1493280081.997090) can0 1BFC38B7#8001648425020209
(1493280081.997291) can0 1BFC38B6#00000310001F0003
(1493280081.997556) can0 1BFC38B5#0502FF9202028292
(1493280081.997930) can0 1BFC38B4#00010101001F0003
(1493280081.998179) can0 1BFC38B3#800164843100DDCC
(1493280081.998444) can0 6E6#8359
(1493280081.998538) can0 1BFC38B2#80016484838300F8
(1493280082.001856) can0 6C7#04051101020000
(1493280082.002090) can0 30B#5F00110000000098
(1493280082.002359) can0 5F2#CC00
(1493280082.002454) can0 643#000200
(1493280082.002682) can0 64E#00B1040000000000
(1493280082.003054) can0 65E#8808B2C69EE90600
(1493280082.003316) can0 6B8#6D08000000000000
(1493280082.003542) can0 6BC#9A823851324C0701
(1493280082.022199) can0 1FD#0000000000000000
(1493280082.048592) can0 2E1#BD
(1493280082.052454) can0 30B#5F00110000000098
(1493280082.081833) can0 1FD#0000000000000000
(1493280082.087078) can0 3C0#6A7E1335
(1493280082.098864) can0 2C2#13E8BA0857124302
(1493280082.103082) can0 30B#5F00110000000098
(1493280082.103352) can0 630#33C414
(1493280082.103689) can0 631#34D602
(1493280082.112130) can0 6B6#390C1C000713
(1493280082.112504) can0 6B7#BEB4000008FF80FE
(1493280082.112831) can0 62D#349220C900
(1493280082.141840) can0 1FD#0000000000000000
(1493280082.148974) can0 538#B24FBF042DD9
(1493280082.152463) can0 30B#5F00110000000098
(1493280082.190336) can0 3C0#6A7E1335
(1493280082.199077) can0 6E3#D28632108B914545
(1493280082.203001) can0 6C7#04051101020000
(1493280082.203220) can0 1FD#0000000000000000
(1493280082.203572) can0 30B#5F00110000000098
(1493280082.203670) can0 5F2#CC00
(1493280082.244099) can0 1BFC38B1#0000000000000000
(1493280082.244335) can0 1BFC38BB#FFFFFFFFFFFFFFFF
(1493280082.244589) can0 1BFC38BA#535553500000001A
(1493280082.244972) can0 1BFC38B9#050296408005A3F4
(1493280082.245347) can0 1BFC38B8#0000000800000000
(1493280082.245597) can0 1BFC38B7#8001648425020209
(1493280082.245981) can0 1BFC38B6#00000312001F34A8
(1493280082.246262) can0 1BFC38B5#0502FF9202028292
(1493280082.246621) can0 1BFC38B4#00010101001F0003
(1493280082.246856) can0 1BFC38B3#800164843100DDCC
(1493280082.247233) can0 1BFC38B2#80016484838300F8
(1493280082.249053) can0 537#952E580E67EF5A3D
(1493280082.253252) can0 30B#5F00110000000098
(1493280082.261977) can0 1FD#0000000000000000
(1493280082.294065) can0 3C0#6A7E1335
(1493280082.299348) can0 60B#7793987B15BC8272
(1493280082.303100) can0 30B#5F00110000000098
(1493280082.321852) can0 1FD#0000000000000000
(1493280082.349494) can0 2D0#E3
(1493280082.352486) can0 30B#5F00110000000098
(1493280082.381862) can0 1FD#0000000000000000
(1493280082.397355) can0 3C0#6A7E1335
(1493280082.399606) can0 7C4#B055A571A5FA
(1493280082.402893) can0 6C7#04051101020000
(1493280082.403250) can0 30B#5F00110000000098
(1493280082.403365) can0 5F2#CC00
(1493280082.441832) can0 1FD#0000000000000000
(1493280082.449766) can0 347#418D9E150AA6EE5D
(1493280082.452507) can0 30B#5F00110000000098
(1493280082.495371) can0 1BFC38B1#0000000000000000
(1493280082.495594) can0 1BFC38BB#FFFFFFFFFFFFFFFF
(1493280082.496023) can0 1BFC38BA#535553500000001A
(1493280082.496237) can0 1BFC38B9#060096408008FC68
(1493280082.496617) can0 1BFC38B8#0000000800000000
(1493280082.496870) can0 1BFC38B7#8001648425020245
(1493280082.497242) can0 1BFC38B6#0000031500000000
(1493280082.497511) can0 1BFC38B5#0502FF9202028292
(1493280082.497879) can0 1BFC38B4#00010101001F0003
(1493280082.498134) can0 1BFC38B3#800164843100DDCC
(1493280082.498508) can0 1BFC38B2#80016484838300F8
(1493280082.499819) can0 2BD#61B83160
(1493280082.501229) can0 3C0#6A7E1335
(1493280082.503633) can0 1FD#0000000000000000
(1493280082.503891) can0 30B#5F00110000000098
(1493280082.504129) can0 65E#8808364559CF0900
(1493280082.513246) can0 62F#4451000714
(1493280082.550122) can0 20A#22C1DD
(1493280082.552499) can0 30B#5F00110000000098
(1493280082.562256) can0 1FD#0000000000000000
(1493280082.600272) can0 0CB#7982B410
(1493280082.602881) can0 6C7#04051101020000
(1493280082.603238) can0 30B#5F00110000000098
(1493280082.603371) can0 5F2#CC00
(1493280082.604612) can0 3C0#6A7E1335
(1493280082.621881) can0 1FD#0000000000000000
(1493280082.650398) can0 3C2#6ABDD702CD61336E
(1493280082.652512) can0 30B#5F00110000000098
(1493280082.681911) can0 1FD#0000000000000000
(1493280082.700523) can0 5FA#E2
(1493280082.703140) can0 30B#5F00110000000098
(1493280082.708413) can0 3C0#6A7E1335
(1493280082.712421) can0 64E#00A4520000000000
(1493280082.741893) can0 1FD#0000000000000000
(1493280082.744155) can0 1BFC38B1#0000000000000000
(1493280082.744393) can0 1BFC38BB#FFFFFFFFFFFFFFFF
(1493280082.744768) can0 1BFC38BA#0000000700000014
(1493280082.745155) can0 1BFC38B9#060096408008FC68
(1493280082.745392) can0 1BFC38B8#0000000800000000
(1493280082.745648) can0 1BFC38B7#8001648425020245
(1493280082.746032) can0 1BFC38B6#0000031700000000
(1493280082.746265) can0 1BFC38B5#0502FF9202028292
(1493280082.746647) can0 1BFC38B4#00010101001F0003
(1493280082.746911) can0 1BFC38B3#800164843100DDCC
(1493280082.747279) can0 1BFC38B2#80016484838300F8
(1493280082.750674) can0 332#81F2C246F67A
(1493280082.753396) can0 30B#5F00110000000098
(1493280082.800944) can0 32C#9C
(1493280082.803529) can0 6C7#04051101020000
(1493280082.803925) can0 1FD#0000000000000000
(1493280082.804150) can0 30B#5F00110000000098
(1493280082.804224) can0 5F2#CC00
(1493280082.812414) can0 3C0#6A7E1335
(1493280082.851153) can0 69F#7EF4692F5C398C0A
(1493280082.852528) can0 30B#5F00110000000098
(1493280082.862183) can0 1FD#0000000000000000
(1493280082.901315) can0 031#51210D0D3B8A8E08
(1493280082.903561) can0 30B#5F00110000000098
(1493280082.915624) can0 3C0#6A7E1335
(1493280082.921909) can0 1FD#0000000000000000
(1493280082.951422) can0 4F3#297BFD
(1493280082.952941) can0 30B#5F00110000000098
(1493280082.981915) can0 1FD#0000000000000000
(1493280082.995667) can0 1BFC38B1#0000000000000000
(1493280082.996037) can0 1BFC38BB#FFFFFFFFFFFFFFFF
(1493280082.996433) can0 1BFC38BA#0000000700000014
(1493280082.996652) can0 1BFC38B9#060096408008FC68
(1493280082.997035) can0 1BFC38B8#0000000800000000
(1493280082.997329) can0 1BFC38B7#8001648425020245
(1493280082.997681) can0 1BFC38B6#0000031A0000A452
(1493280082.997912) can0 1BFC38B5#0502FF9202028292
(1493280082.998297) can0 1BFC38B4#110F01010000A452
(1493280082.998558) can0 1BFC38B3#800164843100FFEE
(1493280082.998935) can0 1BFC38B2#800164848383807C
(1493280083.001697) can0 267#C16B3F
(1493280083.002162) can0 6C7#04051101020000
(1493280083.002419) can0 30B#5F00110000000098
(1493280083.002679) can0 5F2#CC00
(1493280083.002749) can0 643#000200
(1493280083.003144) can0 64E#00A4520000000000
(1493280083.003408) can0 65E#88088D768AD00800
(1493280083.003660) can0 6B8#6D08000000000000
(1493280083.003914) can0 6BC#9A823851324C0702
(1493280083.019134) can0 3C0#6A7E1335
(1493280083.041929) can0 1FD#0000000000000000
(1493280083.051791) can0 6B1#F64F3349AB34B032
(1493280083.052701) can0 30B#5F00110000000098
(1493280083.101927) can0 20C#768574633FE54421
(1493280083.103422) can0 1FD#0000000000000000
(1493280083.103653) can0 30B#5F00110000000098
(1493280083.112300) can0 6B6#390C1C000714
(1493280083.112675) can0 6B7#BEB4000008FF80FE
(1493280083.122796) can0 3C0#6A7E1335
(1493280083.152042) can0 19F#3560D94CCBBCE6
(1493280083.152676) can0 30B#5F00110000000098
(1493280083.162054) can0 1FD#0000000000000000
(1493280083.202199) can0 028#3F
(1493280083.203206) can0 6C7#04051101020000
(1493280083.203435) can0 30B#5F00110000000098
(1493280083.203672) can0 5F2#CC00
(1493280083.221948) can0 1FD#0000000000000000
(1493280083.226547) can0 3C0#6A7E1335
(1493280083.244184) can0 1BFC38B1#0000000000000000
(1493280083.244558) can0 1BFC38BB#FFFFFFFFFFFFFFFF
(1493280083.244826) can0 1BFC38BA#0000000700000014
(1493280083.245184) can0 1BFC38B9#060096408008FC68
(1493280083.245433) can0 1BFC38B8#0000000800000000
(1493280083.245825) can0 1BFC38B7#8001648425020245
(1493280083.246166) can0 1BFC38B6#0000031C02028292
(1493280083.246423) can0 1BFC38B5#0502FF9202028292
(1493280083.246669) can0 1BFC38B4#110F01010000A452
(1493280083.247048) can0 1BFC38B3#800164843100FFEE
(1493280083.247417) can0 1BFC38B2#800164848383807C
(1493280083.252359) can0 0AE#23607978DF508047
(1493280083.253436) can0 30B#5F00110000000098
(1493280083.281946) can0 1FD#0000000000000000
(1493280083.302456) can0 49D#1BDB0E50
(1493280083.303187) can0 30B#5F00110000000098
(1493280083.330024) can0 3C0#6A7E1335
(1493280083.341953) can0 1FD#0000000000000000
(1493280083.352651) can0 3E7#4EFFB678
(1493280083.352820) can0 30B#5F00110000000098
(1493280083.402713) can0 3E7#
(1493280083.403074) can0 6C7#04051101020000
(1493280083.403484) can0 1FD#0000000000000000
(1493280083.403698) can0 30B#5F00110000000098
(1493280083.403816) can0 5F2#CC00
(1493280083.433570) can0 3C0#6A7E1335
(1493280083.452676) can0 43B#44372D3F480E956B
(1493280083.452679) can0 30B#5F00110000000098
(1493280083.462237) can0 1FD#0000000000000000
(1493280083.495472) can0 1BFC38B1#0000000000000000
(1493280083.495834) can0 1BFC38BB#FFFFFFFFFFFFFFFF
(1493280083.496248) can0 1BFC38BA#0000000700000014
(1493280083.496457) can0 1BFC38B9#070296408005A3F4
(1493280083.496834) can0 1BFC38B8#0000000000000000
(1493280083.497206) can0 1BFC38B7#800164842502027F
(1493280083.497476) can0 1BFC38B6#0000031F00000000
(1493280083.497708) can0 1BFC38B5#0502FF9202028292
(1493280083.498084) can0 1BFC38B4#110F01010000A452
(1493280083.498335) can0 1BFC38B3#800164843100FFEE
(1493280083.498707) can0 1BFC38B2#800164848383807C
(1493280083.502821) can0 248#87F3D90CE703E33E
(1493280083.503828) can0 30B#5F00110000000098
(1493280083.504200) can0 65E#8808FB1371310B00
(1493280083.513353) can0 62F#4451000715
(1493280083.521996) can0 1FD#0000000000000000
(1493280083.537467) can0 3C0#6A7E1335
(1493280083.552725) can0 30B#5F00110000000098
(1493280083.553169) can0 4B1#B2C0C97DDAF4782F
(1493280083.581961) can0 1FD#0000000000000000
(1493280083.603204) can0 18E#A11B
(1493280083.603206) can0 6C7#04051101020000
(1493280083.603632) can0 30B#5F00110000000098
(1493280083.603830) can0 5F2#CC00
(1493280083.640717) can0 3C0#6A7E1335
(1493280083.642053) can0 1FD#0000000000000000
(1493280083.652711) can0 30B#5F00110000000098
(1493280083.653394) can0 3AF#1C5395014C
(1493280083.703230) can0 1FD#0000000000000000
(1493280083.703469) can0 539#DCD953612161D7
(1493280083.703472) can0 30B#5F00110000000098
(1493280083.744219) can0 1BFC38B1#0000000000000000
(1493280083.744598) can0 1BFC38BB#FFFFFFFFFFFFFFFF
(1493280083.744870) can0 3C0#6A7E1335
(1493280083.744874) can0 1BFC38BA#535553500000001A
(1493280083.745238) can0 1BFC38B9#070296408005A3F4
(1493280083.745609) can0 1BFC38B8#0000000000000000
(1493280083.745988) can0 1BFC38B7#800164842502027F
(1493280083.746191) can0 1BFC38B6#0000032100000000
(1493280083.746568) can0 1BFC38B5#0502FF9202028292
(1493280083.746819) can0 1BFC38B4#110F01010000A452
(1493280083.747214) can0 1BFC38B3#800164843100FFEE
(1493280083.747586) can0 1BFC38B2#800164848383807C
(1493280083.753496) can0 30B#5F00110000000098
(1493280083.753741) can0 47B#70EF431563D86E7E
(1493280083.762359) can0 1FD#0000000000000000
(1493280083.803249) can0 6C7#04051101020000
(1493280083.803451) can0 30B#5F00110000000098
(1493280083.803566) can0 5F2#CC00
(1493280083.803921) can0 43B#FCDAEB0A76D80E3D
(1493280083.822110) can0 1FD#0000000000000000
(1493280083.848473) can0 3C0#6A7E1335
(1493280083.852753) can0 30B#5F00110000000098
(1493280083.853890) can0 057#
(1493280083.882119) can0 1FD#0000000000000000
(1493280083.903246) can0 30B#5F00110000000098
(1493280083.903993) can0 6FB#8676BC2DAC
(1493280083.942130) can0 1FD#0000000000000000
(1493280083.951841) can0 3C0#6A7E1335
(1493280083.952750) can0 30B#5F00110000000098
(1493280083.954332) can0 602#86F80C699057C370
(1493280083.995532) can0 1BFC38B1#0000000000000000
(1493280083.995876) can0 1BFC38BB#FFFFFFFFFFFFFFFF
(1493280083.996255) can0 1BFC38BA#535553500000001A
(1493280083.996504) can0 1BFC38B9#070296408005A3F4
(1493280083.996755) can0 1BFC38B8#0000000000000000
(1493280083.997128) can0 1BFC38B7#800164842502027F
(1493280083.997379) can0 1BFC38B6#000003240000A452
(1493280083.997765) can0 1BFC38B5#0502FF9202028292
(1493280083.998005) can0 1BFC38B4#110F01010000A452
(1493280083.998391) can0 1BFC38B3#8001648432404433
(1493280083.998593) can0 1BFC38B2#8001648483830064
(1493280084.003770) can0 6C7#04051101020000
(1493280084.003957) can0 1FD#0000000000000000
(1493280084.004279) can0 32B#CC59D82ADACEA907
(1493280084.004282) can0 30B#5F00110000000098
(1493280084.004511) can0 5F2#CC00
(1493280084.004908) can0 643#000200
(1493280084.005284) can0 64E#00A4520000000000
(1493280084.005403) can0 65E#880874956E480A00
(1493280084.005784) can0 6B8#6D08000000000000
(1493280084.006044) can0 6BC#9A823851324C0718
(1493280084.052766) can0 30B#5F00110000000098
(1493280084.054331) can0 7ED#27470925268DB837
(1493280084.055218) can0 3C0#6A7E1335
(1493280084.062415) can0 1FD#0000000000000000
(1493280084.103263) can0 30B#5F00110000000098
(1493280084.103790) can0 630#33CE1300
(1493280084.103964) can0 631#34C2030013000301
(1493280084.104264) can0 62D#349302E900
(1493280084.104517) can0 31F#47EE8F
(1493280084.112504) can0 6B6#390C1C000715
(1493280084.112754) can0 6B7#BEB4000008FF80FE
(1493280084.122130) can0 1FD#0000000000000000
(1493280084.152766) can0 30B#5F00110000000098
(1493280084.154641) can0 22E#FE373172693E69
(1493280084.158721) can0 3C0#6A7E1335
(1493280084.182181) can0 1FD#0000000000000000
(1493280084.203270) can0 6C7#04051101020000
(1493280084.203381) can0 30B#5F00110000000098
(1493280084.203642) can0 5F2#CC00
(1493280084.204767) can0 1A0#E016786AF781D419
(1493280084.242186) can0 1FD#0000000000000000
(1493280084.244231) can0 1BFC38B1#0000000000000000
(1493280084.244623) can0 1BFC38BB#FFFFFFFFFFFFFFFF
(1493280084.244899) can0 1BFC38BA#535553500000001A
(1493280084.245274) can0 1BFC38B9#070296408005A3F4
(1493280084.245650) can0 1BFC38B8#0000000000000000
(1493280084.245935) can0 1BFC38B7#800164842502027F
(1493280084.246288) can0 1BFC38B6#00000326000034A8
(1493280084.246525) can0 1BFC38B5#0502FF9202028292
(1493280084.246914) can0 1BFC38B4#110F01010000A452
(1493280084.247140) can0 1BFC38B3#8001648432404433
(1493280084.247504) can0 1BFC38B2#8001648483830064
(1493280084.253533) can0 30B#5F00110000000098
(1493280084.254804) can0 53A#97F4AD0835F4F033
(1493280084.262792) can0 3C0#6A7E1335
(1493280084.303287) can0 1FD#0000000000000000
(1493280084.303517) can0 30B#5F00110000000098
(1493280084.304901) can0 7E4#E2F7846DE605CB57
(1493280084.352815) can0 30B#5F00110000000098
(1493280084.355176) can0 256#765D8E4881A5A21B
(1493280084.362665) can0 1FD#0000000000000000
(1493280084.366435) can0 3C0#6A7E1335
(1493280084.403289) can0 6C7#04051101020000
(1493280084.403532) can0 30B#5F00110000000098
(1493280084.403645) can0 5F2#CC00
(1493280084.405466) can0 490#5C74
(1493280084.422175) can0 1FD#0000000000000000
(1493280084.452809) can0 30B#5F00110000000098
(1493280084.455597) can0 42B#A42110
(1493280084.469793) can0 3C0#6A7E1335
(1493280084.482173) can0 1FD#0000000000000000
(1493280084.495674) can0 1BFC38B1#0000000000000000
(1493280084.495920) can0 1BFC38BB#FFFFFFFFFFFFFFFF
(1493280084.496307) can0 1BFC38BA#535553500000001A
(1493280084.496528) can0 1BFC38B9#000096408008FC68
(1493280084.496923) can0 1BFC38B8#0000000800000000
(1493280084.497315) can0 1BFC38B7#80016484250202BB
(1493280084.497551) can0 1BFC38B6#0000032900000000
(1493280084.497807) can0 1BFC38B5#0502FF9202028292
(1493280084.498184) can0 1BFC38B4#110F01010000A452
(1493280084.498426) can0 1BFC38B3#8001648432404433
(1493280084.498803) can0 1BFC38B2#8001648483830064
(1493280084.503936) can0 30B#5F00110000000098
(1493280084.504155) can0 65E#8808FC6382CB0C00
(1493280084.505586) can0 486#E59EA811B5D61A2F
(1493280084.513298) can0 62F#4451000716
(1493280084.542179) can0 1FD#0000000000000000
(1493280084.552806) can0 30B#5F00110000000098
(1493280084.555682) can0 5A3#1E1584
(1493280084.573016) can0 3C0#6A7E1335
(1493280084.603308) can0 6C7#04051101020000
(1493280084.603693) can0 1FD#0000000000000000
(1493280084.603900) can0 30B#5F00110000000098
(1493280084.604069) can0 5F2#CC00
(1493280084.605852) can0 1DD#3AB9CC19180F2D48
(1493280084.652814) can0 30B#5F00110000000098
(1493280084.656077) can0 19D#4D
(1493280084.662438) can0 1FD#0000000000000000
(1493280084.676296) can0 3C0#6A7E1335
(1493280084.703351) can0 30B#5F00110000000098
(1493280084.706102) can0 0EF#67077D7A45BBD53A
(1493280084.722194) can0 1FD#0000000000000000
(1493280084.744447) can0 1BFC38B1#0000000000000000
(1493280084.744684) can0 1BFC38BB#FFFFFFFFFFFFFFFF
(1493280084.745062) can0 1BFC38BA#0000000700000014
(1493280084.745312) can0 1BFC38B9#000096408008FC68
(1493280084.745677) can0 1BFC38B8#0000000800000000
(1493280084.745938) can0 1BFC38B7#80016484250202BB
(1493280084.746319) can0 1BFC38B6#0000032B00000000
(1493280084.746530) can0 1BFC38B5#0502FF9202028292
(1493280084.746911) can0 1BFC38B4#110F01010000A452
(1493280084.747282) can0 1BFC38B3#8001648432404433
(1493280084.747559) can0 1BFC38B2#8001648483830064
(1493280084.753570) can0 30B#5F00110000000098
(1493280084.756347) can0 398#C760785628F0391D
(1493280084.779818) can0 3C0#6A7E1335
(1493280084.782234) can0 1FD#0000000000000000
(1493280084.803325) can0 6C7#04051101020000
(1493280084.803567) can0 30B#5F00110000000098
(1493280084.803794) can0 5F2#CC00
(1493280084.806295) can0 41F#A68491
(1493280084.842208) can0 1FD#0000000000000000
(1493280084.852826) can0 30B#5F00110000000098
(1493280084.856622) can0 0A6#95BF2C742C6DCD10
(1493280084.883461) can0 3C0#6A7E1335
(1493280084.903461) can0 1FD#0000000000000000
(1493280084.903677) can0 30B#5F00110000000098
(1493280084.906690) can0 635#E143E83FD8A3B519
(1493280084.952842) can0 30B#5F00110000000098
(1493280084.956804) can0 55E#
(1493280084.962717) can0 1FD#0000000000000000
(1493280084.987304) can0 3C0#6A7E1335
(1493280084.995826) can0 1BFC38B1#0000000000000000
(1493280084.996094) can0 1BFC38BB#FFFFFFFFFFFFFFFF
(1493280084.996492) can0 1BFC38BA#0000000700000014
(1493280084.996747) can0 1BFC38B9#000096408008FC68
(1493280084.997100) can0 1BFC38B8#0000000800000000
(1493280084.997484) can0 1BFC38B7#80016484250202BB
(1493280084.997744) can0 1BFC38B6#0000032E0000A452
(1493280084.998072) can0 1BFC38B5#0502FF9202028292
(1493280084.998323) can0 1BFC38B4#110F01010000A452
(1493280084.998695) can0 1BFC38B3#8001648431009988
(1493280084.998959) can0 1BFC38B2#80016484838300BA
(1493280085.002230) can0 6C7#04051101020000
(1493280085.002485) can0 30B#5F00110000000098
(1493280085.002700) can0 5F2#CC00
(1493280085.002824) can0 643#000200
(1493280085.003083) can0 64E#00A4520000000000
(1493280085.003449) can0 65E#8808CC86548E0800
(1493280085.003705) can0 6B8#6D08000000000000
(1493280085.003961) can0 6BC#9A823851324C077E
(1493280085.006997) can0 4FE#532ED3529BAE
(1493280085.022345) can0 1FD#0000000000000000
(1493280085.052851) can0 30B#5F00110000000098
(1493280085.057138) can0 227#1C
(1493280085.082393) can0 1FD#0000000000000000
(1493280085.091060) can0 3C0#6A7E1335
(1493280085.103505) can0 30B#5F00110000000098
(1493280085.107195) can0 4D0#5C16B0
(1493280085.112482) can0 6B6#390C1C000716
(1493280085.112723) can0 6B7#BEB4000008FF80FE
(1493280085.142245) can0 1FD#0000000000000000
(1493280085.152870) can0 30B#5F00110000000098
(1493280085.157383) can0 460#910803
(1493280085.194734) can0 3C0#6A7E1335
(1493280085.203361) can0 6C7#04051101020000
(1493280085.203613) can0 1FD#0000000000000000
(1493280085.203847) can0 30B#5F00110000000098
(1493280085.203954) can0 5F2#CC00
(1493280085.207502) can0 446#CAB8732AECDC07
(1493280085.244493) can0 1BFC38B1#0000000000000000
(1493280085.244730) can0 1BFC38BB#FFFFFFFFFFFFFFFF
(1493280085.245117) can0 1BFC38BA#0000000700000014
(1493280085.245352) can0 1BFC38B9#000096408008FC68
(1493280085.245737) can0 1BFC38B8#0000000800000000
(1493280085.245989) can0 1BFC38B7#80016484250202BB
(1493280085.246364) can0 1BFC38B6#0000033002028292
(1493280085.246741) can0 1BFC38B5#0502FF9202028292
(1493280085.246987) can0 1BFC38B4#110F01010000A452
(1493280085.247357) can0 1BFC38B3#8001648431009988
(1493280085.247600) can0 1BFC38B2#80016484838300BA
(1493280085.253742) can0 30B#5F00110000000098
(1493280085.257621) can0 381#184AD50CB6E97760
(1493280085.262366) can0 1FD#0000000000000000
(1493280085.298615) can0 3C0#6A7E1335
(1493280085.303526) can0 30B#5F00110000000098
(1493280085.307713) can0 6DA#8F8D2D7A380C252E
(1493280085.322371) can0 1FD#0000000000000000
(1493280085.353002) can0 30B#5F00110000000098
(1493280085.358040) can0 6FA#732BCB38F86B924C
(1493280085.382377) can0 1FD#0000000000000000
(1493280085.402114) can0 3C0#6A7E1335
(1493280085.403502) can0 6C7#04051101020000
(1493280085.403753) can0 30B#5F00110000000098
(1493280085.403984) can0 5F2#CC00
(1493280085.408157) can0 500#941A130A283F4B
(1493280085.442395) can0 1FD#0000000000000000
(1493280085.453013) can0 30B#5F00110000000098
(1493280085.458388) can0 368#
(1493280085.495797) can0 1BFC38B1#0000000000000000
(1493280085.496143) can0 1BFC38BB#FFFFFFFFFFFFFFFF
(1493280085.496385) can0 1BFC38BA#0000000700000014
(1493280085.496764) can0 1BFC38B9#010296408005A3F4
(1493280085.497130) can0 1BFC38B8#0000000000000000
(1493280085.497394) can0 1BFC38B7#80016484250202F7
(1493280085.497789) can0 1BFC38B6#0000033300000000
(1493280085.498012) can0 1BFC38B5#0502FF9202028292
(1493280085.498395) can0 1BFC38B4#110F01010000A452
(1493280085.498647) can0 1BFC38B3#8001648431009988
(1493280085.499026) can0 1BFC38B2#80016484838300BA
(1493280085.503977) can0 1FD#0000000000000000
(1493280085.504379) can0 30B#5F00110000000098
(1493280085.504646) can0 65E#88081547A7E60800
(1493280085.505982) can0 3C0#6A7E1335
(1493280085.508407) can0 234#A1D0EC0B949EB062
(1493280085.513638) can0 62F#4451000717
(1493280085.552924) can0 30B#5F00110000000098
(1493280085.558516) can0 7BD#14D7
(1493280085.562906) can0 1FD#0000000000000000
(1493280085.603429) can0 6C7#04051101020000
(1493280085.603648) can0 30B#5F00110000000098
(1493280085.603770) can0 5F2#CC00
(1493280085.608641) can0 669#EF50F32BEA99BA42
(1493280085.609634) can0 3C0#6A7E1335
(1493280085.622430) can0 1FD#0000000000000000
(1493280085.653028) can0 30B#5F00110000000098
(1493280085.658778) can0 03E#A083322318DF6724
(1493280085.682404) can0 1FD#0000000000000000
(1493280085.703404) can0 30B#5F00110000000098
(1493280085.708904) can0 102#50EB8C52FC0FB06E
(1493280085.713269) can0 3C0#6A7E1335
(1493280085.742418) can0 1FD#0000000000000000
(1493280085.744532) can0 1BFC38B1#0000000000000000
(1493280085.744908) can0 1BFC38BB#FFFFFFFFFFFFFFFF
(1493280085.745151) can0 1BFC38BA#535553500000001A
(1493280085.745503) can0 1BFC38B9#010296408005A3F4
(1493280085.745750) can0 1BFC38B8#0000000000000000
(1493280085.746114) can0 1BFC38B7#80016484250202F7
(1493280085.746375) can0 1BFC38B6#0000033500000000
(1493280085.746732) can0 1BFC38B5#0502FF9202028292
(1493280085.746997) can0 1BFC38B4#110F01010000A452
(1493280085.747362) can0 1BFC38B3#8001648431009988
(1493280085.747611) can0 1BFC38B2#80016484838300BA
(1493280085.753789) can0 30B#5F00110000000098
(1493280085.803403) can0 6C7#04051101020000
(1493280085.803648) can0 1FD#0000000000000000
(1493280085.804040) can0 30B#5F00110000000098
(1493280085.804138) can0 5F2#CC00
(1493280085.817408) can0 3C0#6A7E1335
(1493280085.853052) can0 30B#5F00110000000098
(1493280085.862799) can0 1FD#0000000000000000
(1493280085.903464) can0 30B#5F00110000000098
(1493280085.921435) can0 3C0#6A7E1335
(1493280085.922388) can0 1FD#0000000000000000
(1493280085.953087) can0 30B#5F00110000000098
(1493280085.982433) can0 1FD#0000000000000000
(1493280085.995837) can0 1BFC38B1#0000000000000000
(1493280085.996179) can0 1BFC38BB#FFFFFFFFFFFFFFFF
(1493280085.996428) can0 1BFC38BA#535553500000001A
(1493280085.996796) can0 1BFC38B9#010296408005A3F4
(1493280085.997047) can0 1BFC38B8#0000000000000000
(1493280085.997459) can0 1BFC38B7#80016484250202F7
(1493280085.997846) can0 1BFC38B6#000003380000A452
(1493280085.998058) can0 1BFC38B5#0502FF9202028292
(1493280085.998422) can0 1BFC38B4#110F01010000A452
(1493280085.998669) can0 1BFC38B3#800164843100BBAA
(1493280085.998950) can0 1BFC38B2#800164848383802E
(1493280086.004042) can0 6C7#04051101020000
(1493280086.004335) can0 30B#5F00110000000098
(1493280086.004409) can0 5F2#CC00
(1493280086.004676) can0 643#000200
(1493280086.004913) can0 64E#00A4520000000000
(1493280086.005286) can0 65E#880857F87A570800
(1493280086.005582) can0 6B8#6D08000000000000
(1493280086.005819) can0 6BC#9A823851324C078E
(1493280086.025136) can0 3C0#6A7E1335
(1493280086.042412) can0 1FD#0000000000000000
(1493280086.053076) can0 30B#5F00110000000098
(1493280086.103570) can0 1FD#0000000000000000
(1493280086.103812) can0 30B#5F00110000000098
(1493280086.104046) can0 630#33CF00
(1493280086.104318) can0 631#34C37807FE000000
(1493280086.104567) can0 62D#3482030012000300
(1493280086.112566) can0 6B6#390C1C000717
(1493280086.112944) can0 6B7#BEB4000008FF80FE
(1493280086.128944) can0 3C0#6A7E1335
(1493280086.153073) can0 30B#5F00110000000098
(1493280086.162575) can0 1FD#0000000000000000
(1493280086.203454) can0 6C7#04051101020000
(1493280086.203689) can0 30B#5F00110000000098
(1493280086.203935) can0 5F2#CC00
(1493280086.222437) can0 1FD#0000000000000000
(1493280086.232689) can0 3C0#6A7E1335
(1493280086.244579) can0 1BFC38B1#0000000000000000
(1493280086.244981) can0 1BFC38BB#FFFFFFFFFFFFFFFF
(1493280086.245206) can0 1BFC38BA#535553500000001A
(1493280086.245576) can0 1BFC38B9#010296408005A3F4
(1493280086.245799) can0 1BFC38B8#0000000000000000
(1493280086.246185) can0 1BFC38B7#80016484250202F7
(1493280086.246433) can0 1BFC38B6#0000033A000034A8
(1493280086.246808) can0 1BFC38B5#0502FF9202028292
(1493280086.247055) can0 1BFC38B4#110F01010000A452
(1493280086.247434) can0 1BFC38B3#800164843100BBAA
(1493280086.247682) can0 1BFC38B2#800164848383802E
(1493280086.253864) can0 30B#5F00110000000098
(1493280086.282454) can0 1FD#0000000000000000
(1493280086.303585) can0 30B#5F00110000000098
(1493280086.336593) can0 3C0#6A7E1335
(1493280086.342441) can0 1FD#0000000000000000
(1493280086.353087) can0 30B#5F00110000000098
(1493280086.403475) can0 6C7#04051101020000
(1493280086.403857) can0 1FD#0000000000000000
(1493280086.404082) can0 30B#5F00110000000098
(1493280086.404194) can0 5F2#CC00
(1493280086.439935) can0 3C0#6A7E1335
(1493280086.453109) can0 30B#5F00110000000098
(1493280086.462854) can0 1FD#0000000000000000
(1493280086.495982) can0 1BFC38B1#0000000000000000
(1493280086.496220) can0 1BFC38BB#FFFFFFFFFFFFFFFF
(1493280086.496585) can0 1BFC38BA#535553500000001A
(1493280086.496833) can0 1BFC38B9#020096408008FC68
(1493280086.497220) can0 1BFC38B8#0000000800000000
(1493280086.497461) can0 1BFC38B7#8001648425020232
(1493280086.497838) can0 1BFC38B6#0000033D00000000
(1493280086.498099) can0 1BFC38B5#0502FF9202028292
(1493280086.498429) can0 1BFC38B4#110F01010000A452
(1493280086.498717) can0 1BFC38B3#800164843100BBAA
(1493280086.499053) can0 1BFC38B2#800164848383802E
(1493280086.504217) can0 30B#5F00110000000098
(1493280086.504468) can0 65E#8808F83478DF0500
(1493280086.513731) can0 62F#4451000718
(1493280086.522467) can0 1FD#0000000000000000
(1493280086.543825) can0 3C0#6A7E1335
(1493280086.553141) can0 30B#5F00110000000098
(1493280086.582501) can0 1FD#0000000000000000
(1493280086.603490) can0 6C7#04051101020000
(1493280086.603898) can0 30B#5F00110000000098
(1493280086.604002) can0 5F2#CC00
(1493280086.642494) can0 1FD#0000000000000000
(1493280086.647233) can0 3C0#6A7E1335
(1493280086.653115) can0 30B#5F00110000000098
(1493280086.703579) can0 1FD#0000000000000000
(1493280086.703858) can0 30B#5F00110000000098
(1493280086.744765) can0 1BFC38B1#0000000000000000
(1493280086.744950) can0 1BFC38BB#FFFFFFFFFFFFFFFF
(1493280086.745377) can0 1BFC38BA#0000000700000014
(1493280086.745620) can0 1BFC38B9#020096408008FC68
(1493280086.746018) can0 1BFC38B8#0000000800000000
(1493280086.746267) can0 1BFC38B7#8001648425020232
(1493280086.746578) can0 1BFC38B6#0000033F00000000
(1493280086.746893) can0 1BFC38B5#0502FF9202028292
(1493280086.747250) can0 1BFC38B4#110F01010000A452
(1493280086.747578) can0 1BFC38B3#800164843100BBAA
(1493280086.747865) can0 1BFC38B2#800164848383802E
(1493280086.751098) can0 3C0#6A7E1335
(1493280086.754028) can0 30B#5F00110000000098
(1493280086.762783) can0 1FD#0000000000000000
(1493280086.803649) can0 6C7#04051101020000
(1493280086.803877) can0 30B#5F00110000000098
(1493280086.803989) can0 5F2#CC00
(1493280086.822537) can0 1FD#0000000000000000
(1493280086.853143) can0 30B#5F00110000000098
(1493280086.854896) can0 3C0#6A7E1335
(1493280086.882495) can0 1FD#0000000000000000
(1493280086.903643) can0 30B#5F00110000000098
(1493280086.942510) can0 1FD#0000000000000000
(1493280086.953148) can0 30B#5F00110000000098
(1493280086.958636) can0 3C0#6A7E1335
(1493280086.996013) can0 1BFC38B1#0000000000000000
(1493280086.996257) can0 1BFC38BB#FFFFFFFFFFFFFFFF
(1493280086.996646) can0 1BFC38BA#0000000700000014
(1493280086.997022) can0 1BFC38B9#020096408008FC68
(1493280086.997270) can0 1BFC38B8#0000000800000000
(1493280086.997629) can0 1BFC38B7#8001648425020232
(1493280086.997895) can0 1BFC38B6#000003420000A452
(1493280086.998266) can0 1BFC38B5#0502FF9202028292
(1493280086.998523) can0 1BFC38B4#110F01010000A452
(1493280086.998910) can0 1BFC38B3#80016484324000FF
(1493280086.999279) can0 1BFC38B2#8001648483830076
(1493280087.004152) can0 6C7#04051101020000
(1493280087.004552) can0 1FD#0000000000000000
(1493280087.004768) can0 30B#5F00110000000098
(1493280087.004891) can0 5F2#CC00
(1493280087.005154) can0 643#000200
(1493280087.005365) can0 64E#00A4520000000000
(1493280087.005651) can0 65E#88082058A60B0600
(1493280087.006031) can0 6B8#6D08000000000000
(1493280087.006233) can0 6BC#9A823851324C0792
(1493280087.053139) can0 30B#5F00110000000098
(1493280087.062283) can0 3C0#6A7E1335
(1493280087.062767) can0 1FD#0000000000000000
(1493280087.103783) can0 30B#5F00110000000098
(1493280087.112779) can0 6B6#390C1C000718
(1493280087.113015) can0 6B7#BEB4000008FF80FE
(1493280087.122534) can0 1FD#0000000000000000
(1493280087.153165) can0 30B#5F00110000000098
(1493280087.166130) can0 3C0#6A7E1335
(1493280087.182538) can0 1FD#0000000000000000
(1493280087.203537) can0 6C7#04051101020000
(1493280087.203778) can0 30B#5F00110000000098
(1493280087.204044) can0 5F2#CC00
(1493280087.242537) can0 1FD#0000000000000000
(1493280087.244778) can0 1BFC38B1#0000000000000000
(1493280087.245042) can0 1BFC38BB#FFFFFFFFFFFFFFFF
(1493280087.245407) can0 1BFC38BA#0000000700000014
(1493280087.245652) can0 1BFC38B9#020096408008FC68
(1493280087.246072) can0 1BFC38B8#0000000800000000
(1493280087.246296) can0 1BFC38B7#8001648425020232
(1493280087.246665) can0 1BFC38B6#0000034402028292
(1493280087.246914) can0 1BFC38B5#0502FF9202028292
(1493280087.247305) can0 1BFC38B4#110F01010000A452
(1493280087.247563) can0 1BFC38B3#80016484324000FF
(1493280087.247930) can0 1BFC38B2#8001648483830076
(1493280087.253944) can0 30B#5F00110000000098
(1493280087.270173) can0 3C0#6A7E1335
(1493280087.303670) can0 1FD#0000000000000000
(1493280087.304036) can0 30B#5F00110000000098
(1493280087.353335) can0 30B#5F00110000000098
(1493280087.362933) can0 1FD#0000000000000000
(1493280087.373817) can0 3C0#6A7E1335
(1493280087.403687) can0 6C7#04051101020000
(1493280087.403950) can0 30B#5F00110000000098
(1493280087.404036) can0 5F2#CC00
(1493280087.422567) can0 1FD#0000000000000000
(1493280087.453190) can0 30B#5F00110000000098
(1493280087.477821) can0 3C0#6A7E1335
(1493280087.482595) can0 1FD#0000000000000000
(1493280087.496053) can0 1BFC38B1#0000000000000000
(1493280087.496326) can0 1BFC38BB#FFFFFFFFFFFFFFFF
(1493280087.496723) can0 1BFC38BA#0000000700000014
(1493280087.496950) can0 1BFC38B9#030296408005A3F4
(1493280087.497313) can0 1BFC38B8#0000000800000000
(1493280087.497566) can0 1BFC38B7#800164842502026E
(1493280087.497952) can0 1BFC38B6#0000034700000000
(1493280087.498297) can0 1BFC38B5#0502FF9202028292
(1493280087.498547) can0 1BFC38B4#110F01010000A452
(1493280087.498932) can0 1BFC38B3#80016484324000FF
(1493280087.499159) can0 1BFC38B2#8001648483830076
(1493280087.504221) can0 30B#5F00110000000098
(1493280087.504566) can0 65E#88080E35A5780800
(1493280087.513691) can0 62F#4451000719
(1493280087.542567) can0 1FD#0000000000000000
(1493280087.553239) can0 30B#5F00110000000098
(1493280087.581704) can0 3C0#6A7E1335
(1493280087.603730) can0 6C7#04051101020000
(1493280087.603952) can0 1FD#0000000000000000
(1493280087.604230) can0 30B#5F00110000000098
(1493280087.604481) can0 5F2#CC00
(1493280087.653209) can0 30B#5F00110000000098
(1493280087.662990) can0 1FD#0000000000000000
(1493280087.685074) can0 3C0#6A7E1335
(1493280087.704229) can0 30B#5F00110000000098
(1493280087.713209) can0 64E#00B1040000000000
(1493280087.722587) can0 1FD#0000000000000000
(1493280087.744840) can0 1BFC38B1#0000000000000000
(1493280087.745207) can0 1BFC38BB#FFFFFFFFFFFFFFFF
(1493280087.745454) can0 1BFC38BA#535553500000001A
(1493280087.745854) can0 1BFC38B9#030296408005A3F4
(1493280087.746086) can0 1BFC38B8#0000000800000000
(1493280087.746462) can0 1BFC38B7#800164842502026E
(1493280087.746712) can0 1BFC38B6#0000034900000000
(1493280087.747087) can0 1BFC38B5#0502FF9202028292
(1493280087.747338) can0 1BFC38B4#110F01010000A452
(1493280087.747710) can0 1BFC38B3#80016484324000FF
(1493280087.747956) can0 1BFC38B2#8001648483830076
(1493280087.753952) can0 30B#5F00110000000098
(1493280087.782592) can0 1FD#0000000000000000
(1493280087.788587) can0 3C0#6A7E1335
(1493280087.803844) can0 6C7#04051101020000
(1493280087.804244) can0 30B#5F00110000000098
(1493280087.804348) can0 5F2#CC00
(1493280087.842597) can0 1FD#0000000000000000
(1493280087.853223) can0 30B#5F00110000000098
(1493280087.892359) can0 3C0#6A7E1335
(1493280087.904352) can0 1FD#0000000000000000
(1493280087.904604) can0 30B#5F00110000000098
(1493280087.953231) can0 30B#5F00110000000098
(1493280087.962747) can0 1FD#0000000000000000
(1493280087.995574) can0 3C0#6A7E1335
(1493280087.996477) can0 1BFC38B1#0000000000000000
(1493280087.996734) can0 1BFC38BB#FFFFFFFFFFFFFFFF
(1493280087.997097) can0 1BFC38BA#535553500000001A
(1493280087.997347) can0 1BFC38B9#030296408005A3F4
(1493280087.997699) can0 1BFC38B8#0000000800000000
(1493280087.997993) can0 1BFC38B7#800164842502026E
(1493280087.998340) can0 1BFC38B6#0000034C001F0003
(1493280087.998585) can0 1BFC38B5#0502FF9202028292
(1493280087.998962) can0 1BFC38B4#00010101001F0003
(1493280087.999213) can0 1BFC38B3#8001648431005544
(1493280087.999589) can0 1BFC38B2#80016484838300DC
(1493280088.002756) can0 6C7#04051101020000
(1493280088.003136) can0 30B#5F00110000000098
(1493280088.003213) can0 5F2#CC00
(1493280088.003478) can0 643#000200
(1493280088.003728) can0 64E#00B1040000000000
(1493280088.003957) can0 65E#880803C441150800
(1493280088.004254) can0 6B8#6D08000000000000
(1493280088.004633) can0 6BC#9A823851324C0798
(1493280088.022613) can0 1FD#0000000000000000
(1493280088.053240) can0 30B#5F00110000000098
(1493280088.082652) can0 1FD#0000000000000000
(1493280088.100332) can0 3C0#6A7E1335
(1493280088.103973) can0 30B#5F00110000000098
(1493280088.104365) can0 630#33D03F0102
(1493280088.104568) can0 631#34C414
(1493280088.104854) can0 62D#34837801F8000000
(1493280088.113117) can0 6B6#390C1C000719
(1493280088.113383) can0 6B7#BEB4000008FF80FE
(1493280088.142656) can0 1FD#0000000000000000
(1493280088.153250) can0 30B#5F00110000000098
(1493280088.203720) can0 6C7#04051101020000
(1493280088.203951) can0 3C0#6A7E1335
(1493280088.203954) can0 1FD#0000000000000000
(1493280088.204220) can0 30B#5F00110000000098
(1493280088.204576) can0 5F2#CC00
