(1493282062.079637) can0 30B#5F00110000000098
(1493282062.089413) can0 1FD#0000000000000000
(1493282062.122554) can0 1BFC38B1#0000000000000000
(1493282062.122891) can0 1BFC38BB#FFFFFFFFFFFFFFFF
(1493282062.123137) can0 1BFC38BA#0000000700000014
(1493282062.123407) can0 1BFC38B9#000096408008FC68
(1493282062.123777) can0 1BFC38B8#0000000800000000
(1493282062.124194) can0 1BFC38B7#80016484250202BD
(1493282062.124393) can0 1BFC38B6#00000AAE001F0003
(1493282062.124804) can0 1BFC38B5#0502FF9202048292
(1493282062.125060) can0 1BFC38B4#00010101001F0003
(1493282062.125404) can0 1BFC38B3#8001648431009988
(1493282062.125650) can0 1BFC38B2#80016484838380B9
(1493282062.130452) can0 6C7#04051101020000
(1493282062.130827) can0 30B#5F00110000000098
(1493282062.130897) can0 5F2#CA00
(1493282062.131177) can0 643#000200
(1493282062.131448) can0 64E#00B1040000000000
(1493282062.131639) can0 65E#88086808E9330900
(1493282062.131906) can0 6B8#6D08000000000000
(1493282062.132164) can0 6BC#62822651324C0718
(1493282062.149042) can0 1FD#0000000000000000
(1493282062.149527) can0 3C0#6A7E1335
(1493282062.179674) can0 30B#5F00110000000098
(1493282062.208990) can0 1FD#0000000000000000
(1493282062.230191) can0 30B#5F00110000000098
(1493282062.239418) can0 6B6#390C1C000421
(1493282062.239823) can0 6B7#BEB4000008FF80FE
(1493282062.253147) can0 3C0#6A7E1335
(1493282062.269034) can0 1FD#0000000000000000
(1493282062.279664) can0 30B#5F00110000000098
(1493282062.330050) can0 6C7#04051101020000
(1493282062.330256) can0 1FD#0000000000000000
(1493282062.330524) can0 30B#5F00110000000098
(1493282062.330773) can0 5F2#CA00
(1493282062.356756) can0 3C0#6A7E1335
(1493282062.371402) can0 1BFC38B1#0000000000000000
(1493282062.371619) can0 1BFC38BB#FFFFFFFFFFFFFFFF
(1493282062.371993) can0 1BFC38BA#0000000700000014
(1493282062.372292) can0 1BFC38B9#000096408008FC68
(1493282062.372694) can0 1BFC38B8#0000000800000000
(1493282062.372851) can0 1BFC38B7#80016484250202BD
(1493282062.373280) can0 1BFC38B6#00000AB002048292
(1493282062.373664) can0 1BFC38B5#0502FF9202048292
(1493282062.373861) can0 1BFC38B4#00010101001F0003
(1493282062.374249) can0 1BFC38B3#8001648431009988
(1493282062.374508) can0 1BFC38B2#80016484838380B9
(1493282062.380395) can0 30B#5F00110000000098
(1493282062.389139) can0 1FD#0000000000000000
(1493282062.430265) can0 30B#5F00110000000098
(1493282062.449014) can0 1FD#0000000000000000
(1493282062.460514) can0 3C0#6A7E1335
(1493282062.479642) can0 30B#5F00110000000098
(1493282062.509004) can0 1FD#0000000000000000
(1493282062.530029) can0 6C7#04051101020000
(1493282062.530250) can0 30B#5F00110000000098
(1493282062.530491) can0 5F2#CA00
(1493282062.564827) can0 3C0#6A7E1335
(1493282062.569031) can0 1FD#0000000000000000
(1493282062.579626) can0 30B#5F00110000000098
(1493282062.622517) can0 1BFC38B1#0000000000000000
(1493282062.622866) can0 1BFC38BB#FFFFFFFFFFFFFFFF
(1493282062.623118) can0 1BFC38BA#0000000700000014
(1493282062.623491) can0 1BFC38B9#010296408005A3F4
(1493282062.623877) can0 1BFC38B8#0000000800000000
(1493282062.624100) can0 1BFC38B7#80016484250202F9
(1493282062.624357) can0 1BFC38B6#00000AB300000000
(1493282062.624719) can0 1BFC38B5#0502FF9202048292
(1493282062.624998) can0 1BFC38B4#00010101001F0003
(1493282062.625376) can0 1BFC38B3#8001648431009988
(1493282062.625577) can0 1BFC38B2#80016484838380B9
(1493282062.630473) can0 1FD#0000000000000000
(1493282062.630877) can0 30B#5F00110000000098
(1493282062.631074) can0 65E#88081137B41B0D00
(1493282062.640221) can0 62F#4451000422
(1493282062.668862) can0 3C0#6A7E1335
(1493282062.679616) can0 30B#5F00110000000098
(1493282062.689127) can0 1FD#0000000000000000
(1493282062.729858) can0 6C7#04051101020000
(1493282062.730079) can0 30B#5F00110000000098
(1493282062.730353) can0 5F2#CA00
(1493282062.748980) can0 1FD#0000000000000000
(1493282062.772467) can0 3C0#6A7E1335
(1493282062.779696) can0 30B#5F00110000000098
(1493282062.808977) can0 1FD#0000000000000000
(1493282062.829966) can0 30B#5F00110000000098
(1493282062.868982) can0 1FD#0000000000000000
(1493282062.871330) can0 1BFC38B1#0000000000000000
(1493282062.871704) can0 1BFC38BB#FFFFFFFFFFFFFFFF
(1493282062.871961) can0 1BFC38BA#535553500000001A
(1493282062.872329) can0 1BFC38B9#010296408005A3F4
(1493282062.872607) can0 1BFC38B8#0000000800000000
(1493282062.872985) can0 1BFC38B7#80016484250202F9
(1493282062.873208) can0 1BFC38B6#00000AB500000000
(1493282062.873609) can0 1BFC38B5#0502FF9202048292
(1493282062.873845) can0 1BFC38B4#00010101001F0003
(1493282062.874167) can0 1BFC38B3#8001648431009988
(1493282062.874412) can0 1BFC38B2#80016484838380B9
(1493282062.876541) can0 3C0#6A7E1335
(1493282062.880354) can0 30B#5F00110000000098
(1493282062.929858) can0 6C7#04051101020000
(1493282062.930210) can0 1FD#0000000000000000
(1493282062.930459) can0 30B#5F00110000000098
(1493282062.930592) can0 5F2#CA00
(1493282062.979654) can0 30B#5F00110000000098
(1493282062.980901) can0 3C0#6A7E1335
(1493282062.989465) can0 1FD#0000000000000000
(1493282063.029943) can0 30B#5F00110000000098
(1493282063.048985) can0 1FD#0000000000000000
(1493282063.079693) can0 30B#5F00110000000098
(1493282063.084430) can0 3C0#6A7E1335
(1493282063.108944) can0 1FD#0000000000000000
(1493282063.122435) can0 1BFC38B1#0000000000000000
(1493282063.122810) can0 1BFC38BB#FFFFFFFFFFFFFFFF
(1493282063.123059) can0 1BFC38BA#535553500000001A
(1493282063.123397) can0 1BFC38B9#010296408005A3F4
(1493282063.123823) can0 1BFC38B8#0000000800000000
(1493282063.124055) can0 1BFC38B7#80016484250202F9
(1493282063.124304) can0 1BFC38B6#00000AB8001F0003
(1493282063.124670) can0 1BFC38B5#0502FF9202048292
(1493282063.125092) can0 1BFC38B4#00010101001F0003
(1493282063.125312) can0 1BFC38B3#800164843100BBAA
(1493282063.125538) can0 1BFC38B2#800164848383002E
(1493282063.130417) can0 6C7#04051101020000
(1493282063.130663) can0 30B#5F00110000000098
(1493282063.130759) can0 5F2#CA00
(1493282063.131051) can0 643#000200
(1493282063.131303) can0 64E#00B1040000000000
(1493282063.131540) can0 65E#8808E2D379230A00
(1493282063.131922) can0 6B8#6D08000000000000
(1493282063.132185) can0 6BC#62822651324C077E
(1493282063.169054) can0 1FD#0000000000000000
(1493282063.179678) can0 30B#5F00110000000098
(1493282063.188174) can0 3C0#6A7E1335
(1493282063.230066) can0 1FD#0000000000000000
(1493282063.230272) can0 30B#5F00110000000098
(1493282063.230545) can0 630#33CF00
(1493282063.230776) can0 62D#3482030012000300
(1493282063.231027) can0 631#34D000
(1493282063.239423) can0 6B6#390C1C000422
(1493282063.239794) can0 6B7#BEB4000008FF80FE
(1493282063.279668) can0 30B#5F00110000000098
(1493282063.289166) can0 1FD#0000000000000000
(1493282063.292038) can0 3C0#6A7E1335
(1493282063.329918) can0 6C7#04051101020000
(1493282063.330286) can0 30B#5F00110000000098
(1493282063.330374) can0 5F2#CA00
(1493282063.349068) can0 1FD#0000000000000000
(1493282063.371285) can0 1BFC38B1#0000000000000000
(1493282063.371656) can0 1BFC38BB#FFFFFFFFFFFFFFFF
(1493282063.371908) can0 1BFC38BA#535553500000001A
(1493282063.372272) can0 1BFC38B9#010296408005A3F4
(1493282063.372533) can0 1BFC38B8#0000000800000000
(1493282063.372899) can0 1BFC38B7#80016484250202F9
(1493282063.373149) can0 1BFC38B6#00000ABA001F34A8
(1493282063.373564) can0 1BFC38B5#0502FF9202048292
(1493282063.373937) can0 1BFC38B4#00010101001F0003
(1493282063.374159) can0 1BFC38B3#800164843100BBAA
(1493282063.374402) can0 1BFC38B2#800164848383002E
(1493282063.380293) can0 30B#5F00110000000098
(1493282063.395737) can0 3C0#6A7E1335
(1493282063.409055) can0 1FD#0000000000000000
(1493282063.430151) can0 30B#5F00110000000098
(1493282063.469022) can0 1FD#0000000000000000
(1493282063.479648) can0 30B#5F00110000000098
(1493282063.499262) can0 3C0#6A7E1335
(1493282063.529889) can0 6C7#04051101020000
(1493282063.530135) can0 1FD#0000000000000000
(1493282063.530510) can0 30B#5F00110000000098
(1493282063.530619) can0 5F2#CA00
(1493282063.579638) can0 30B#5F00110000000098
(1493282063.589168) can0 1FD#0000000000000000
(1493282063.602475) can0 3C0#6A7E1335
(1493282063.622384) can0 1BFC38B1#0000000000000000
(1493282063.622762) can0 1BFC38BB#FFFFFFFFFFFFFFFF
(1493282063.623013) can0 1BFC38BA#535553500000001A
(1493282063.623358) can0 1BFC38B9#020096408008FC68
(1493282063.623733) can0 1BFC38B8#0000000800000000
(1493282063.623953) can0 1BFC38B7#8001648425020235
(1493282063.624412) can0 1BFC38B6#00000ABD00000000
(1493282063.624623) can0 1BFC38B5#0502FF9202048292
(1493282063.625000) can0 1BFC38B4#00010101001F0003
(1493282063.625281) can0 1BFC38B3#800164843100BBAA
(1493282063.625608) can0 1BFC38B2#800164848383002E
(1493282063.630535) can0 30B#5F00110000000098
(1493282063.630764) can0 65E#88082B77BC200700
(1493282063.640005) can0 62F#4451000423
(1493282063.649001) can0 1FD#0000000000000000
(1493282063.679666) can0 30B#5F00110000000098
(1493282063.706247) can0 3C0#6A7E1335
(1493282063.709031) can0 1FD#0000000000000000
(1493282063.729877) can0 6C7#04051101020000
(1493282063.730320) can0 30B#5F00110000000098
(1493282063.730324) can0 5F2#CB00
(1493282063.768994) can0 1FD#0000000000000000
(1493282063.779614) can0 30B#5F00110000000098
(1493282063.809864) can0 3C0#6A7E1335
(1493282063.830019) can0 1FD#0000000000000000
(1493282063.830242) can0 30B#5F00110000000098
(1493282063.871239) can0 1BFC38B1#0000000000000000
(1493282063.871615) can0 1BFC38BB#FFFFFFFFFFFFFFFF
(1493282063.872016) can0 1BFC38BA#0000000700000014
(1493282063.872235) can0 1BFC38B9#020096408008FC68
(1493282063.872632) can0 1BFC38B8#0000000800000000
(1493282063.872858) can0 1BFC38B7#8001648425020235
(1493282063.873257) can0 1BFC38B6#00000ABF00000000
(1493282063.873518) can0 1BFC38B5#0502FF9202048292
(1493282063.873850) can0 1BFC38B4#00010101001F0003
(1493282063.874102) can0 1BFC38B3#800164843100BBAA
(1493282063.874446) can0 1BFC38B2#800164848383002E
(1493282063.880303) can0 30B#5F00110000000098
(1493282063.888976) can0 1FD#0000000000000000
(1493282063.913962) can0 3C0#6A7E1335
(1493282063.929971) can0 6C7#04051101020000
(1493282063.930219) can0 30B#5F00110000000098
(1493282063.930302) can0 5F2#CB00
(1493282063.948933) can0 1FD#0000000000000000
(1493282063.979622) can0 30B#5F00110000000098
(1493282064.008956) can0 1FD#0000000000000000
(1493282064.017686) can0 3C0#6A7E1335
(1493282064.029965) can0 30B#5F00110000000098
(1493282064.068973) can0 1FD#0000000000000000
(1493282064.079716) can0 30B#5F00110000000098
(1493282064.121654) can0 3C0#6A7E1335
(1493282064.122414) can0 1BFC38B1#0000000000000000
(1493282064.122781) can0 1BFC38BB#FFFFFFFFFFFFFFFF
(1493282064.123040) can0 1BFC38BA#0000000700000014
(1493282064.123412) can0 1BFC38B9#020096408008FC68
(1493282064.123790) can0 1BFC38B8#0000000800000000
(1493282064.124095) can0 1BFC38B7#8001648425020235
(1493282064.124467) can0 1BFC38B6#00000AC2001F0003
(1493282064.124700) can0 1BFC38B5#0502FF9202048292
(1493282064.125079) can0 1BFC38B4#00010101001F0003
(1493282064.125290) can0 1BFC38B3#80016484324000FF
(1493282064.125676) can0 1BFC38B2#8001648483838075
(1493282064.130396) can0 6C7#04051101020000
(1493282064.130651) can0 1FD#0000000000000000
(1493282064.131020) can0 30B#5F00110000000098
(1493282064.131167) can0 5F2#CB00
(1493282064.131401) can0 643#000200
(1493282064.131669) can0 64E#00B1040000000000
(1493282064.131901) can0 65E#88081249A31C0A00
(1493282064.132285) can0 6B8#6D08000000000000
(1493282064.132541) can0 6BC#62822651324C078E
(1493282064.179714) can0 30B#5F00110000000098
(1493282064.189069) can0 1FD#0000000000000000
(1493282064.225706) can0 3C0#6A7E1335
(1493282064.230048) can0 30B#5F00110000000098
(1493282064.239558) can0 6B6#390C1C000423
(1493282064.239760) can0 6B7#BEB4000008FF80FE
(1493282064.248958) can0 1FD#0000000000000000
(1493282064.279562) can0 30B#5F00110000000098
(1493282064.308927) can0 1FD#0000000000000000
(1493282064.329797) can0 3C0#6A7E1335
(1493282064.329921) can0 6C7#04051101020000
(1493282064.330297) can0 30B#5F00110000000098
(1493282064.330424) can0 5F2#CB00
(1493282064.368923) can0 1FD#0000000000000000
(1493282064.371294) can0 1BFC38B1#0000000000000000
(1493282064.371695) can0 1BFC38BB#FFFFFFFFFFFFFFFF
(1493282064.371920) can0 1BFC38BA#0000000700000014
(1493282064.372170) can0 1BFC38B9#020096408008FC68
(1493282064.372556) can0 1BFC38B8#0000000800000000
(1493282064.372807) can0 1BFC38B7#8001648425020235
(1493282064.373182) can0 1BFC38B6#00000AC402048292
(1493282064.373381) can0 1BFC38B5#0502FF9202048292
(1493282064.373808) can0 1BFC38B4#00010101001F0003
(1493282064.374024) can0 1BFC38B3#80016484324000FF
(1493282064.374428) can0 1BFC38B2#8001648483838075
(1493282064.380325) can0 30B#5F00110000000098
(1493282064.430172) can0 1FD#0000000000000000
(1493282064.430399) can0 30B#5F00110000000098
(1493282064.433889) can0 3C0#6A7E1335
(1493282064.479554) can0 30B#5F00110000000098
(1493282064.489049) can0 1FD#0000000000000000
(1493282064.529940) can0 6C7#04051101020000
(1493282064.530155) can0 30B#5F00110000000098
(1493282064.530419) can0 5F2#CB00
(1493282064.537916) can0 3C0#6A7E1335
(1493282064.548908) can0 1FD#0000000000000000
(1493282064.579610) can0 30B#5F00110000000098
(1493282064.608912) can0 1FD#0000000000000000
(1493282064.622660) can0 1BFC38B1#0000000000000000
(1493282064.622856) can0 1BFC38BB#FFFFFFFFFFFFFFFF
(1493282064.623292) can0 1BFC38BA#0000000700000014
(1493282064.623661) can0 1BFC38B9#030296408005A3F4
(1493282064.623900) can0 1BFC38B8#0000000800000000
(1493282064.624145) can0 1BFC38B7#8001648425020271
(1493282064.624539) can0 1BFC38B6#00000AC700000000
(1493282064.624768) can0 1BFC38B5#0502FF9202048292
(1493282064.625122) can0 1BFC38B4#00010101001F0003
(1493282064.625400) can0 1BFC38B3#80016484324000FF
(1493282064.625749) can0 1BFC38B2#8001648483838075
(1493282064.628974) can0 30B#5F00110000000098
(1493282064.629263) can0 65E#8808DA49D4DE0800
(1493282064.640017) can0 62F#4451000424
(1493282064.641732) can0 3C0#6A7E1335
(1493282064.668858) can0 1FD#0000000000000000
(1493282064.679610) can0 30B#5F00110000000098
(1493282064.729928) can0 6C7#04051101020000
(1493282064.730230) can0 1FD#0000000000000000
(1493282064.730504) can0 30B#5F00110000000098
(1493282064.730634) can0 5F2#CB00
(1493282064.745755) can0 3C0#6A7E1335
(1493282064.779641) can0 30B#5F00110000000098
(1493282064.789166) can0 1FD#0000000000000000
(1493282064.830000) can0 30B#5F00110000000098
(1493282064.848863) can0 1FD#0000000000000000
(1493282064.849241) can0 3C0#6A7E1335
(1493282064.871266) can0 1BFC38B1#0000000000000000
(1493282064.871596) can0 1BFC38BB#FFFFFFFFFFFFFFFF
(1493282064.871859) can0 1BFC38BA#535553500000001A
(1493282064.872130) can0 1BFC38B9#030296408005A3F4
(1493282064.872520) can0 1BFC38B8#0000000800000000
(1493282064.872780) can0 1BFC38B7#8001648425020271
(1493282064.873127) can0 1BFC38B6#00000AC900000000
(1493282064.873470) can0 1BFC38B5#0502FF9202048292
(1493282064.873719) can0 1BFC38B4#00010101001F0003
(1493282064.874093) can0 1BFC38B3#80016484324000FF
(1493282064.874344) can0 1BFC38B2#8001648483838075
(1493282064.880242) can0 30B#5F00110000000098
(1493282064.908896) can0 1FD#0000000000000000
(1493282064.929880) can0 6C7#04051101020000
(1493282064.930059) can0 30B#5F00110000000098
(1493282064.930313) can0 5F2#CB00
(1493282064.953863) can0 3C0#6A7E1335
(1493282064.968872) can0 1FD#0000000000000000
(1493282064.979617) can0 30B#5F00110000000098
(1493282065.029762) can0 1FD#0000000000000000
(1493282065.029970) can0 30B#5F00110000000098
(1493282065.057673) can0 3C0#6A7E1335
(1493282065.079623) can0 30B#5F00110000000098
(1493282065.089217) can0 1FD#0000000000000000
(1493282065.122353) can0 1BFC38B1#0000000000000000
(1493282065.122733) can0 1BFC38BB#FFFFFFFFFFFFFFFF
(1493282065.122981) can0 1BFC38BA#535553500000001A
(1493282065.123347) can0 1BFC38B9#030296408005A3F4
(1493282065.123598) can0 1BFC38B8#0000000800000000
(1493282065.123944) can0 1BFC38B7#8001648425020271
(1493282065.124197) can0 1BFC38B6#00000ACC001F0003
(1493282065.124566) can0 1BFC38B5#0502FF9202048292
(1493282065.124928) can0 1BFC38B4#00010101001F0003
(1493282065.125191) can0 1BFC38B3#8001648431005544
(1493282065.125568) can0 1BFC38B2#80016484838380DB
(1493282065.130348) can0 6C7#04051101020000
(1493282065.130540) can0 30B#5F00110000000098
(1493282065.130713) can0 5F2#CB00
(1493282065.130966) can0 643#000200
(1493282065.131206) can0 64E#00B1040000000000
(1493282065.131582) can0 65E#88081797A3470B00
(1493282065.131837) can0 6B8#6D08000000000000
(1493282065.132082) can0 6BC#62822651324C0792
(1493282065.148982) can0 1FD#0000000000000000
(1493282065.161710) can0 3C0#6A7E1335
(1493282065.179604) can0 30B#5F00110000000098
(1493282065.208918) can0 1FD#0000000000000000
(1493282065.229955) can0 30B#5F00110000000098
(1493282065.230192) can0 630#33D03F0102
(1493282065.230304) can0 631#34D100
(1493282065.230574) can0 62D#34837801F8000000
(1493282065.239186) can0 6B6#390C1C000424
(1493282065.239556) can0 6B7#BEB4000008FF80FE
(1493282065.265918) can0 3C0#6A7E1335
(1493282065.268980) can0 1FD#0000000000000000
(1493282065.279560) can0 30B#5F00110000000098
(1493282065.330056) can0 1FD#0000000000000000
(1493282065.329823) can0 6C7#04051101020000
(1493282065.330395) can0 30B#5F00110000000098
(1493282065.330526) can0 5F2#CB00
(1493282065.369643) can0 3C0#6A7E1335
(1493282065.371143) can0 1BFC38B1#0000000000000000
(1493282065.371514) can0 1BFC38BB#FFFFFFFFFFFFFFFF
(1493282065.371765) can0 1BFC38BA#535553500000001A
(1493282065.372136) can0 1BFC38B9#030296408005A3F4
(1493282065.372387) can0 1BFC38B8#0000000800000000
(1493282065.372811) can0 1BFC38B7#8001648425020271
(1493282065.373047) can0 1BFC38B6#00000ACE001F34A8
(1493282065.373396) can0 1BFC38B5#0502FF9202048292
(1493282065.373649) can0 1BFC38B4#00010101001F0003
(1493282065.374029) can0 1BFC38B3#8001648431005544
(1493282065.374271) can0 1BFC38B2#80016484838380DB
(1493282065.380215) can0 30B#5F00110000000098
(1493282065.389090) can0 1FD#0000000000000000
(1493282065.429933) can0 30B#5F00110000000098
(1493282065.448960) can0 1FD#0000000000000000
(1493282065.473134) can0 3C0#6A7E1335
(1493282065.479526) can0 30B#5F00110000000098
(1493282065.508934) can0 1FD#0000000000000000
(1493282065.529952) can0 6C7#04051101020000
(1493282065.530161) can0 30B#5F00110000000098
(1493282065.530291) can0 5F2#CC00
(1493282065.568945) can0 1FD#0000000000000000
(1493282065.577307) can0 3C0#6A7E1335
(1493282065.579552) can0 30B#5F00110000000098
(1493282065.622295) can0 1BFC38B1#0000000000000000
(1493282065.622659) can0 1BFC38BB#FFFFFFFFFFFFFFFF
(1493282065.623048) can0 1BFC38BA#535553500000001A
(1493282065.623268) can0 1BFC38B9#040096408008FC68
(1493282065.623658) can0 1BFC38B8#0000000800000000
(1493282065.623934) can0 1BFC38B7#80016484250202AD
(1493282065.624281) can0 1BFC38B6#00000AD100000000
(1493282065.624529) can0 1BFC38B5#0502FF9202048292
(1493282065.624901) can0 1BFC38B4#00010101001F0003
(1493282065.625156) can0 1BFC38B3#8001648431005544
(1493282065.625530) can0 1BFC38B2#80016484838380DB
(1493282065.630285) can0 1FD#0000000000000000
(1493282065.630656) can0 30B#5F00110000000098
(1493282065.630893) can0 65E#880871D5B8E90900
(1493282065.640036) can0 62F#4451000425
(1493282065.679476) can0 30B#5F00110000000098
(1493282065.680645) can0 3C0#6A7E1335
(1493282065.689026) can0 1FD#0000000000000000
(1493282065.729922) can0 6C7#04051101020000
(1493282065.730131) can0 30B#5F00110000000098
(1493282065.730245) can0 5F2#CC00
(1493282065.748926) can0 1FD#0000000000000000
(1493282065.779515) can0 30B#5F00110000000098
(1493282065.783966) can0 3C0#6A7E1335
(1493282065.808888) can0 1FD#0000000000000000
(1493282065.829883) can0 30B#5F00110000000098
(1493282065.868916) can0 1FD#0000000000000000
(1493282065.871131) can0 1BFC38B1#0000000000000000
(1493282065.871488) can0 1BFC38BB#FFFFFFFFFFFFFFFF
(1493282065.871744) can0 1BFC38BA#0000000700000014
(1493282065.872094) can0 1BFC38B9#040096408008FC68
(1493282065.872464) can0 1BFC38B8#0000000800000000
(1493282065.872702) can0 1BFC38B7#80016484250202AD
(1493282065.873075) can0 1BFC38B6#00000AD300000000
(1493282065.873326) can0 1BFC38B5#0502FF9202048292
(1493282065.873756) can0 1BFC38B4#00010101001F0003
(1493282065.874012) can0 1BFC38B3#8001648431005544
(1493282065.874346) can0 1BFC38B2#80016484838380DB
(1493282065.880135) can0 30B#5F00110000000098
(1493282065.887837) can0 3C0#6A7E1335
(1493282065.929750) can0 6C7#04051101020000
(1493282065.929998) can0 1FD#0000000000000000
(1493282065.930401) can0 30B#5F00110000000098
(1493282065.930477) can0 5F2#CC00
(1493282065.979493) can0 30B#5F00110000000098
(1493282065.989146) can0 1FD#0000000000000000
(1493282065.991336) can0 3C0#6A7E1335
(1493282066.029764) can0 30B#5F00110000000098
(1493282066.048862) can0 1FD#0000000000000000
(1493282066.079456) can0 30B#5F00110000000098
(1493282066.095199) can0 3C0#6A7E1335
(1493282066.108881) can0 1FD#0000000000000000
(1493282066.122351) can0 1BFC38B1#0000000000000000
(1493282066.122597) can0 1BFC38BB#FFFFFFFFFFFFFFFF
(1493282066.122987) can0 1BFC38BA#0000000700000014
(1493282066.123191) can0 1BFC38B9#040096408008FC68
(1493282066.123608) can0 1BFC38B8#0000000800000000
(1493282066.123875) can0 1BFC38B7#80016484250202AD
(1493282066.124276) can0 1BFC38B6#00000AD6001F0003
(1493282066.124639) can0 1BFC38B5#0502FF9202048292
(1493282066.124853) can0 1BFC38B4#00010101001F0003
(1493282066.125226) can0 1BFC38B3#8001648431007766
(1493282066.125475) can0 1BFC38B2#8001648483830030
(1493282066.130256) can0 6C7#04051101020000
(1493282066.130640) can0 30B#5F00110000000098
(1493282066.130743) can0 5F2#CC00
(1493282066.130797) can0 643#000200
(1493282066.131236) can0 64E#00B1040000000000
(1493282066.131444) can0 65E#8808A805A7F00900
(1493282066.131736) can0 6B8#6D08000000000000
(1493282066.131948) can0 6BC#62822651324C0798
(1493282066.168869) can0 1FD#0000000000000000
(1493282066.179483) can0 30B#5F00110000000098
(1493282066.199230) can0 3C0#6A7E1335
(1493282066.229853) can0 1FD#0000000000000000
(1493282066.230252) can0 30B#5F00110000000098
(1493282066.239121) can0 6B6#390C1C000425
(1493282066.239335) can0 6B7#BEB4000008FF80FE
(1493282066.279472) can0 30B#5F00110000000098
(1493282066.288960) can0 1FD#0000000000000000
(1493282066.302948) can0 3C0#6A7E1335
(1493282066.329830) can0 6C7#04051101020000
(1493282066.330101) can0 30B#5F00110000000098
(1493282066.330321) can0 5F2#CC00
(1493282066.348855) can0 1FD#0000000000000000
(1493282066.371094) can0 1BFC38B1#0000000000000000
(1493282066.371473) can0 1BFC38BB#FFFFFFFFFFFFFFFF
(1493282066.371828) can0 1BFC38BA#0000000700000014
(1493282066.372027) can0 1BFC38B9#040096408008FC68
(1493282066.372444) can0 1BFC38B8#0000000800000000
(1493282066.372664) can0 1BFC38B7#80016484250202AD
(1493282066.373038) can0 1BFC38B6#00000AD802048292
(1493282066.373404) can0 1BFC38B5#0502FF9202048292
(1493282066.373648) can0 1BFC38B4#00010101001F0003
(1493282066.373902) can0 1BFC38B3#8001648431007766
(1493282066.374272) can0 1BFC38B2#8001648483830030
(1493282066.380214) can0 30B#5F00110000000098
(1493282066.406953) can0 3C0#6A7E1335
(1493282066.408854) can0 1FD#0000000000000000
(1493282066.430044) can0 30B#5F00110000000098
(1493282066.468795) can0 1FD#0000000000000000
(1493282066.479423) can0 30B#5F00110000000098
(1493282066.511189) can0 3C0#6A7E1335
(1493282066.530064) can0 6C7#04051101020000
(1493282066.530430) can0 1FD#0000000000000000
(1493282066.530650) can0 30B#5F00110000000098
(1493282066.530757) can0 5F2#CC00
(1493282066.579428) can0 30B#5F00110000000098
(1493282066.588929) can0 1FD#0000000000000000
(1493282066.615637) can0 3C0#6A7E1335
(1493282066.622554) can0 1BFC38B1#0000000000000000
(1493282066.622906) can0 1BFC38BB#FFFFFFFFFFFFFFFF
(1493282066.623146) can0 1BFC38BA#0000000700000014
(1493282066.623531) can0 1BFC38B9#050296408005A3F4
(1493282066.623914) can0 1BFC38B8#0000000800000000
(1493282066.624195) can0 1BFC38B7#80016484250202E9
(1493282066.624604) can0 1BFC38B6#00000ADB00000000
(1493282066.624797) can0 1BFC38B5#0502FF9202048292
(1493282066.625178) can0 1BFC38B4#00010101001F0003
(1493282066.625429) can0 1BFC38B3#8001648431007766
(1493282066.625772) can0 1BFC38B2#8001648483830030
(1493282066.628883) can0 30B#5F00110000000098
(1493282066.629121) can0 65E#8808419767410800
(1493282066.640165) can0 62F#4451000426
(1493282066.648787) can0 1FD#0000000000000000
(1493282066.679414) can0 30B#5F00110000000098
(1493282066.708779) can0 1FD#0000000000000000
(1493282066.719626) can0 3C0#6A7E1335
(1493282066.729940) can0 6C7#04051101020000
(1493282066.730156) can0 30B#5F00110000000098
(1493282066.730441) can0 5F2#CC00
(1493282066.768776) can0 1FD#0000000000000000
(1493282066.779404) can0 30B#5F00110000000098
(1493282066.823112) can0 3C0#6A7E1335
(1493282066.829773) can0 1FD#0000000000000000
(1493282066.830164) can0 30B#5F00110000000098
(1493282066.871170) can0 1BFC38B1#0000000000000000
(1493282066.871383) can0 1BFC38BB#FFFFFFFFFFFFFFFF
(1493282066.871768) can0 1BFC38BA#535553500000001A
(1493282066.872011) can0 1BFC38B9#050296408005A3F4
(1493282066.872392) can0 1BFC38B8#0000000800000000
(1493282066.872643) can0 1BFC38B7#80016484250202E9
(1493282066.873017) can0 1BFC38B6#00000ADD00000000
(1493282066.873418) can0 1BFC38B5#0502FF9202048292
(1493282066.873642) can0 1BFC38B4#00010101001F0003
(1493282066.873891) can0 1BFC38B3#8001648431007766
(1493282066.874289) can0 1BFC38B2#8001648483830030
(1493282066.880133) can0 30B#5F00110000000098
(1493282066.888765) can0 1FD#0000000000000000
(1493282066.926858) can0 3C0#6A7E1335
(1493282066.929795) can0 6C7#04051101020000
(1493282066.930009) can0 30B#5F00110000000098
(1493282066.930136) can0 5F2#CC00
(1493282066.948791) can0 1FD#0000000000000000
(1493282066.979410) can0 30B#5F00110000000098
(1493282067.008753) can0 1FD#0000000000000000
(1493282067.029749) can0 30B#5F00110000000098
(1493282067.030997) can0 3C0#6A7E1335
(1493282067.068780) can0 1FD#0000000000000000
(1493282067.079383) can0 30B#5F00110000000098
(1493282067.122260) can0 1BFC38B1#0000000000000000
(1493282067.122577) can0 1BFC38BB#FFFFFFFFFFFFFFFF
(1493282067.122859) can0 1BFC38BA#535553500000001A
(1493282067.123236) can0 1BFC38B9#050296408005A3F4
(1493282067.123488) can0 1BFC38B8#0000000800000000
(1493282067.123857) can0 1BFC38B7#80016484250202E9
(1493282067.124112) can0 1BFC38B6#00000AE0001F0003
(1493282067.124487) can0 1BFC38B5#0502FF9202048292
(1493282067.124733) can0 1BFC38B4#00010101001F0003
(1493282067.125110) can0 1BFC38B3#800164843240CCBB
(1493282067.125364) can0 1BFC38B2#80016484838380A7
(1493282067.130232) can0 6C7#04051101020000
(1493282067.130485) can0 1FD#0000000000000000
(1493282067.130702) can0 30B#5F00110000000098
(1493282067.130948) can0 5F2#CC00
(1493282067.131088) can0 643#000200
(1493282067.131451) can0 64E#00B1040000000000
(1493282067.131697) can0 65E#8808771694410800
(1493282067.131973) can0 6B8#6D08000000000000
(1493282067.132360) can0 6BC#62822651324C07BA
(1493282067.134709) can0 3C0#6A7E1335
(1493282067.179485) can0 30B#5F00110000000098
(1493282067.188985) can0 1FD#0000000000000000
(1493282067.229884) can0 30B#5F00110000000098
(1493282067.230351) can0 630#33D203D2
(1493282067.230468) can0 631#34D200
(1493282067.230869) can0 62D#348414
(1493282067.238343) can0 3C0#6A7E1335
(1493282067.239068) can0 6B6#390C1C000426
(1493282067.239318) can0 6B7#BEB4000008FF80FE
(1493282067.248745) can0 1FD#0000000000000000
(1493282067.279453) can0 30B#5F00110000000098
(1493282067.308743) can0 1FD#0000000000000000
(1493282067.329750) can0 6C7#04051101020000
(1493282067.330109) can0 30B#5F00110000000098
(1493282067.330112) can0 5F2#CC00
(1493282067.342301) can0 3C0#6A7E1335
(1493282067.368728) can0 1FD#0000000000000000
(1493282067.371103) can0 1BFC38B1#0000000000000000
(1493282067.371484) can0 1BFC38BB#FFFFFFFFFFFFFFFF
(1493282067.371729) can0 1BFC38BA#535553500000001A
(1493282067.372112) can0 1BFC38B9#050296408005A3F4
(1493282067.372302) can0 1BFC38B8#0000000800000000
(1493282067.372723) can0 1BFC38B7#80016484250202E9
(1493282067.372961) can0 1BFC38B6#00000AE2001F34A8
(1493282067.373349) can0 1BFC38B5#0502FF9202048292
(1493282067.373599) can0 1BFC38B4#00010101001F0003
(1493282067.373976) can0 1BFC38B3#800164843240CCBB
(1493282067.374346) can0 1BFC38B2#80016484838380A7
(1493282067.380058) can0 30B#5F00110000000098
(1493282067.429838) can0 1FD#0000000000000000
(1493282067.430078) can0 30B#5F00110000000098
(1493282067.445587) can0 3C0#6A7E1335
(1493282067.479495) can0 30B#5F00110000000098
(1493282067.489101) can0 1FD#0000000000000000
(1493282067.529572) can0 6C7#04051101020000
(1493282067.529812) can0 30B#5F00110000000098
(1493282067.530053) can0 5F2#CC00
(1493282067.548799) can0 1FD#0000000000000000
(1493282067.549316) can0 3C0#6A7E1335
(1493282067.579468) can0 30B#5F00110000000098
(1493282067.608817) can0 1FD#0000000000000000
(1493282067.622338) can0 1BFC38B1#0000000000000000
(1493282067.622553) can0 1BFC38BB#FFFFFFFFFFFFFFFF
(1493282067.622797) can0 1BFC38BA#535553500000001A
(1493282067.623202) can0 1BFC38B9#060096408008FC68
(1493282067.623434) can0 1BFC38B8#0000000800000000
(1493282067.623806) can0 1BFC38B7#8001648425020225
(1493282067.624060) can0 1BFC38B6#00000AE500000000
(1493282067.624435) can0 1BFC38B5#0502FF9202048292
(1493282067.624809) can0 1BFC38B4#00010101001F0003
(1493282067.625059) can0 1BFC38B3#800164843240CCBB
(1493282067.625431) can0 1BFC38B2#80016484838380A7
(1493282067.630339) can0 30B#5F00110000000098
(1493282067.630557) can0 65E#88083EA2BA2E0900
(1493282067.639812) can0 62F#4451000427
(1493282067.652676) can0 3C0#6A7E1335
(1493282067.668804) can0 1FD#0000000000000000
(1493282067.679453) can0 30B#5F00110000000098
(1493282067.729684) can0 6C7#04051101020000
(1493282067.729911) can0 1FD#0000000000000000
(1493282067.730188) can0 30B#5F00110000000098
(1493282067.730412) can0 5F2#CC00
(1493282067.756503) can0 3C0#6A7E1335
(1493282067.779415) can0 30B#5F00110000000098
(1493282067.789068) can0 1FD#0000000000000000
(1493282067.829665) can0 30B#5F00110000000098
(1493282067.848808) can0 1FD#0000000000000000
(1493282067.860806) can0 3C0#6A7E1335
(1493282067.871014) can0 1BFC38B1#0000000000000000
(1493282067.871358) can0 1BFC38BB#FFFFFFFFFFFFFFFF
(1493282067.871638) can0 1BFC38BA#0000000700000014
(1493282067.871984) can0 1BFC38B9#060096408008FC68
(1493282067.872274) can0 1BFC38B8#0000000800000000
(1493282067.872670) can0 1BFC38B7#8001648425020225
(1493282067.872903) can0 1BFC38B6#00000AE700000000
(1493282067.873262) can0 1BFC38B5#0502FF9202048292
(1493282067.873631) can0 1BFC38B4#00010101001F0003
(1493282067.873859) can0 1BFC38B3#800164843240CCBB
(1493282067.874254) can0 1BFC38B2#80016484838380A7
(1493282067.880014) can0 30B#5F00110000000098
(1493282067.908784) can0 1FD#0000000000000000
(1493282067.929646) can0 6C7#04051101020000
(1493282067.929850) can0 30B#5F00110000000098
(1493282067.929977) can0 5F2#CC00
(1493282067.964895) can0 3C0#6A7E1335
(1493282067.968809) can0 1FD#0000000000000000
(1493282067.979392) can0 30B#5F00110000000098
(1493282068.029770) can0 1FD#0000000000000000
(1493282068.029998) can0 30B#5F00110000000098
(1493282068.068636) can0 3C0#6A7E1335
(1493282068.079414) can0 30B#5F00110000000098
(1493282068.089036) can0 1FD#0000000000000000
(1493282068.122254) can0 1BFC38B1#0000000000000000
(1493282068.122491) can0 1BFC38BB#FFFFFFFFFFFFFFFF
(1493282068.122882) can0 1BFC38BA#0000000700000014
(1493282068.123253) can0 1BFC38B9#060096408008FC68
(1493282068.123503) can0 1BFC38B8#0000000800000000
(1493282068.123752) can0 1BFC38B7#8001648425020225
(1493282068.124129) can0 1BFC38B6#00000AEA001F0003
(1493282068.124499) can0 1BFC38B5#0502FF9202048292
(1493282068.124754) can0 1BFC38B4#00010101001F0003
(1493282068.125126) can0 1BFC38B3#8001648431001100
(1493282068.125409) can0 1BFC38B2#80016484838380FD
(1493282068.130233) can0 6C7#04051101020000
(1493282068.130499) can0 30B#5F00110000000098
(1493282068.130593) can0 5F2#CC00
(1493282068.130871) can0 643#000200
(1493282068.131154) can0 64E#00B1040000000000
(1493282068.131357) can0 65E#88081008A2200700
(1493282068.131764) can0 6B8#6D08000000000000
(1493282068.132005) can0 6BC#62822651324C0701
(1493282068.148761) can0 1FD#0000000000000000
(1493282068.172508) can0 3C0#6A7E1335
(1493282068.179407) can0 30B#5F00110000000098
(1493282068.208729) can0 1FD#0000000000000000
(1493282068.229745) can0 30B#5F00110000000098
(1493282068.239242) can0 6B6#390C1C000427
(1493282068.239355) can0 6B7#BEB4000008FF80FE
(1493282068.268766) can0 1FD#0000000000000000
(1493282068.276355) can0 3C0#6A7E1335
(1493282068.279372) can0 30B#5F00110000000098
(1493282068.329512) can0 6C7#04051101020000
(1493282068.329868) can0 1FD#0000000000000000
(1493282068.330096) can0 30B#5F00110000000098
(1493282068.330357) can0 5F2#CC00
(1493282068.371000) can0 1BFC38B1#0000000000000000
(1493282068.371354) can0 1BFC38BB#FFFFFFFFFFFFFFFF
(1493282068.371729) can0 1BFC38BA#0000000700000014
(1493282068.371965) can0 1BFC38B9#060096408008FC68
(1493282068.372355) can0 1BFC38B8#0000000800000000
(1493282068.372598) can0 1BFC38B7#8001648425020225
(1493282068.372972) can0 1BFC38B6#00000AEC02048292
(1493282068.373221) can0 1BFC38B5#0502FF9202048292
(1493282068.373601) can0 1BFC38B4#00010101001F0003
(1493282068.373851) can0 1BFC38B3#8001648431001100
(1493282068.374220) can0 1BFC38B2#80016484838380FD
(1493282068.379948) can0 3C0#6A7E1335
(1493282068.380099) can0 30B#5F00110000000098
(1493282068.388881) can0 1FD#0000000000000000
(1493282068.429716) can0 30B#5F00110000000098
(1493282068.448736) can0 1FD#0000000000000000
(1493282068.479383) can0 30B#5F00110000000098
(1493282068.483796) can0 3C0#6A7E1335
(1493282068.508716) can0 1FD#0000000000000000
(1493282068.529575) can0 6C7#04051101020000
(1493282068.529786) can0 30B#5F00110000000098
(1493282068.529921) can0 5F2#CC00
(1493282068.568735) can0 1FD#0000000000000000
(1493282068.579349) can0 30B#5F00110000000098
(1493282068.587689) can0 3C0#6A7E1335
(1493282068.622237) can0 1BFC38B1#0000000000000000
(1493282068.622448) can0 1BFC38BB#FFFFFFFFFFFFFFFF
(1493282068.622832) can0 1BFC38BA#0000000700000014
(1493282068.623166) can0 1BFC38B9#070296408005A3F4
(1493282068.623421) can0 1BFC38B8#0000000800000000
(1493282068.623671) can0 1BFC38B7#8001648425020261
(1493282068.624075) can0 1BFC38B6#00000AEF00000000
(1493282068.624322) can0 1BFC38B5#0502FF9202048292
(1493282068.624685) can0 1BFC38B4#00010101001F0003
(1493282068.625021) can0 1BFC38B3#8001648431001100
(1493282068.625271) can0 1BFC38B2#80016484838380FD
(1493282068.630232) can0 1FD#0000000000000000
(1493282068.630397) can0 30B#5F00110000000098
(1493282068.630692) can0 65E#88082A95B5390D00
(1493282068.639708) can0 62F#4451000428
(1493282068.679309) can0 30B#5F00110000000098
(1493282068.689100) can0 1FD#0000000000000000
(1493282068.691538) can0 3C0#6A7E1335
(1493282068.729603) can0 6C7#04051101020000
(1493282068.729805) can0 30B#5F00110000000098
(1493282068.729938) can0 5F2#CC00
(1493282068.748721) can0 1FD#0000000000000000
(1493282068.779344) can0 30B#5F00110000000098
(1493282068.795155) can0 3C0#6A7E1335
(1493282068.808709) can0 1FD#0000000000000000
(1493282068.829554) can0 30B#5F00110000000098
(1493282068.868673) can0 1FD#0000000000000000
(1493282068.871049) can0 1BFC38B1#0000000000000000
(1493282068.871285) can0 1BFC38BB#FFFFFFFFFFFFFFFF
(1493282068.871671) can0 1BFC38BA#535553500000001A
(1493282068.871922) can0 1BFC38B9#070296408005A3F4
(1493282068.872292) can0 1BFC38B8#0000000800000000
(1493282068.872544) can0 1BFC38B7#8001648425020261
(1493282068.872917) can0 1BFC38B6#00000AF100000000
(1493282068.873174) can0 1BFC38B5#0502FF9202048292
(1493282068.873544) can0 1BFC38B4#00010101001F0003
(1493282068.873795) can0 1BFC38B3#8001648431001100
(1493282068.874151) can0 1BFC38B2#80016484838380FD
(1493282068.880059) can0 30B#5F00110000000098
(1493282068.899250) can0 3C0#6A7E1335
(1493282068.929543) can0 6C7#04051101020000
(1493282068.929917) can0 1FD#0000000000000000
(1493282068.930178) can0 30B#5F00110000000098
(1493282068.930280) can0 5F2#CC00
(1493282068.979313) can0 30B#5F00110000000098
(1493282068.989163) can0 1FD#0000000000000000
(1493282069.002652) can0 3C0#6A7E1335
(1493282069.029530) can0 30B#5F00110000000098
(1493282069.048655) can0 1FD#0000000000000000
(1493282069.079273) can0 30B#5F00110000000098
(1493282069.106013) can0 3C0#6A7E1335
(1493282069.108676) can0 1FD#0000000000000000
(1493282069.122141) can0 1BFC38B1#0000000000000000
(1493282069.122513) can0 1BFC38BB#FFFFFFFFFFFFFFFF
(1493282069.122763) can0 1BFC38BA#535553500000001A
(1493282069.123136) can0 1BFC38B9#070296408005A3F4
(1493282069.123391) can0 1BFC38B8#0000000800000000
(1493282069.123783) can0 1BFC38B7#8001648425020261
(1493282069.124195) can0 1BFC38B6#00000AF4001F0003
(1493282069.124406) can0 1BFC38B5#0502FF9202048292
(1493282069.124644) can0 1BFC38B4#00010101001F0003
(1493282069.125033) can0 1BFC38B3#8001648431003322
(1493282069.125286) can0 1BFC38B2#8001648483830072
(1493282069.130151) can0 6C7#04051101020000
(1493282069.130428) can0 30B#5F00110000000098
(1493282069.130531) can0 5F2#CC00
(1493282069.130775) can0 643#000200
(1493282069.131033) can0 64E#00B1040000000000
(1493282069.131273) can0 65E#88088F8659520B00
(1493282069.131623) can0 6B8#6D08000000000000
(1493282069.131857) can0 6BC#62822651324C0702
(1493282069.168641) can0 1FD#0000000000000000
(1493282069.179389) can0 30B#5F00110000000098
(1493282069.209973) can0 3C0#6A7E1335
(1493282069.229892) can0 1FD#0000000000000000
(1493282069.230084) can0 30B#5F00110000000098
(1493282069.230343) can0 630#33DCFF0F01
(1493282069.230484) can0 631#34D300
(1493282069.230720) can0 62D#348F00
(1493282069.239003) can0 6B6#390C1C000428
(1493282069.239255) can0 6B7#BEB4000008FF80FE
(1493282069.279388) can0 30B#5F00110000000098
(1493282069.288885) can0 1FD#0000000000000000
(1493282069.314009) can0 3C0#6A7E1335
(1493282069.329748) can0 6C7#04051101020000
(1493282069.329997) can0 30B#5F00110000000098
(1493282069.330080) can0 5F2#CC00
(1493282069.348619) can0 1FD#0000000000000000
(1493282069.370954) can0 1BFC38B1#0000000000000000
(1493282069.371192) can0 1BFC38BB#FFFFFFFFFFFFFFFF
(1493282069.371607) can0 1BFC38BA#535553500000001A
(1493282069.371851) can0 1BFC38B9#070296408005A3F4
(1493282069.372193) can0 1BFC38B8#0000000800000000
(1493282069.372440) can0 1BFC38B7#8001648425020261
(1493282069.372814) can0 1BFC38B6#00000AF6001F34A8
(1493282069.373068) can0 1BFC38B5#0502FF9202048292
(1493282069.373441) can0 1BFC38B4#00010101001F0003
(1493282069.373815) can0 1BFC38B3#8001648431003322
(1493282069.374068) can0 1BFC38B2#8001648483830072
(1493282069.379983) can0 30B#5F00110000000098
(1493282069.408614) can0 1FD#0000000000000000
(1493282069.417815) can0 3C0#6A7E1335
(1493282069.429885) can0 30B#5F00110000000098
(1493282069.468613) can0 1FD#0000000000000000
(1493282069.479356) can0 30B#5F00110000000098
(1493282069.521217) can0 3C0#6A7E1335
(1493282069.529476) can0 6C7#04051101020000
(1493282069.529721) can0 1FD#0000000000000000
(1493282069.530069) can0 30B#5F00110000000098
(1493282069.530182) can0 5F2#CC00
(1493282069.579345) can0 30B#5F00110000000098
(1493282069.588969) can0 1FD#0000000000000000
(1493282069.622095) can0 1BFC38B1#0000000000000000
(1493282069.622501) can0 1BFC38BB#FFFFFFFFFFFFFFFF
(1493282069.622698) can0 1BFC38BA#535553500000001A
(1493282069.623079) can0 1BFC38B9#000096408008FC68
(1493282069.623322) can0 1BFC38B8#0000000800000000
(1493282069.623663) can0 1BFC38B7#800164842502029D
(1493282069.624071) can0 1BFC38B6#00000AF900000000
(1493282069.624327) can0 1BFC38B5#0502FF9202048292
(1493282069.624585) can0 1BFC38B4#00010101001F0003
(1493282069.624845) can0 3C0#6A7E1335
(1493282069.624911) can0 1BFC38B3#8001648431003322
(1493282069.625286) can0 1BFC38B2#8001648483830072
(1493282069.630056) can0 30B#5F00110000000098
(1493282069.630427) can0 65E#8808CC93D3740A00
(1493282069.636433) can0 1BF#6B7BDB3B981F4D1A
(1493282069.639937) can0 62F#4451000429
(1493282069.648720) can0 1FD#0000000000000000
(1493282069.656543) can0 638#6766
(1493282069.676723) can0 775#7E99451B53107515
(1493282069.679356) can0 30B#5F00110000000098
(1493282069.696865) can0 1C5#B2EB4E6A01E1
(1493282069.708702) can0 1FD#0000000000000000
(1493282069.717095) can0 3AB#89F54673B592903D
(1493282069.729454) can0 3C0#6A7E1335
(1493282069.729671) can0 6C7#04051101020000
(1493282069.730048) can0 30B#5F00110000000098
(1493282069.730306) can0 5F2#CC00
(1493282069.737135) can0 693#BA5F71771F8FDB12
(1493282069.757196) can0 301#F81B1967B2E2E563
(1493282069.768697) can0 1FD#0000000000000000
(1493282069.777321) can0 085#F1F4B36B4472
(1493282069.779320) can0 30B#5F00110000000098
(1493282069.797610) can0 573#DD91B163ACC30C3B
(1493282069.817690) can0 5CF#FD1E3F7C
(1493282069.829676) can0 1FD#0000000000000000
(1493282069.830060) can0 30B#5F00110000000098
(1493282069.833176) can0 3C0#6A7E1335
(1493282069.837866) can0 22F#97855253F4BB000F
(1493282069.858064) can0 2A1#F59C096B4C4E7E5E
(1493282069.870935) can0 1BFC38B1#0000000000000000
(1493282069.871327) can0 1BFC38BB#FFFFFFFFFFFFFFFF
(1493282069.871546) can0 1BFC38BA#0000000700000014
(1493282069.871948) can0 1BFC38B9#000096408008FC68
(1493282069.872189) can0 1BFC38B8#0000000800000000
(1493282069.872591) can0 1BFC38B7#800164842502029D
(1493282069.872851) can0 1BFC38B6#00000AFB00000000
(1493282069.873192) can0 1BFC38B5#0502FF9202048292
(1493282069.873431) can0 1BFC38B4#00010101001F0003
(1493282069.873833) can0 1BFC38B3#8001648431003322
(1493282069.874028) can0 1BFC38B2#8001648483830072
(1493282069.878070) can0 7E7#02E10E1C7BFE8717
(1493282069.880091) can0 30B#5F00110000000098
(1493282069.888697) can0 1FD#0000000000000000
(1493282069.898225) can0 67D#9A8D632A7EA95E74
(1493282069.918472) can0 478#308C
(1493282069.929678) can0 6C7#04051101020000
(1493282069.929912) can0 30B#5F00110000000098
(1493282069.930022) can0 5F2#CC00
(1493282069.936635) can0 3C0#6A7E1335
(1493282069.938583) can0 378#41D7
(1493282069.948674) can0 1FD#0000000000000000
(1493282069.958716) can0 17F#9764B46F4EC77878
(1493282069.978879) can0 162#933C5636
(1493282069.979304) can0 30B#5F00110000000098
(1493282069.999074) can0 40F#85EF483DB0F6171F
(1493282070.008671) can0 1FD#0000000000000000
(1493282070.019182) can0 374#FD44967D5B734542
(1493282070.029674) can0 30B#5F00110000000098
(1493282070.039128) can0 6F9#D671CD59760D9A39
(1493282070.040496) can0 3C0#6A7E1335
(1493282070.059288) can0 6BB#
(1493282070.068694) can0 1FD#0000000000000000
(1493282070.079296) can0 30B#5F00110000000098
(1493282070.079548) can0 102#30508A7F7A
(1493282070.099722) can0 447#665D
(1493282070.119810) can0 090#147D362EF3F10D03
(1493282070.122189) can0 1BFC38B1#0000000000000000
(1493282070.122566) can0 1BFC38BB#FFFFFFFFFFFFFFFF
(1493282070.122785) can0 1BFC38BA#0000000700000014
(1493282070.123186) can0 1BFC38B9#000096408008FC68
(1493282070.123447) can0 1BFC38B8#0000000800000000
(1493282070.123809) can0 1BFC38B7#800164842502029D
(1493282070.124023) can0 1BFC38B6#00000AFE001F0003
(1493282070.124404) can0 1BFC38B5#0502FF9202048292
(1493282070.124654) can0 1BFC38B4#00010101001F0003
(1493282070.125043) can0 1BFC38B3#8001648432408877
(1493282070.125304) can0 1BFC38B2#80016484838380B9
(1493282070.130167) can0 6C7#04051101020000
(1493282070.130419) can0 1FD#0000000000000000
(1493282070.130649) can0 30B#5F00110000000098
(1493282070.130911) can0 5F2#CC00
(1493282070.131027) can0 643#000200
(1493282070.131264) can0 64E#00B1040000000000
(1493282070.131513) can0 65E#88089133D2E10B00
(1493282070.131888) can0 6B8#6D08000000000000
(1493282070.132136) can0 6BC#62822651324C0718
(1493282070.140013) can0 592#84255631A181A0
(1493282070.144389) can0 3C0#6A7E1335
(1493282070.160188) can0 3D2#5278B84D46AF7F35
(1493282070.179266) can0 30B#5F00110000000098
(1493282070.180154) can0 184#A122C5777DC0941D
(1493282070.188805) can0 1FD#0000000000000000
(1493282070.200427) can0 34E#F3CD2E57094A1912
(1493282070.220536) can0 3E8#3D35B03DEB3C716B
(1493282070.229897) can0 30B#5F00110000000098
(1493282070.239157) can0 6B6#390C1C000429
(1493282070.239354) can0 6B7#BEB4000008FF80FE
(1493282070.240667) can0 00D#65F94906548C9A55
(1493282070.248638) can0 3C0#6A7E1335
(1493282070.248641) can0 1FD#0000000000000000
(1493282070.260848) can0 4DF#1A42580B703D0878
(1493282070.279262) can0 30B#5F00110000000098
(1493282070.280969) can0 0C9#632F167B5B5E2740
(1493282070.301021) can0 0D6#FCDFC76EA8F450
(1493282070.308647) can0 1FD#0000000000000000
(1493282070.321287) can0 1F1#EEA3D041760BFD31
(1493282070.329787) can0 6C7#04051101020000
(1493282070.330010) can0 30B#5F00110000000098
(1493282070.330119) can0 5F2#CC00
(1493282070.341388) can0 59D#F3CB914FEBF8C26C
(1493282070.352126) can0 3C0#6A7E1335
(1493282070.361587) can0 307#F542DC7EF0EEEB
(1493282070.368642) can0 1FD#0000000000000000
(1493282070.371017) can0 1BFC38B1#0000000000000000
(1493282070.371236) can0 1BFC38BB#FFFFFFFFFFFFFFFF
(1493282070.371611) can0 1BFC38BA#0000000700000014
(1493282070.371890) can0 1BFC38B9#000096408008FC68
(1493282070.372313) can0 1BFC38B8#0000000800000000
(1493282070.372505) can0 1BFC38B7#800164842502029D
(1493282070.372878) can0 1BFC38B6#00000B0002048292
(1493282070.373157) can0 1BFC38B5#0502FF9202048292
(1493282070.373519) can0 1BFC38B4#00010101001F0003
(1493282070.373726) can0 1BFC38B3#8001648432408877
(1493282070.374137) can0 1BFC38B2#80016484838380B9
(1493282070.379957) can0 30B#5F00110000000098
(1493282070.381705) can0 6CF#DB2B
(1493282070.401755) can0 59F#
(1493282070.422041) can0 40C#EFE7EB4BD594703D
(1493282070.429873) can0 1FD#0000000000000000
(1493282070.430147) can0 30B#5F00110000000098
(1493282070.442125) can0 478#30F3
(1493282070.455462) can0 3C0#6A7E1335
(1493282070.465626) can0 439#F6E13A7C2BD6790E
(1493282070.479274) can0 30B#5F00110000000098
(1493282070.482418) can0 37B#A1E17640
(1493282070.488740) can0 1FD#0000000000000000
(1493282070.502633) can0 474#043A721D
(1493282070.522754) can0 77B#6B96B5634A66B162
(1493282070.529857) can0 6C7#04051101020000
(1493282070.530101) can0 30B#5F00110000000098
(1493282070.530230) can0 5F2#CC00
(1493282070.543001) can0 52B#264DFE19CAF2
(1493282070.548612) can0 1FD#0000000000000000
(1493282070.558593) can0 3C0#6A7E1335
(1493282070.563131) can0 787#499D85269363
(1493282070.579234) can0 30B#5F00110000000098
(1493282070.583407) can0 5A0#68F89B6819EAF310
(1493282070.603494) can0 48A#67D7DD00C408E22C
(1493282070.608606) can0 1FD#0000000000000000
(1493282070.622232) can0 1BFC38B1#0000000000000000
(1493282070.622603) can0 1BFC38BB#FFFFFFFFFFFFFFFF
(1493282070.622975) can0 1BFC38BA#0000000700000014
(1493282070.623237) can0 1BFC38B9#010296408005A3F4
(1493282070.623628) can0 6C4#EFDE5B3B3FEA737B
(1493282070.623631) can0 1BFC38B8#0000000800000000
(1493282070.624030) can0 1BFC38B7#8005AABC250205D8
(1493282070.624381) can0 1BFC38B6#00000B0300000000
(1493282070.624729) can0 1BFC38B5#0502FF9202048292
(1493282070.625102) can0 1BFC38B4#00010101001F0003
(1493282070.625352) can0 1BFC38B3#8001648432408877
(1493282070.625570) can0 1BFC38B2#80016484838380B9
(1493282070.628584) can0 30B#5F00110000000098
(1493282070.628956) can0 65E#88086DF4B94F0D00
(1493282070.639619) can0 62F#445100042A
(1493282070.643748) can0 742#
(1493282070.662190) can0 3C0#6A7E1335
(1493282070.663844) can0 624#32338F35A0B5A442
(1493282070.668609) can0 1FD#0000000000000000
(1493282070.679222) can0 30B#5F00110000000098
(1493282070.683979) can0 255#EA1B562580D7BE3E
(1493282070.704241) can0 3E4#4A
(1493282070.724360) can0 167#FED63C77
(1493282070.729715) can0 6C7#04051101020000
(1493282070.729950) can0 1FD#0000000000000000
(1493282070.730339) can0 30B#5F00110000000098
(1493282070.730456) can0 5F2#CC00
(1493282070.744478) can0 4CC#218953365789
(1493282070.764590) can0 2FE#1B92AD10C279A018
(1493282070.765797) can0 3C0#6A7E1335
(1493282070.779203) can0 30B#5F00110000000098
(1493282070.784770) can0 1E6#0264141429596E6F
(1493282070.788837) can0 1FD#0000000000000000
(1493282070.804883) can0 19A#DFE43322BE9FB753
(1493282070.824957) can0 4B6#5E
(1493282070.829706) can0 30B#5F00110000000098
(1493282070.845065) can0 1AF#8BAE6F2E936D5F3A
(1493282070.848583) can0 1FD#0000000000000000
(1493282070.865324) can0 25A#FEE07006C1
(1493282070.869699) can0 3C0#6A7E1335
(1493282070.870911) can0 1BFC38B1#0000000000000000
(1493282070.871164) can0 1BFC38BB#FFFFFFFFFFFFFFFF
(1493282070.871570) can0 1BFC38BA#535553500000001A
(1493282070.871821) can0 1BFC38B9#010296408005A3F4
(1493282070.872219) can0 1BFC38B8#0000000800000000
(1493282070.872440) can0 1BFC38B7#8005AABC250205D8
(1493282070.872853) can0 1BFC38B6#00000B0500000000
(1493282070.873058) can0 1BFC38B5#0502FF9202048292
(1493282070.873430) can0 1BFC38B4#00010101001F0003
(1493282070.873675) can0 1BFC38B3#8001648432408877
(1493282070.874054) can0 1BFC38B2#80016484838380B9
(1493282070.879931) can0 30B#5F00110000000098
(1493282070.885361) can0 069#C9A2A00636CD0E22
(1493282070.905607) can0 762#8D56DA0560429323
(1493282070.908595) can0 1FD#0000000000000000
(1493282070.925865) can0 473#22BC333C59A66F28
(1493282070.929569) can0 6C7#04051101020000
(1493282070.929962) can0 30B#5F00110000000098
(1493282070.929964) can0 5F2#CC00
(1493282070.945940) can0 1B2#82FFDD17
(1493282070.966203) can0 77E#0A2B
(1493282070.968571) can0 1FD#0000000000000000
(1493282070.973783) can0 3C0#6A7E1335
(1493282070.979218) can0 30B#5F00110000000098
(1493282070.986355) can0 473#3F7BFD0922DEDC02
(1493282071.006640) can0 1B2#B54B3C3D0CCC3A4B
(1493282071.026718) can0 2A0#CDCF7B
(1493282071.029587) can0 1FD#0000000000000000
(1493282071.029963) can0 30B#5F00110000000098
(1493282071.046933) can0 4AF#3F500312116CE1
(1493282071.067068) can0 681#71AE7442F42A3664
(1493282071.077928) can0 3C0#6A7E1335
(1493282071.079139) can0 30B#5F00110000000098
(1493282071.087648) can0 774#4ED1A50C
(1493282071.088833) can0 1FD#0000000000000000
(1493282071.107808) can0 2B8#
(1493282071.122062) can0 1BFC38B1#0000000000000000
(1493282071.122297) can0 1BFC38BB#FFFFFFFFFFFFFFFF
(1493282071.122682) can0 1BFC38BA#535553500000001A
(1493282071.122921) can0 1BFC38B9#010296408005A3F4
(1493282071.123311) can0 1BFC38B8#0000000800000000
(1493282071.123545) can0 1BFC38B7#8005AABC250205D8
(1493282071.123905) can0 1BFC38B6#00000B08001F0003
(1493282071.124313) can0 1BFC38B5#0502FF9202048292
(1493282071.124561) can0 1BFC38B4#00010101001F0003
(1493282071.124930) can0 1BFC38B3#800164843100DDCC
(1493282071.125206) can0 1BFC38B2#80016484838380FF
(1493282071.128003) can0 532#6BDEBC79A6B16A70
(1493282071.130076) can0 6C7#04051101020000
(1493282071.130298) can0 30B#5F00110000000098
(1493282071.130548) can0 5F2#CC00
(1493282071.130664) can0 643#000200
(1493282071.131058) can0 64E#00B1040000000000
(1493282071.131312) can0 65E#880861658E920500
(1493282071.131571) can0 6B8#6D08000000000000
(1493282071.131933) can0 6BC#62822651324C077E
(1493282071.148048) can0 7E6#C88F477398113F1E
(1493282071.148668) can0 1FD#0000000000000000
(1493282071.168372) can0 375#A4DD796915266534
(1493282071.179194) can0 30B#5F00110000000098
(1493282071.181905) can0 3C0#6A7E1335
(1493282071.191520) can0 031#1F
(1493282071.208385) can0 008#F2586D548ABE2239
(1493282071.208491) can0 1FD#0000000000000000
(1493282071.228706) can0 02B#7EE9581D
(1493282071.229539) can0 30B#5F00110000000098
(1493282071.229908) can0 630#33E601000100
(1493282071.230022) can0 631#34D400
(1493282071.230297) can0 62D#3490204C00
(1493282071.238901) can0 6B6#390C1C00042A
(1493282071.239263) can0 6B7#BEB4000008FF80FE
(1493282071.248919) can0 1F8#C618970DB0FC7A64
(1493282071.268541) can0 1FD#0000000000000000
(1493282071.268932) can0 39D#E736EB43CF40182D
(1493282071.279182) can0 30B#5F00110000000098
(1493282071.285629) can0 3C0#6A7E1335
(1493282071.289059) can0 4B5#75F282
(1493282071.309180) can0 6FE#335ECF6E73F2897D
(1493282071.329277) can0 5BC#8918EF31ED657F
(1493282071.329387) can0 6C7#04051101020000
(1493282071.329897) can0 1FD#0000000000000000
(1493282071.330153) can0 30B#5F00110000000098
(1493282071.330410) can0 5F2#CC00
(1493282071.349546) can0 149#CE520B6B51095137
(1493282071.369686) can0 306#DB
(1493282071.370894) can0 1BFC38B1#0000000000000000
(1493282071.371131) can0 1BFC38BB#FFFFFFFFFFFFFFFF
(1493282071.371521) can0 1BFC38BA#535553500000001A
(1493282071.371900) can0 1BFC38B9#010296408005A3F4
(1493282071.372145) can0 1BFC38B8#0000000800000000
(1493282071.372519) can0 1BFC38B7#8005AABC250205D8
(1493282071.372784) can0 1BFC38B6#00000B0A001F34A8
(1493282071.373021) can0 1BFC38B5#0502FF9202048292
(1493282071.373408) can0 1BFC38B4#00010101001F0003
(1493282071.373630) can0 1BFC38B3#800164843100DDCC
(1493282071.374004) can0 1BFC38B2#80016484838380FF
(1493282071.379878) can0 30B#5F00110000000098
(1493282071.388611) can0 1FD#0000000000000000
(1493282071.389221) can0 3C0#6A7E1335
(1493282071.389737) can0 325#D18A80571D25E56B
(1493282071.409893) can0 426#CD216050C3F74D
(1493282071.429639) can0 30B#5F00110000000098
(1493282071.429886) can0 0CF#9338663385
(1493282071.448518) can0 1FD#0000000000000000
(1493282071.450043) can0 608#20AA280106DD5513
(1493282071.470140) can0 546#79CFDF10
(1493282071.479260) can0 30B#5F00110000000098
(1493282071.490400) can0 42B#F070
(1493282071.493014) can0 3C0#6A7E1335
(1493282071.508534) can0 1FD#0000000000000000
(1493282071.510501) can0 1AA#C636D16DB164BD25
(1493282071.529507) can0 6C7#04051101020000
(1493282071.529893) can0 30B#5F00110000000098
(1493282071.529985) can0 5F2#CC00
(1493282071.530640) can0 77F#E2
(1493282071.550809) can0 7FB#C14745
(1493282071.568504) can0 1FD#0000000000000000
(1493282071.570883) can0 64A#E5132B2A1A1F496B
(1493282071.579258) can0 30B#5F00110000000098
(1493282071.591167) can0 244#9F7CE11B4C30E47B
(1493282071.596355) can0 3C0#6A7E1335
(1493282071.611260) can0 781#520D3A0FC7242E10
(1493282071.622023) can0 1BFC38B1#0000000000000000
(1493282071.622364) can0 1BFC38BB#FFFFFFFFFFFFFFFF
(1493282071.622613) can0 1BFC38BA#535553500000001A
(1493282071.622962) can0 1BFC38B9#020096408008FC68
(1493282071.623244) can0 1BFC38B8#0000000800000000
(1493282071.623599) can0 1BFC38B7#8001648425020215
(1493282071.623846) can0 1BFC38B6#00000B0D00000000
(1493282071.624267) can0 1BFC38B5#0502FF9202048292
(1493282071.624484) can0 1BFC38B4#00010101001F0003
(1493282071.624898) can0 1BFC38B3#800164843100DDCC
(1493282071.625128) can0 1BFC38B2#80016484838380FF
(1493282071.628879) can0 1FD#0000000000000000
(1493282071.629106) can0 30B#5F00110000000098
(1493282071.629366) can0 65E#8808C9B572C50800
(1493282071.631331) can0 713#CA2F30333F734355
(1493282071.638973) can0 64E#00A2030000000000
(1493282071.648991) can0 62F#445100042B
(1493282071.651504) can0 4CE#B3A0C30B786E007C
(1493282071.671893) can0 478#29D3BD21F8D34352
(1493282071.679225) can0 30B#5F00110000000098
(1493282071.688611) can0 1FD#0000000000000000
(1493282071.691863) can0 61B#9CF6A32B1686EB43
(1493282071.700230) can0 3C0#6A7E1335
(1493282071.712157) can0 5BF#38A2C8670ACCAF37
(1493282071.728493) can0 6C7#04051101020000
(1493282071.728882) can0 30B#5F00110000000098
(1493282071.728957) can0 5F2#CC00
(1493282071.732259) can0 7ED#24EBF822316A7F30
(1493282071.748604) can0 1FD#0000000000000000
(1493282071.752372) can0 296#7D9A63
(1493282071.772475) can0 682#DF9E2D2E96BDE668
(1493282071.779722) can0 30B#5F00110000000098
(1493282071.792662) can0 49A#D5302A3E6849A03E
(1493282071.803942) can0 3C0#6A7E1335
(1493282071.808755) can0 1FD#0000000000000000
(1493282071.812777) can0 763#E1B7A03ADBD34D3C
(1493282071.829995) can0 30B#5F00110000000098
(1493282071.832924) can0 102#D3A7910E1D7F5C1B
(1493282071.853046) can0 616#
(1493282071.868478) can0 1FD#0000000000000000
(1493282071.870843) can0 1BFC38B1#0000000000000000
(1493282071.871217) can0 1BFC38BB#FFFFFFFFFFFFFFFF
(1493282071.871456) can0 1BFC38BA#0000000700000014
(1493282071.871848) can0 1BFC38B9#020096408008FC68
(1493282071.872091) can0 1BFC38B8#0000000800000000
(1493282071.872471) can0 1BFC38B7#8001648425020215
(1493282071.872821) can0 1BFC38B6#00000B0F00000000
(1493282071.873104) can0 4CE#E0C7E330BB84AD31
(1493282071.873107) can0 1BFC38B5#0502FF9202048292
(1493282071.873336) can0 1BFC38B4#00010101001F0003
(1493282071.873880) can0 1BFC38B3#800164843100DDCC
(1493282071.874213) can0 1BFC38B2#80016484838380FF
(1493282071.879964) can0 30B#5F00110000000098
(1493282071.893211) can0 58A#ECEE2C62
(1493282071.907800) can0 3C0#6A7E1335
(1493282071.913359) can0 2C7#38DA886649A99B6E
(1493282071.929460) can0 6C7#04051101020000
(1493282071.929727) can0 1FD#0000000000000000
(1493282071.929959) can0 30B#5F00110000000098
(1493282071.930226) can0 5F2#CC00
(1493282071.933537) can0 138#DF668257D2B5E5
(1493282071.953726) can0 7C0#3BFF8564
(1493282071.973881) can0 13D#FE8A711F3F121D23
(1493282071.979330) can0 30B#5F00110000000098
(1493282071.988837) can0 1FD#0000000000000000
(1493282071.993956) can0 226#5C91
(1493282072.011288) can0 3C0#6A7E1335
(1493282072.014124) can0 142#135C737310AE5713
(1493282072.029576) can0 30B#5F00110000000098
(1493282072.034159) can0 5FB#CB3205
(1493282072.048546) can0 1FD#0000000000000000
(1493282072.054320) can0 6F7#A6FB5F06BEF1EA
(1493282072.074609) can0 320#079B867958DCF07F
(1493282072.079318) can0 30B#5F00110000000098
(1493282072.094741) can0 6F5#2A92D625B596B3
(1493282072.108562) can0 1FD#0000000000000000
(1493282072.114776) can0 19B#D84DD75AD8
(1493282072.115057) can0 3C0#6A7E1335
(1493282072.122218) can0 1BFC38B1#0000000000000000
(1493282072.122445) can0 1BFC38BB#FFFFFFFFFFFFFFFF
(1493282072.122795) can0 1BFC38BA#0000000700000014
(1493282072.123177) can0 1BFC38B9#020096408008FC68
(1493282072.123416) can0 1BFC38B8#0000000800000000
(1493282072.123793) can0 1BFC38B7#8001648425020215
(1493282072.124064) can0 1BFC38B6#00000B120000A203
(1493282072.124460) can0 1BFC38B5#0502FF9202048292
(1493282072.124834) can0 1BFC38B4#110F01010000A203
(1493282072.125064) can0 1BFC38B3#800164843100FFEE
(1493282072.125329) can0 1BFC38B2#8001648483830054
(1493282072.128574) can0 6C7#04051101020000
(1493282072.128811) can0 30B#5F00110000000098
(1493282072.129041) can0 5F2#CC00
(1493282072.129173) can0 643#000200
(1493282072.129419) can0 64E#00A2030000000000
(1493282072.129790) can0 65E#88083668667C0500
(1493282072.130056) can0 6B8#6D08000000000000
(1493282072.130311) can0 6BC#62822651324C078E
(1493282072.134887) can0 081#17156D69A88A
(1493282072.155097) can0 3A8#E5EA47
(1493282072.168555) can0 1FD#0000000000000000
(1493282072.175197) can0 503#FA8ADC23FE7A7A2A
(1493282072.179308) can0 30B#5F00110000000098
(1493282072.195385) can0 2EB#84165168E2
(1493282072.215474) can0 77C#A033313A9C8AD645
(1493282072.218763) can0 3C0#6A7E1335
(1493282072.229740) can0 1FD#0000000000000000
(1493282072.230044) can0 30B#5F00110000000098
(1493282072.235561) can0 008#F466C745FD3639
(1493282072.238830) can0 6B6#390C1C00042B
(1493282072.239050) can0 6B7#BEB4000008FF80FE
(1493282072.255847) can0 08E#B2CDEC542A6A766B
(1493282072.275920) can0 284#026DC63106D37D1F
(1493282072.279294) can0 30B#5F00110000000098
(1493282072.288680) can0 1FD#0000000000000000
(1493282072.296082) can0 460#AE5D864409005952
(1493282072.316310) can0 08D#F3DCDD
(1493282072.322276) can0 3C0#6A7E1335
(1493282072.329537) can0 6C7#04051101020000
(1493282072.329791) can0 30B#5F00110000000098
(1493282072.330069) can0 5F2#CC00
(1493282072.336474) can0 78B#8FE03C3376FA9B2D
(1493282072.348563) can0 1FD#0000000000000000
(1493282072.356436) can0 5B3#583CE2
(1493282072.370815) can0 1BFC38B1#0000000000000000
(1493282072.371186) can0 1BFC38BB#FFFFFFFFFFFFFFFF
(1493282072.371407) can0 1BFC38BA#0000000700000014
(1493282072.371788) can0 1BFC38B9#020096408008FC68
(1493282072.372168) can0 1BFC38B8#0000000800000000
(1493282072.372422) can0 1BFC38B7#8001648425020215
(1493282072.372791) can0 1BFC38B6#00000B1402048292
(1493282072.373067) can0 1BFC38B5#0502FF9202048292
(1493282072.373424) can0 1BFC38B4#110F01010000A203
(1493282072.373766) can0 1BFC38B3#800164843100FFEE
(1493282072.374025) can0 1BFC38B2#8001648483830054
(1493282072.376740) can0 13D#CC8F864545F1D865
(1493282072.380034) can0 30B#5F00110000000098
(1493282072.396814) can0 69F#42
(1493282072.408541) can0 1FD#0000000000000000
(1493282072.416919) can0 7E0#5879023B
(1493282072.425772) can0 3C0#6A7E1335
(1493282072.429812) can0 30B#5F00110000000098
(1493282072.437087) can0 17E#6A4D640CDE05D071
(1493282072.457165) can0 074#E70529440291164B
(1493282072.468537) can0 1FD#0000000000000000
(1493282072.477440) can0 3AB#92F6D8533683422B
(1493282072.479273) can0 30B#5F00110000000098
(1493282072.497549) can0 2C9#AC
(1493282072.517796) can0 634#AC750D1D
(1493282072.529636) can0 3C0#6A7E1335
(1493282072.529640) can0 6C7#04051101020000
(1493282072.529848) can0 1FD#0000000000000000
(1493282072.530216) can0 30B#5F00110000000098
(1493282072.530485) can0 5F2#CC00
(1493282072.537948) can0 1FC#B6C8BB129C689F17
(1493282072.558056) can0 43A#CA772B671AECCD64
(1493282072.578151) can0 6EC#7E66
(1493282072.579262) can0 30B#5F00110000000098
(1493282072.588541) can0 1FD#0000000000000000
(1493282072.598265) can0 77C#49FE5F27F13FF316
(1493282072.618528) can0 701#
(1493282072.622137) can0 1BFC38B1#0000000000000000
(1493282072.622501) can0 1BFC38BB#FFFFFFFFFFFFFFFF
(1493282072.622751) can0 1BFC38BA#0000000700000014
(1493282072.623129) can0 1BFC38B9#030296408005A3F4
(1493282072.623372) can0 1BFC38B8#0000000800000000
(1493282072.623753) can0 1BFC38B7#800164842502024E
(1493282072.623976) can0 1BFC38B6#00000B1700000000
(1493282072.624343) can0 1BFC38B5#0502FF9202048292
(1493282072.624720) can0 1BFC38B4#110F01010000A203
(1493282072.624973) can0 1BFC38B3#800164843100FFEE
(1493282072.625220) can0 1BFC38B2#8001648483830054
(1493282072.628492) can0 30B#5F00110000000098
(1493282072.628755) can0 65E#88080817BB060A00
(1493282072.633713) can0 3C0#6A7E1335
(1493282072.638479) can0 70B#E3D5FE0ED4
(1493282072.639987) can0 62F#445100042C
(1493282072.648534) can0 1FD#0000000000000000
(1493282072.658784) can0 6A7#
(1493282072.678898) can0 594#4D447F0C9137726A
(1493282072.679274) can0 30B#5F00110000000098
(1493282072.699013) can0 576#2DA011
(1493282072.708500) can0 1FD#0000000000000000
(1493282072.719122) can0 5FC#CA050030E8E4D5
(1493282072.729746) can0 6C7#04051101020000
(1493282072.729985) can0 30B#5F00110000000098
(1493282072.730097) can0 5F2#CC00
(1493282072.737475) can0 3C0#6A7E1335
(1493282072.739226) can0 119#53DD651895E0611A
(1493282072.759361) can0 032#86205531337FD00E
(1493282072.768524) can0 1FD#0000000000000000
(1493282072.779242) can0 30B#5F00110000000098
(1493282072.779481) can0 7CC#E0D18C72D8C6DE3D
(1493282072.799773) can0 0FF#ACF82F7E
(1493282072.819874) can0 354#81C4D665E8080707
(1493282072.829736) can0 1FD#0000000000000000
(1493282072.829984) can0 30B#5F00110000000098
(1493282072.839937) can0 2FB#7940797171D0EA33
(1493282072.840983) can0 3C0#6A7E1335
(1493282072.860139) can0 5D2#22EA1C7FCE13
(1493282072.870762) can0 1BFC38B1#0000000000000000
(1493282072.871102) can0 1BFC38BB#FFFFFFFFFFFFFFFF
(1493282072.871352) can0 1BFC38BA#535553500000001A
(1493282072.871746) can0 1BFC38B9#030296408005A3F4
(1493282072.872102) can0 1BFC38B8#0000000800000000
(1493282072.872346) can0 1BFC38B7#800164842502024E
(1493282072.872725) can0 1BFC38B6#00000B1900000000
(1493282072.872943) can0 1BFC38B5#0502FF9202048292
(1493282072.873313) can0 1BFC38B4#110F01010000A203
(1493282072.873568) can0 1BFC38B3#800164843100FFEE
(1493282072.873941) can0 1BFC38B2#8001648483830054
(1493282072.879839) can0 30B#5F00110000000098
(1493282072.880260) can0 09D#B6F86F69B6013368
(1493282072.888759) can0 1FD#0000000000000000
(1493282072.900380) can0 435#4CE29402677C9E10
(1493282072.920507) can0 1A5#9BFB
(1493282072.929723) can0 6C7#04051101020000
(1493282072.929977) can0 30B#5F00110000000098
(1493282072.930089) can0 5F2#CC00
(1493282072.940722) can0 44C#4A58C92A4BAD8A10
(1493282072.944715) can0 3C0#6A7E1335
(1493282072.948505) can0 1FD#0000000000000000
(1493282072.960721) can0 53F#F104C5169370
(1493282072.979246) can0 30B#5F00110000000098
(1493282072.981028) can0 3F4#7C79
(1493282073.001115) can0 241#606F5D0F13
(1493282073.008467) can0 1FD#0000000000000000
(1493282073.021293) can0 29C#E1FB
(1493282073.029850) can0 30B#5F00110000000098
(1493282073.041368) can0 16F#F094F62DA4A568
(1493282073.051332) can0 3C0#6A7E1335
(1493282073.061517) can0 2A1#0C22077F467CFE33
(1493282073.068486) can0 1FD#0000000000000000
(1493282073.079463) can0 30B#5F00110000000098
(1493282073.081662) can0 20E#B80DE9205A6EBE
(1493282073.101872) can0 322#A51B
(1493282073.121956) can0 6F9#F5D0E940EDA2
(1493282073.122068) can0 1BFC38B1#0000000000000000
(1493282073.122699) can0 1BFC38BB#FFFFFFFFFFFFFFFF
(1493282073.122995) can0 1BFC38BA#535553500000001A
(1493282073.123210) can0 1BFC38B9#030296408005A3F4
(1493282073.123579) can0 1BFC38B8#0000000800000000
(1493282073.123827) can0 1BFC38B7#800164842502024E
(1493282073.124202) can0 1BFC38B6#00000B1C0000A203
(1493282073.124452) can0 1BFC38B5#0502FF9202048292
(1493282073.124826) can0 1BFC38B4#110F01010000A203
(1493282073.125077) can0 1BFC38B3#8001648432404433
(1493282073.125449) can0 1BFC38B2#80016484838380EB
(1493282073.128471) can0 6C7#04051101020000
(1493282073.128851) can0 1FD#0000000000000000
(1493282073.129078) can0 30B#5F00110000000098
(1493282073.129164) can0 5F2#CC00
(1493282073.129472) can0 643#000200
(1493282073.129670) can0 64E#00A2030000000000
(1493282073.129931) can0 65E#88082BD77EDE0600
(1493282073.130305) can0 6B8#6D08000000000000
(1493282073.130569) can0 6BC#62822651324C0792
(1493282073.142228) can0 209#DC
(1493282073.151667) can0 3C0#6A7E1335
(1493282073.162365) can0 467#5DA41E3F039F4D23
(1493282073.179112) can0 30B#5F00110000000098
(1493282073.182448) can0 2BF#3C3211692E546530
(1493282073.188732) can0 1FD#0000000000000000
(1493282073.202739) can0 4D5#D2F9CD1E765F2B29
(1493282073.222860) can0 668#BDDB295D77B8082C
(1493282073.229726) can0 30B#5F00110000000098
(1493282073.230066) can0 630#33E90500
(1493282073.230567) can0 62D#3491022601
(1493282073.238959) can0 6B6#390C1C00042C
(1493282073.239214) can0 6B7#BEB4000008FF80FE
(1493282073.239674) can0 631#34D500
(1493282073.242966) can0 185#D126C757A8
(1493282073.248472) can0 1FD#0000000000000000
(1493282073.255539) can0 3C0#6A7E1335
(1493282073.263041) can0 778#0A85B630710671
(1493282073.279186) can0 30B#5F00110000000098
(1493282073.283337) can0 30D#5EA9F437164DC836
(1493282073.303446) can0 071#60096475D8A4D370
(1493282073.308430) can0 1FD#0000000000000000
(1493282073.323698) can0 476#DB43211435A70C64
(1493282073.329680) can0 6C7#04051101020000
(1493282073.329931) can0 30B#5F00110000000098
(1493282073.330042) can0 5F2#CC00
(1493282073.343831) can0 5FB#63FB7114D1E286
(1493282073.359267) can0 3C0#6A7E1335
(1493282073.363949) can0 544#4742B25AAC7B
(1493282073.368453) can0 1FD#0000000000000000
(1493282073.370799) can0 1BFC38B1#0000000000000000
(1493282073.371042) can0 1BFC38BB#FFFFFFFFFFFFFFFF
(1493282073.371405) can0 1BFC38BA#535553500000001A
(1493282073.371670) can0 1BFC38B9#030296408005A3F4
(1493282073.372047) can0 1BFC38B8#0000000800000000
(1493282073.372313) can0 1BFC38B7#800164842502024E
(1493282073.372696) can0 1BFC38B6#00000B1E000034A8
(1493282073.372941) can0 1BFC38B5#0502FF9202048292
(1493282073.373280) can0 1BFC38B4#110F01010000A203
(1493282073.373700) can0 1BFC38B3#8001648432404433
(1493282073.373910) can0 1BFC38B2#80016484838380EB
(1493282073.379833) can0 30B#5F00110000000098
(1493282073.384001) can0 114#2334D607
(1493282073.404173) can0 77A#426F1D7AF2
(1493282073.424443) can0 56C#635D253E7900CC5A
(1493282073.429682) can0 1FD#0000000000000000
(1493282073.430061) can0 30B#5F00110000000098
(1493282073.444691) can0 24B#90
(1493282073.462921) can0 3C0#6A7E1335
(1493282073.464720) can0 1FB#
(1493282073.479047) can0 30B#5F00110000000098
(1493282073.484869) can0 4AE#A7355058A9523936
(1493282073.488662) can0 1FD#0000000000000000
(1493282073.504944) can0 187#7A35C067CB865769
(1493282073.525177) can0 640#7702
(1493282073.529531) can0 6C7#04051101020000
(1493282073.529808) can0 30B#5F00110000000098
(1493282073.530023) can0 5F2#CB00
(1493282073.545293) can0 5C6#EF81777E409D3D30
(1493282073.548410) can0 1FD#0000000000000000
(1493282073.565370) can0 190#32
(1493282073.566645) can0 3C0#6A7E1335
(1493282073.579052) can0 30B#5F00110000000098
(1493282073.585653) can0 57D#752F127BC8
(1493282073.605810) can0 056#851AD31251
(1493282073.608398) can0 1FD#0000000000000000
(1493282073.622151) can0 1BFC38B1#0000000000000000
(1493282073.622382) can0 1BFC38BB#FFFFFFFFFFFFFFFF
(1493282073.622760) can0 1BFC38BA#535553500000001A
(1493282073.622987) can0 1BFC38B9#040096408008FC68
(1493282073.623362) can0 1BFC38B8#0000000800000000
(1493282073.623605) can0 1BFC38B7#800164842502028A
(1493282073.623991) can0 1BFC38B6#00000B2100000000
(1493282073.624234) can0 1BFC38B5#0502FF9202048292
(1493282073.624608) can0 1BFC38B4#110F01010000A203
(1493282073.624864) can0 1BFC38B3#8001648432404433
(1493282073.625235) can0 1BFC38B2#80016484838380EB
(1493282073.625764) can0 3F6#C3D8795BA4D8194F
(1493282073.628522) can0 30B#5F00110000000098
(1493282073.628773) can0 65E#88087CD5A07E0800
(1493282073.639394) can0 62F#445100042D
(1493282073.646010) can0 589#4D2B530510C7A403
(1493282073.666132) can0 774#DB4DFC6CB5658E40
(1493282073.668394) can0 1FD#0000000000000000
(1493282073.670139) can0 3C0#6A7E1335
(1493282073.679146) can0 30B#5F00110000000098
(1493282073.686295) can0 08A#0A9D
(1493282073.706532) can0 6ED#910B125A7D18B52B
(1493282073.726663) can0 02A#7947FB
(1493282073.729640) can0 6C7#04051101020000
(1493282073.730028) can0 1FD#0000000000000000
(1493282073.730259) can0 30B#5F00110000000098
(1493282073.730378) can0 5F2#CA00
(1493282073.746794) can0 159#6F25F80BAFA94C5C
(1493282073.767022) can0 3F4#01F48243
(1493282073.773592) can0 3C0#6A7E1335
(1493282073.779161) can0 30B#5F00110000000098
(1493282073.787159) can0 20E#8EA06C36
(1493282073.788664) can0 1FD#0000000000000000
(1493282073.807428) can0 32E#A72E9427A21A5373
(1493282073.827514) can0 4A4#5780
(1493282073.829625) can0 30B#5F00110000000098
(1493282073.847623) can0 4D4#7E
(1493282073.848368) can0 1FD#0000000000000000
(1493282073.867917) can0 45A#3F6C8371844C563E
(1493282073.870744) can0 1BFC38B1#0000000000000000
(1493282073.871160) can0 1BFC38BB#FFFFFFFFFFFFFFFF
(1493282073.871373) can0 1BFC38BA#0000000700000014
(1493282073.871763) can0 1BFC38B9#040096408008FC68
(1493282073.871997) can0 1BFC38B8#0000000800000000
(1493282073.872338) can0 1BFC38B7#800164842502028A
(1493282073.872609) can0 1BFC38B6#00000B2300000000
(1493282073.872974) can0 1BFC38B5#0502FF9202048292
(1493282073.873223) can0 1BFC38B4#110F01010000A203
(1493282073.873602) can0 1BFC38B3#8001648432404433
(1493282073.873847) can0 1BFC38B2#80016484838380EB
(1493282073.877489) can0 3C0#6A7E1335
(1493282073.879724) can0 30B#5F00110000000098
(1493282073.887999) can0 6D3#2B42710A2CD05E5E
(1493282073.908132) can0 2A8#DB79AB3A9C1E4058
(1493282073.908511) can0 1FD#0000000000000000
(1493282073.928283) can0 78F#87E6923F9D919C2A
(1493282073.929492) can0 6C7#04051101020000
(1493282073.929739) can0 30B#5F00110000000098
(1493282073.929979) can0 5F2#C900
(1493282073.948406) can0 2A0#34F98B4ECE
(1493282073.968378) can0 1FD#0000000000000000
(1493282073.968600) can0 2F1#71304563957F925A
(1493282073.979110) can0 30B#5F00110000000098
(1493282073.980956) can0 3C0#6A7E1335
(1493282073.988813) can0 45D#C384EB3232716251
(1493282074.009031) can0 62A#F4C4
(1493282074.029117) can0 751#0957A8
(1493282074.029344) can0 1FD#0000000000000000
(1493282074.029733) can0 30B#5F00110000000098
(1493282074.049229) can0 4EC#50C6FA55
(1493282074.069493) can0 0CF#312EFF225FA8B726
(1493282074.079095) can0 30B#5F00110000000098
(1493282074.084343) can0 3C0#6A7E1335
(1493282074.088737) can0 1FD#0000000000000000
(1493282074.089617) can0 608#FC395451A9E8FF2B
(1493282074.109685) can0 3CD#77
(1493282074.121842) can0 1BFC38B1#0000000000000000
(1493282074.122244) can0 1BFC38BB#FFFFFFFFFFFFFFFF
(1493282074.122653) can0 1BFC38BA#0000000700000014
(1493282074.122838) can0 1BFC38B9#040096408008FC68
(1493282074.123119) can0 1BFC38B8#0000000800000000
(1493282074.123477) can0 1BFC38B7#800164842502028A
(1493282074.123729) can0 1BFC38B6#00000B260000A203
(1493282074.124108) can0 1BFC38B5#0502FF9202048292
(1493282074.124310) can0 1BFC38B4#110F01010000A203
(1493282074.124700) can0 1BFC38B3#8001648431009988
(1493282074.124943) can0 1BFC38B2#80016484838380F1
(1493282074.129704) can0 30C#546EE3646AFFB020
(1493282074.129799) can0 6C7#04051101020000
(1493282074.130096) can0 30B#5F00110000000098
(1493282074.130481) can0 5F2#C900
(1493282074.130718) can0 643#000200
(1493282074.130946) can0 64E#00A2030000000000
(1493282074.131238) can0 65E#88082802BC6D0800
(1493282074.131614) can0 6B8#6D08000000000000
(1493282074.131842) can0 6BC#62822651324C0798
(1493282074.148357) can0 1FD#0000000000000000
(1493282074.150011) can0 7B1#9C701372DBAD0B13
(1493282074.170089) can0 35A#
(1493282074.179462) can0 30B#5F00110000000098
(1493282074.188072) can0 3C0#6A7E1335
(1493282074.190248) can0 6C3#D058DC55B04B2B58
(1493282074.208429) can0 1FD#0000000000000000
(1493282074.210312) can0 09D#
(1493282074.229580) can0 30B#5F00110000000098
(1493282074.230595) can0 74C#CB515A6955
(1493282074.238592) can0 6B6#390C1C00042D
(1493282074.238963) can0 6B7#BEB4000008FF80FE
(1493282074.250716) can0 62D#FEF55177FB390D01
(1493282074.268361) can0 1FD#0000000000000000
(1493282074.270827) can0 6F9#BA285E0B05
(1493282074.279085) can0 30B#5F00110000000098
(1493282074.290903) can0 35E#6F1940110F03D928
(1493282074.292177) can0 3C0#6A7E1335
(1493282074.311105) can0 226#EAB0E43B8075F854
(1493282074.329435) can0 6C7#04051101020000
(1493282074.329697) can0 1FD#0000000000000000
(1493282074.329935) can0 30B#5F00110000000098
(1493282074.330209) can0 5F2#C600
(1493282074.331316) can0 79B#2CD838335F26901E
(1493282074.351459) can0 0B2#0F72BB764F216828
(1493282074.370688) can0 1BFC38B1#0000000000000000
(1493282074.371018) can0 1BFC38BB#FFFFFFFFFFFFFFFF
(1493282074.371342) can0 1BFC38BA#0000000700000014
(1493282074.371571) can0 01C#BBCA0A
(1493282074.371680) can0 1BFC38B9#040096408008FC68
(1493282074.372069) can0 1BFC38B8#0000000800000000
(1493282074.372466) can0 1BFC38B7#800164842502028A
(1493282074.372692) can0 1BFC38B6#00000B2802048292
(1493282074.373063) can0 1BFC38B5#0502FF9202048292
(1493282074.373439) can0 1BFC38B4#110F01010000A203
(1493282074.373704) can0 1BFC38B3#8001648431009988
(1493282074.373929) can0 1BFC38B2#80016484838380F1
(1493282074.379817) can0 30B#5F00110000000098
(1493282074.388687) can0 1FD#0000000000000000
(1493282074.391700) can0 6C9#BEBCBB3CF6F40A
(1493282074.395781) can0 3C0#6A7E1335
(1493282074.411824) can0 04F#F12E18094867A269
(1493282074.429699) can0 30B#5F00110000000098
(1493282074.431963) can0 731#4D81315A8FCACC59
(1493282074.448418) can0 1FD#0000000000000000
(1493282074.452055) can0 6BA#9ECDA502E078C80C
(1493282074.472327) can0 4C8#61EEC06164E45C7B
(1493282074.479055) can0 30B#5F00110000000098
(1493282074.492586) can0 7D2#C30AED1984601577
(1493282074.499522) can0 3C0#6A7E1335
(1493282074.508442) can0 1FD#0000000000000000
(1493282074.512609) can0 789#D381
(1493282074.529549) can0 6C7#04051101020000
(1493282074.529797) can0 30B#5F00110000000098
(1493282074.530061) can0 5F2#C200
(1493282074.532734) can0 225#0EF76444EEA0DD09
(1493282074.552944) can0 115#E595E8116411016E
(1493282074.568435) can0 1FD#0000000000000000
(1493282074.573099) can0 688#AC78A357BA0D
(1493282074.579057) can0 30B#5F00110000000098
(1493282074.593170) can0 482#49D84C563C0B2F34
(1493282074.603167) can0 3C0#6A7E1335
(1493282074.613475) can0 4B7#1C84F7407FB90B0C
(1493282074.622066) can0 1BFC38B1#0000000000000000
(1493282074.622284) can0 1BFC38BB#FFFFFFFFFFFFFFFF
(1493282074.622646) can0 1BFC38BA#0000000700000014
(1493282074.622911) can0 1BFC38B9#050296408005A3F4
(1493282074.623267) can0 1BFC38B8#0000000800000000
(1493282074.623643) can0 1BFC38B7#801312A0250202C5
(1493282074.623899) can0 1BFC38B6#00000B2B00000000
(1493282074.624316) can0 1BFC38B5#0502FF9202048292
(1493282074.624533) can0 1BFC38B4#110F01010000A203
(1493282074.624925) can0 1BFC38B3#8001648431009988
(1493282074.625186) can0 1BFC38B2#80016484838380F1
(1493282074.628443) can0 1FD#0000000000000000
(1493282074.628699) can0 30B#5F00110000000098
(1493282074.629051) can0 65E#8808E549A4470B00
(1493282074.633558) can0 470#E39D6807420C4A37
(1493282074.639445) can0 62F#445100042E
(1493282074.653673) can0 10A#C66C5F2E9330
(1493282074.673800) can0 578#3978BC289E6F4C5C
(1493282074.679157) can0 30B#5F00110000000098
(1493282074.688654) can0 1FD#0000000000000000
(1493282074.694044) can0 328#8C102A663DA452
(1493282074.706491) can0 3C0#6A7E1335
(1493282074.714153) can0 314#A2
(1493282074.729539) can0 6C7#04051101020000
(1493282074.729775) can0 30B#5F00110000000098
(1493282074.730022) can0 5F2#BD00
(1493282074.734303) can0 348#5697F01FCA878A42
(1493282074.748401) can0 1FD#0000000000000000
(1493282074.754531) can0 048#
(1493282074.774665) can0 588#7F76
(1493282074.779048) can0 30B#5F00110000000098
(1493282074.794783) can0 1A0#3B46
(1493282074.808398) can0 1FD#0000000000000000
(1493282074.810026) can0 3C0#6A7E1335
(1493282074.814902) can0 509#3E
(1493282074.829764) can0 30B#5F00110000000098
(1493282074.835186) can0 19B#1F52270FC3DC98
(1493282074.855265) can0 2BE#0081EB29D2FDFC6B
(1493282074.868390) can0 1FD#0000000000000000
(1493282074.870638) can0 1BFC38B1#0000000000000000
(1493282074.871008) can0 1BFC38BB#FFFFFFFFFFFFFFFF
(1493282074.871263) can0 1BFC38BA#535553500000001A
(1493282074.871653) can0 1BFC38B9#050296408005A3F4
(1493282074.872009) can0 1BFC38B8#0000000800000000
(1493282074.872257) can0 1BFC38B7#801312A0250202C5
(1493282074.872652) can0 1BFC38B6#00000B2D00000000
(1493282074.872881) can0 1BFC38B5#0502FF9202048292
(1493282074.873244) can0 1BFC38B4#110F01010000A203
(1493282074.873532) can0 1BFC38B3#8001648431009988
(1493282074.873902) can0 1BFC38B2#80016484838380F1
(1493282074.875466) can0 11D#6F87
(1493282074.879762) can0 30B#5F00110000000098
(1493282074.895674) can0 4F1#2FFC014339
(1493282074.913124) can0 3C0#6A7E1335
(1493282074.915786) can0 665#394A1547ED
(1493282074.929664) can0 6C7#04051101020000
(1493282074.930045) can0 1FD#0000000000000000
(1493282074.930248) can0 30B#5F00110000000098
(1493282074.930474) can0 5F2#B800
(1493282074.935894) can0 658#E6DD785BF82FD64B
(1493282074.956017) can0 51A#A2
(1493282074.976269) can0 722#
(1493282074.979125) can0 30B#5F00110000000098
(1493282074.988514) can0 1FD#0000000000000000
(1493282074.996535) can0 157#80559352
(1493282075.016508) can0 170#E8
(1493282075.016866) can0 3C0#6A7E1335
(1493282075.029622) can0 30B#5F00110000000098
(1493282075.036646) can0 523#F3A6C6241472F4
(1493282075.048359) can0 1FD#0000000000000000
(1493282075.056825) can0 01D#4EFFF6
(1493282075.076944) can0 258#70025319B0D8F0
(1493282075.078998) can0 30B#5F00110000000098
(1493282075.097153) can0 23F#A808C75E59DF
(1493282075.108363) can0 1FD#0000000000000000
(1493282075.117251) can0 477#7D71927799DB0234
(1493282075.120861) can0 3C0#6A7E1335
(1493282075.122109) can0 1BFC38B1#0000000000000000
(1493282075.122479) can0 1BFC38BB#FFFFFFFFFFFFFFFF
(1493282075.122730) can0 1BFC38BA#535553500000001A
(1493282075.122962) can0 1BFC38B9#050296408005A3F4
(1493282075.123337) can0 1BFC38B8#0000000800000000
(1493282075.123599) can0 1BFC38B7#801312A0250202C5
(1493282075.123968) can0 1BFC38B6#00000B300000A203
(1493282075.124286) can0 1BFC38B5#0502FF9202048292
(1493282075.124607) can0 1BFC38B4#110F01010000A203
(1493282075.124984) can0 1BFC38B3#800164843100BBAA
(1493282075.125245) can0 1BFC38B2#8001648483830076
(1493282075.128515) can0 6C7#04051101020000
(1493282075.128729) can0 30B#5F00110000000098
(1493282075.128832) can0 5F2#B400
(1493282075.129104) can0 643#000200
(1493282075.129360) can0 64E#00A2030000000000
(1493282075.129597) can0 65E#880895C3C1620700
(1493282075.129840) can0 6B8#6D08000000000000
(1493282075.130210) can0 6BC#62822651324C07BA
(1493282075.137417) can0 12B#5754
(1493282075.157528) can0 4E6#995E132D57D689
(1493282075.168351) can0 1FD#0000000000000000
(1493282075.177603) can0 058#E5
(1493282075.179601) can0 30B#5F00110000000098
(1493282075.197890) can0 1D9#90FFC146F609AD3B
(1493282075.218015) can0 2FB#786834605485EC74
(1493282075.224345) can0 3C0#6A7E1335
(1493282075.230130) can0 1FD#0000000000000000
(1493282075.230482) can0 30B#5F00110000000098
(1493282075.230826) can0 630#33EA010000
(1493282075.231092) can0 631#34D602
(1493282075.238147) can0 065#045EDD07A452052D
(1493282075.238356) can0 6B6#390C1C00042E
(1493282075.238827) can0 6B7#BEB4000008FF80FE
(1493282075.239089) can0 62D#349220C900
(1493282075.258384) can0 33E#FE310025B54F8F5C
(1493282075.278480) can0 1F8#4F2B92102343E525
(1493282075.278998) can0 30B#5F00110000000098
(1493282075.288601) can0 1FD#0000000000000000
(1493282075.298755) can0 19D#A675D57E8336
(1493282075.318735) can0 17D#DA0CC054D6A92F6E
(1493282075.327691) can0 3C0#6A7E1335
(1493282075.329993) can0 6C7#04051101020000
(1493282075.330204) can0 30B#5F00110000000098
(1493282075.330458) can0 5F2#AF00
(1493282075.338971) can0 4C1#5237FD1C9A96DD55
(1493282075.348366) can0 1FD#0000000000000000
(1493282075.359091) can0 598#90A0
(1493282075.370865) can0 1BFC38B1#0000000000000000
(1493282075.371090) can0 1BFC38BA#535553500000001A
(1493282075.371489) can0 1BFC38BB#FFFFFFFFFFFFFFFF
(1493282075.371752) can0 1BFC38B9#050296408005A3F4
(1493282075.372083) can0 1BFC38B8#0000000800000000
(1493282075.372456) can0 1BFC38B7#801312A0250202C5
(1493282075.372706) can0 1BFC38B6#00000B32000034A8
(1493282075.372948) can0 1BFC38B5#0502FF9202048292
(1493282075.373313) can0 1BFC38B4#110F01010000A203
(1493282075.373685) can0 1BFC38B3#800164843100BBAA
(1493282075.373949) can0 1BFC38B2#8001648483830076
(1493282075.379285) can0 5C1#E79D8D4F267E3D71
(1493282075.379828) can0 30B#5F00110000000098
(1493282075.399505) can0 3F1#CBD0421E2FBF9959
(1493282075.408460) can0 1FD#0000000000000000
(1493282075.419619) can0 299#E50E293691C46C61
(1493282075.429690) can0 30B#5F00110000000098
(1493282075.430914) can0 3C0#6A7E1335
(1493282075.439694) can0 644#B4075207
(1493282075.459822) can0 1DA#6466A35857E36A76
(1493282075.468332) can0 1FD#0000000000000000
(1493282075.478972) can0 30B#5F00110000000098
(1493282075.480114) can0 19A#2D8D9A645BAE2C4B
(1493282075.500224) can0 0FE#F5440A21964E3550
(1493282075.520439) can0 362#2A67D62A23
(1493282075.529693) can0 6C7#04051101020000
(1493282075.529940) can0 1FD#0000000000000000
(1493282075.530177) can0 30B#5F00110000000098
(1493282075.530434) can0 5F2#AB00
(1493282075.534304) can0 3C0#6A7E1335
(1493282075.540464) can0 68E#49
(1493282075.560605) can0 0FD#AE213469
(1493282075.579182) can0 30B#5F00110000000098
(1493282075.580837) can0 2DD#27284B
(1493282075.588566) can0 1FD#0000000000000000
(1493282075.600955) can0 2C7#0259D57BA1246351
(1493282075.621088) can0 537#F907CE47D1FED4
(1493282075.621816) can0 1BFC38B1#0000000000000000
(1493282075.622178) can0 1BFC38BB#FFFFFFFFFFFFFFFF
(1493282075.622554) can0 1BFC38BA#535553500000001A
(1493282075.622803) can0 1BFC38B9#060096408008FC68
(1493282075.623178) can0 1BFC38B8#0000000800000000
(1493282075.623425) can0 1BFC38B7#8001648425020202
(1493282075.623823) can0 1BFC38B6#00000B3500000000
(1493282075.624205) can0 1BFC38B5#0502FF9202048292
(1493282075.624388) can0 1BFC38B4#110F01010000A203
(1493282075.624782) can0 1BFC38B3#800164843100BBAA
(1493282075.625032) can0 1BFC38B2#8001648483830076
(1493282075.630963) can0 30B#5F00110000000098
(1493282075.631335) can0 65E#88081BB5BC2B0800
(1493282075.637674) can0 3C0#6A7E1335
(1493282075.638628) can0 64E#00A2060000000000
(1493282075.641173) can0 2A6#2DAD017CA4BB
(1493282075.648456) can0 1FD#0000000000000000
(1493282075.648819) can0 62F#445100042F
(1493282075.661456) can0 1A6#3B0A
(1493282075.679059) can0 30B#5F00110000000098
(1493282075.681434) can0 7A8#2B86263636
(1493282075.701544) can0 676#B5288F03
(1493282075.708459) can0 1FD#0000000000000000
(1493282075.721838) can0 589#0ADBF5
(1493282075.729904) can0 6C7#04051101020000
(1493282075.730120) can0 30B#5F00110000000098
(1493282075.730368) can0 5F2#A800
(1493282075.741632) can0 3C0#6A7E1335
(1493282075.741925) can0 2F7#8861
(1493282075.762041) can0 30E#600A9C4345E0A20A
(1493282075.768425) can0 1FD#0000000000000000
(1493282075.779540) can0 30B#5F00110000000098
(1493282075.782332) can0 1F1#16DF773B97ACA719
(1493282075.802412) can0 77F#3C6880
(1493282075.822700) can0 666#2D562A790E5626
(1493282075.830015) can0 1FD#0000000000000000
(1493282075.830415) can0 30B#5F00110000000098
(1493282075.842929) can0 3DC#441C1B18525ABB05
(1493282075.845394) can0 3C0#6A7E1335
(1493282075.863045) can0 1CD#C6D1D21756C70676
(1493282075.870654) can0 1BFC38B1#0000000000000000
(1493282075.870870) can0 1BFC38B9#060096408008FC68
(1493282075.871259) can0 1BFC38BA#0000000700000014
(1493282075.871505) can0 1BFC38B8#0000000800000000
(1493282075.871882) can0 1BFC38B7#8001648425020202
(1493282075.872174) can0 1BFC38B6#00000B3700000000
(1493282075.872559) can0 1BFC38B5#0502FF9202048292
(1493282075.872773) can0 1BFC38B4#110F01010000A203
(1493282075.873152) can0 1BFC38B3#800164843100BBAA
(1493282075.873397) can0 1BFC38B2#8001648483830076
(1493282075.873758) can0 1BFC38BB#FFFFFFFFFFFFFFFF
(1493282075.879680) can0 30B#5F00110000000098
(1493282075.883195) can0 75C#BC
(1493282075.889551) can0 1FD#0000000000000000
(1493282075.903401) can0 003#12F0C606
(1493282075.923399) can0 3CF#56C3
(1493282075.929266) can0 6C7#04051101020000
(1493282075.929509) can0 30B#5F00110000000098
(1493282075.929784) can0 5F2#A400
(1493282075.943557) can0 4CB#58425F244AB49F0D
(1493282075.948392) can0 1FD#0000000000000000
(1493282075.949128) can0 3C0#6A7E1335
(1493282075.963676) can0 6B0#70B57273
(1493282075.979011) can0 30B#5F00110000000098
(1493282075.983767) can0 50B#2403284FE700E14D
(1493282076.004043) can0 7F6#395B9C53C3F97115
(1493282076.008387) can0 1FD#0000000000000000
(1493282076.024149) can0 461#
(1493282076.029387) can0 30B#5F00110000000098
(1493282076.044412) can0 1D1#11FEE81FD4
(1493282076.052501) can0 3C0#6A7E1335
(1493282076.064507) can0 21A#E56C29
(1493282076.068377) can0 1FD#0000000000000000
(1493282076.079009) can0 30B#5F00110000000098
(1493282076.084637) can0 095#A9D3D12060F5DF46
(1493282076.104956) can0 2A7#AA
(1493282076.121884) can0 1BFC38B1#0000000000000000
(1493282076.122112) can0 1BFC38BB#FFFFFFFFFFFFFFFF
(1493282076.122487) can0 1BFC38BA#0000000700000014
(1493282076.122718) can0 1BFC38B9#060096408008FC68
(1493282076.123098) can0 1BFC38B8#0000000800000000
(1493282076.123530) can0 1BFC38B7#8001648425020202
(1493282076.123723) can0 1BFC38B6#00000B3A0000A206
(1493282076.124025) can0 1BFC38B5#0502FF9202048292
(1493282076.124388) can0 1BFC38B4#110F01010000A206
(1493282076.124622) can0 1BFC38B3#80016484324000FF
(1493282076.125041) can0 095#6DAE344FA0DD7E56
(1493282076.125044) can0 1BFC38B2#80016484838380FD
(1493282076.128374) can0 6C7#04051101020000
(1493282076.128625) can0 1FD#0000000000000000
(1493282076.128875) can0 30B#5F00110000000098
(1493282076.128990) can0 5F2#A000
(1493282076.129263) can0 643#000200
(1493282076.129499) can0 64E#00A2060000000000
(1493282076.129746) can0 65E#88088283A4830700
(1493282076.130134) can0 6B8#6D08000000000000
(1493282076.130368) can0 6BC#62822651324C0701
(1493282076.145172) can0 2B8#87
(1493282076.155714) can0 3C0#6A7E1335
(1493282076.165296) can0 0F9#71
(1493282076.178996) can0 30B#5F00110000000098
(1493282076.185380) can0 6C1#1829E8139240A308
(1493282076.188507) can0 1FD#0000000000000000
(1493282076.205520) can0 65F#66CAE47A79F02A08
(1493282076.225613) can0 54C#622E451EE1FD934B
(1493282076.229388) can0 30B#5F00110000000098
(1493282076.238973) can0 6B6#390C1C00042F
(1493282076.239228) can0 6B7#BEB4000008FF80FE
(1493282076.245739) can0 786#41F373122D3A7942
(1493282076.248395) can0 1FD#0000000000000000
(1493282076.259363) can0 3C0#6A7E1335
(1493282076.265917) can0 00D#853BAC66A3D85852
(1493282076.279016) can0 30B#5F00110000000098
(1493282076.285985) can0 406#43B6
(1493282076.306094) can0 384#6CB9F2337D6CDD59
(1493282076.308366) can0 1FD#0000000000000000
(1493282076.326397) can0 68C#D8A16A624D359F28
(1493282076.329225) can0 6C7#04051101020000
(1493282076.329464) can0 30B#5F00110000000098
(1493282076.329740) can0 5F2#9D00
(1493282076.346501) can0 367#
(1493282076.362981) can0 3C0#6A7E1335
(1493282076.366629) can0 219#40D2717865
(1493282076.368378) can0 1FD#0000000000000000
(1493282076.370629) can0 1BFC38B1#0000000000000000
(1493282076.370972) can0 1BFC38BB#FFFFFFFFFFFFFFFF
(1493282076.371328) can0 1BFC38BA#0000000700000014
(1493282076.371563) can0 1BFC38B9#060096408008FC68
(1493282076.371827) can0 1BFC38B8#0000000800000000
(1493282076.372246) can0 1BFC38B7#8001648425020202
(1493282076.372473) can0 1BFC38B6#00000B3C02048292
(1493282076.372879) can0 1BFC38B5#0502FF9202048292
(1493282076.373100) can0 1BFC38B4#110F01010000A206
(1493282076.373483) can0 1BFC38B3#80016484324000FF
(1493282076.373688) can0 1BFC38B2#80016484838380FD
(1493282076.379743) can0 30B#5F00110000000098
(1493282076.386720) can0 790#4605
(1493282076.406982) can0 2AE#43197129BC1A16
(1493282076.427091) can0 572#5FF36E2C78918678
(1493282076.429591) can0 1FD#0000000000000000
(1493282076.429822) can0 30B#5F00110000000098
(1493282076.447340) can0 6BB#36F8
(1493282076.466297) can0 3C0#6A7E1335
(1493282076.467305) can0 66D#BC46
(1493282076.478961) can0 30B#5F00110000000098
(1493282076.487496) can0 77F#46425110
(1493282076.488489) can0 1FD#0000000000000000
(1493282076.507725) can0 384#ADAC61259D
(1493282076.527843) can0 06A#02AD9F7BFA6FF05F
(1493282076.529457) can0 6C7#04051101020000
(1493282076.529701) can0 30B#5F00110000000098
(1493282076.529813) can0 5F2#9A00
(1493282076.547957) can0 78F#104FE8463E82580A
(1493282076.548342) can0 1FD#0000000000000000
(1493282076.568199) can0 2CF#FA9C6E64
(1493282076.570313) can0 3C0#6A7E1335
(1493282076.578994) can0 30B#5F00110000000098
(1493282076.588355) can0 51C#BAD1AC70D7FB7446
(1493282076.608340) can0 1FD#0000000000000000
(1493282076.608585) can0 1FB#16
(1493282076.621948) can0 1BFC38B1#0000000000000000
(1493282076.622317) can0 1BFC38BB#FFFFFFFFFFFFFFFF
(1493282076.622550) can0 1BFC38BA#0000000700000014
(1493282076.622930) can0 1BFC38B9#070296408005A3F4
(1493282076.623322) can0 1BFC38B8#0000000800000000
(1493282076.623572) can0 1BFC38B7#801312A02502023C
(1493282076.623820) can0 1BFC38B6#00000B3F00000000
(1493282076.624195) can0 1BFC38B5#0502FF9202048292
(1493282076.624582) can0 1BFC38B4#110F01010000A206
(1493282076.624835) can0 1BFC38B3#80016484324000FF
(1493282076.625152) can0 1BFC38B2#80016484838380FD
(1493282076.628409) can0 30B#5F00110000000098
(1493282076.628534) can0 393#628554
(1493282076.628693) can0 65E#88089CA3BA690A00
(1493282076.639333) can0 62F#4451000430
(1493282076.648861) can0 567#F9FD823BECB82478
(1493282076.668327) can0 1FD#0000000000000000
(1493282076.669144) can0 7CE#895E1F6F3978
(1493282076.674059) can0 3C0#6A7E1335
(1493282076.679099) can0 30B#5F00110000000098
(1493282076.689181) can0 193#33E8E40F23A94233
(1493282076.709318) can0 5D4#612B9B3D
(1493282076.729596) can0 798#E6A8435DB45C9D47
(1493282076.729600) can0 6C7#04051101020000
(1493282076.729807) can0 1FD#0000000000000000
(1493282076.730343) can0 30B#5F00110000000098
(1493282076.730486) can0 5F2#9900
(1493282076.749680) can0 0B4#
(1493282076.769818) can0 491#180B
(1493282076.777690) can0 3C0#6A7E1335
(1493282076.779022) can0 30B#5F00110000000098
(1493282076.788455) can0 1FD#0000000000000000
(1493282076.790006) can0 375#38F3987DDD50DB6E
(1493282076.810080) can0 024#C9
(1493282076.829559) can0 30B#5F00110000000098
(1493282076.830329) can0 3D8#2B50
(1493282076.848315) can0 1FD#0000000000000000
(1493282076.850293) can0 3DE#8E6EFB4BB3317677
(1493282076.870544) can0 7A3#579A935C3B0FAF32
(1493282076.870547) can0 1BFC38B1#0000000000000000
(1493282076.870929) can0 1BFC38BB#FFFFFFFFFFFFFFFF
(1493282076.871415) can0 1BFC38BA#535553500000001A
(1493282076.871668) can0 1BFC38B9#070296408005A3F4
(1493282076.872040) can0 1BFC38B8#0000000800000000
(1493282076.872416) can0 1BFC38B7#801312A02502023C
(1493282076.872667) can0 1BFC38B6#00000B4100000000
(1493282076.873035) can0 1BFC38B5#0502FF9202048292
(1493282076.873292) can0 1BFC38B4#110F01010000A206
(1493282076.873648) can0 1BFC38B3#80016484324000FF
(1493282076.873900) can0 1BFC38B2#80016484838380FD
(1493282076.879629) can0 30B#5F00110000000098
(1493282076.881627) can0 3C0#6A7E1335
(1493282076.890664) can0 24A#EF6B4C7AFEBA875E
(1493282076.908317) can0 1FD#0000000000000000
(1493282076.910829) can0 5DD#AE4D93776F026122
(1493282076.929567) can0 6C7#04051101020000
(1493282076.929784) can0 30B#5F00110000000098
(1493282076.929907) can0 5F2#9700
(1493282076.930992) can0 31E#94C29119933E
(1493282076.951050) can0 141#708F8A296541EC3D
(1493282076.968318) can0 1FD#0000000000000000
(1493282076.971283) can0 6FD#5819CE12D542476A
(1493282076.979059) can0 30B#5F00110000000098
(1493282076.985290) can0 3C0#6A7E1335
(1493282076.991455) can0 18C#410800
(1493282077.011553) can0 1E2#1DA7FE1E8511E817
(1493282077.029403) can0 1FD#0000000000000000
(1493282077.029638) can0 30B#5F00110000000098
(1493282077.031656) can0 0BF#C020974A
(1493282077.051911) can0 4B1#
(1493282077.072027) can0 12B#FE44925F4944
(1493282077.079018) can0 30B#5F00110000000098
(1493282077.088380) can0 1FD#0000000000000000
(1493282077.088764) can0 3C0#6A7E1335
(1493282077.092292) can0 47C#DD82
(1493282077.112401) can0 55E#23FFBE5C5B649560
(1493282077.121921) can0 1BFC38B1#0000000000000000
(1493282077.122304) can0 1BFC38BB#FFFFFFFFFFFFFFFF
(1493282077.122512) can0 1BFC38BA#535553500000001A
(1493282077.122910) can0 1BFC38B9#070296408005A3F4
(1493282077.123274) can0 1BFC38B8#0000000800000000
(1493282077.123546) can0 1BFC38B7#801312A02502023C
(1493282077.123872) can0 1BFC38B6#00000B440000A206
(1493282077.124288) can0 1BFC38B5#0502FF9202048292
(1493282077.124510) can0 1BFC38B4#110F01010000A206
(1493282077.124788) can0 1BFC38B3#8001648431005544
(1493282077.125171) can0 1BFC38B2#8001648483838073
(1493282077.128294) can0 6C7#04051101020000
(1493282077.128669) can0 30B#5F00110000000098
(1493282077.128738) can0 5F2#9400
(1493282077.129010) can0 643#000200
(1493282077.129253) can0 64E#00A2060000000000
(1493282077.129505) can0 65E#8808CCA88B2B0700
(1493282077.129868) can0 6B8#6D08000000000000
(1493282077.130136) can0 6BC#62822651324C0702
(1493282077.132573) can0 387#31A7DC4A13ADD21F
(1493282077.148264) can0 1FD#0000000000000000
(1493282077.152693) can0 1FF#7D22
(1493282077.172803) can0 641#6735794B00376A75
(1493282077.178923) can0 30B#5F00110000000098
(1493282077.191965) can0 3C0#6A7E1335
(1493282077.192886) can0 30F#0AAA9C79C18F55
(1493282077.208254) can0 1FD#0000000000000000
(1493282077.213034) can0 2D7#50D2
(1493282077.229531) can0 30B#5F00110000000098
(1493282077.229882) can0 630#33EB000001FF0F
(1493282077.230271) can0 631#34C2030013000301
(1493282077.230502) can0 62D#349302E900
(1493282077.233286) can0 3C8#4C789A6C4428332A
(1493282077.238627) can0 6B6#390C1C000430
(1493282077.238866) can0 6B7#BEB4000008FF80FE
(1493282077.253435) can0 6E0#02E605493EDC8B3D
(1493282077.268255) can0 1FD#0000000000000000
(1493282077.273522) can0 577#9940211EFEB8
(1493282077.279032) can0 30B#5F00110000000098
(1493282077.293622) can0 5A1#1166476DA07F831C
(1493282077.295461) can0 3C0#6A7E1335
(1493282077.313782) can0 73C#82A314507EBDB253
(1493282077.329282) can0 6C7#04051101020000
(1493282077.329620) can0 1FD#0000000000000000
(1493282077.329852) can0 30B#5F00110000000098
(1493282077.330120) can0 5F2#9100
(1493282077.333914) can0 229#7EF41C49395DE87C
(1493282077.354257) can0 710#FAEC3D14E811920C
(1493282077.370498) can0 1BFC38B1#0000000000000000
(1493282077.370863) can0 1BFC38BB#FFFFFFFFFFFFFFFF
(1493282077.371229) can0 1BFC38BA#535553500000001A
(1493282077.371486) can0 1BFC38B9#070296408005A3F4
(1493282077.371873) can0 1BFC38B8#0000000800000000
(1493282077.372127) can0 1BFC38B7#801312A02502023C
(1493282077.372498) can0 1BFC38B6#00000B46000034A8
(1493282077.372746) can0 1BFC38B5#0502FF9202048292
(1493282077.373126) can0 1BFC38B4#110F01010000A206
(1493282077.373358) can0 1BFC38B3#8001648431005544
(1493282077.373720) can0 1BFC38B2#8001648483838073
(1493282077.374274) can0 69A#EB45C83462CAB455
(1493282077.379767) can0 30B#5F00110000000098
(1493282077.388514) can0 1FD#0000000000000000
(1493282077.394377) can0 698#A7F2E77F78F51A
(1493282077.399202) can0 3C0#6A7E1335
(1493282077.414483) can0 161#B6D1A607D8C65C21
(1493282077.429370) can0 30B#5F00110000000098
(1493282077.434609) can0 5CF#D67FD16E71BB0404
(1493282077.448269) can0 1FD#0000000000000000
(1493282077.454900) can0 21A#113B88205691A0
(1493282077.475161) can0 675#D44E53
(1493282077.479005) can0 30B#5F00110000000098
(1493282077.495252) can0 77C#D81DA0
(1493282077.503070) can0 3C0#6A7E1335
(1493282077.508239) can0 1FD#0000000000000000
(1493282077.515356) can0 1DB#75F8
(1493282077.529359) can0 6C7#04051101020000
(1493282077.529745) can0 30B#5F00110000000098
(1493282077.529749) can0 5F2#8F00
(1493282077.535623) can0 21C#
(1493282077.555737) can0 497#2C969B0CF8B5962D
(1493282077.568222) can0 1FD#0000000000000000
(1493282077.575860) can0 629#D07C
(1493282077.578992) can0 30B#5F00110000000098
(1493282077.595966) can0 231#69677C554B74
(1493282077.606450) can0 3C0#6A7E1335
(1493282077.616235) can0 28D#A205710E0351992A
(1493282077.621836) can0 1BFC38B1#0000000000000000
(1493282077.622213) can0 1BFC38BB#FFFFFFFFFFFFFFFF
(1493282077.622462) can0 1BFC38BA#535553500000001A
(1493282077.622689) can0 1BFC38B9#000096408008FC68
(1493282077.623063) can0 1BFC38B8#0000000800000000
(1493282077.623459) can0 1BFC38B7#8001648425020279
(1493282077.623689) can0 1BFC38B6#00000B4900000000
(1493282077.624100) can0 1BFC38B5#0502FF9202048292
(1493282077.624334) can0 1BFC38B4#110F01010000A206
(1493282077.624729) can0 1BFC38B3#8001648431005544
(1493282077.625003) can0 1BFC38B2#8001648483838073
(1493282077.629972) can0 1FD#0000000000000000
(1493282077.630171) can0 30B#5F00110000000098
(1493282077.630472) can0 65E#8808FFD4916D0700
(1493282077.636415) can0 10E#A21151568B38
(1493282077.639210) can0 62F#4451000431
(1493282077.656513) can0 7C9#181F9530A5795E2F
(1493282077.676591) can0 24C#1BD2987368047261
(1493282077.678955) can0 30B#5F00110000000098
(1493282077.688454) can0 1FD#0000000000000000
(1493282077.696729) can0 5ED#1CA5F2
(1493282077.709915) can0 3C0#6A7E1335
(1493282077.720202) can0 273#7D0830489CF8230A
(1493282077.728214) can0 6C7#04051101020000
(1493282077.728430) can0 30B#5F00110000000098
(1493282077.728706) can0 5F2#8C00
(1493282077.736973) can0 32A#94A49B5B5B1DDB7E
(1493282077.748199) can0 1FD#0000000000000000
(1493282077.757199) can0 1F4#A791AB478164C66E
(1493282077.777334) can0 679#84B55F19872FBE0D
(1493282077.778939) can0 30B#5F00110000000098
(1493282077.797455) can0 3BF#12688A008983
(1493282077.808194) can0 1FD#0000000000000000
(1493282077.813316) can0 3C0#6A7E1335
(1493282077.817583) can0 6A0#2EFD7337EC30712A
(1493282077.829597) can0 30B#5F00110000000098
(1493282077.837690) can0 6B7#5435E30BA4F42226
(1493282077.857811) can0 43C#
(1493282077.868189) can0 1FD#0000000000000000
(1493282077.870560) can0 1BFC38B1#0000000000000000
(1493282077.870797) can0 1BFC38BB#FFFFFFFFFFFFFFFF
(1493282077.871185) can0 1BFC38BA#0000000700000014
(1493282077.871435) can0 1BFC38B9#000096408008FC68
(1493282077.871809) can0 1BFC38B8#0000000800000000
(1493282077.872184) can0 1BFC38B7#8001648425020279
(1493282077.872437) can0 1BFC38B6#00000B4B00000000
(1493282077.872808) can0 1BFC38B5#0502FF9202048292
(1493282077.873058) can0 1BFC38B4#110F01010000A206
(1493282077.873426) can0 1BFC38B3#8001648431005544
(1493282077.873701) can0 1BFC38B2#8001648483838073
(1493282077.877885) can0 5B8#4BC7176AE2B8
(1493282077.880149) can0 30B#5F00110000000098
(1493282077.898213) can0 4F3#
(1493282077.898216) can0 64E#00A0020000000000
(1493282077.917163) can0 3C0#6A7E1335
(1493282077.918155) can0 7DE#69BBBE6357
(1493282077.929553) can0 6C7#04051101020000
(1493282077.929795) can0 1FD#0000000000000000
(1493282077.930172) can0 30B#5F00110000000098
(1493282077.930261) can0 5F2#8C00
(1493282077.938467) can0 72E#DE55A62BEDEAB83F
(1493282077.958545) can0 014#76
(1493282077.978691) can0 51B#A15FE205
(1493282077.979449) can0 30B#5F00110000000098
(1493282077.988548) can0 1FD#0000000000000000
(1493282077.998814) can0 2ED#77D8822F2A
(1493282078.018909) can0 766#
(1493282078.020414) can0 3C0#6A7E1335
(1493282078.029792) can0 30B#5F00110000000098
(1493282078.039168) can0 746#013E34473A
(1493282078.048185) can0 1FD#0000000000000000
(1493282078.059317) can0 105#219B330EE3786E69
(1493282078.079045) can0 30B#5F00110000000098
(1493282078.079442) can0 424#3A9F5607527BD718
(1493282078.099559) can0 778#3F6690588CFFDF5B
(1493282078.108185) can0 1FD#0000000000000000
