(1493282493.219443) can0 3C0#6A7E1335
(1493282493.220565) can0 30B#7F00110000000098
(1493282493.221314) can0 631#34C2030013000301
(1493282493.221558) can0 62D#349302E900
(1493282493.228632) can0 6B6#390C1C000B2C
(1493282493.228991) can0 6B7#BEB4000008FF80FE
(1493282493.238592) can0 1FD#0000000000000000
(1493282493.240238) can0 32E#3903B06EB862C954
(1493282493.269231) can0 30B#7F00110000000098
(1493282493.290528) can0 156#86B9293D8B30
(1493282493.298880) can0 1FD#0000000000000000
(1493282493.320612) can0 6C7#04051101020000
(1493282493.320858) can0 30B#7F00110000000098
(1493282493.321067) can0 5F2#B600
(1493282493.324459) can0 3C0#6A7E1335
(1493282493.340754) can0 4CE#92E7FC
(1493282493.358602) can0 1FD#0000000000000000
(1493282493.361225) can0 1BFC38B1#0000000000000000
(1493282493.361637) can0 1BFC38B9#070296408005A3F4
(1493282493.361848) can0 1BFC38BA#535553500000001A
(1493282493.362236) can0 1BFC38B8#0000000800000000
(1493282493.362474) can0 1BFC38B7#800164842502022B
(1493282493.362856) can0 1BFC38B6#00001B86000034A8
(1493282493.363112) can0 1BFC38B5#0502FF1202028A12
(1493282493.363482) can0 1BFC38B4#111001010000A800
(1493282493.363732) can0 1BFC38B3#8001648432404433
(1493282493.364122) can0 1BFC38B2#8001648483830063
(1493282493.364486) can0 1BFC38BB#FFFFFFFFFFFFFFFF
(1493282493.369761) can0 30B#7F00110000000098
(1493282493.390862) can0 636#49B6010F6C615945
(1493282493.420608) can0 1FD#0000000000000000
(1493282493.420846) can0 30B#7F00110000000098
(1493282493.427933) can0 3C0#6A7E1335
(1493282493.441049) can0 3CF#CB0E75444EFBFA55
(1493282493.469343) can0 30B#7F00110000000098
(1493282493.478848) can0 1FD#0000000000000000
(1493282493.491101) can0 789#4E3BC750
(1493282493.520224) can0 6C7#04051101020000
(1493282493.520464) can0 30B#7F00110000000098
(1493282493.520539) can0 5F2#B500
(1493282493.531795) can0 3C0#6A7E1335
(1493282493.538753) can0 1FD#0000000000000000
(1493282493.541273) can0 64C#699CE00CE6038A
(1493282493.569464) can0 30B#7F00110000000098
(1493282493.591489) can0 3E2#A832E82D
(1493282493.598753) can0 1FD#0000000000000000
(1493282493.612082) can0 1BFC38B1#0000000000000000
(1493282493.612462) can0 1BFC38BB#FFFFFFFFFFFFFFFF
(1493282493.612692) can0 1BFC38BA#535553500000001A
(1493282493.613070) can0 1BFC38B9#000096408008FC68
(1493282493.613456) can0 1BFC38B8#0000000800000000
(1493282493.613712) can0 1BFC38B7#8001648425020267
(1493282493.613960) can0 1BFC38B6#00001B8900000000
(1493282493.614336) can0 1BFC38B5#0502FF1202028A12
(1493282493.614585) can0 1BFC38B4#111001010000A800
(1493282493.614986) can0 1BFC38B3#8001648432404433
(1493282493.615211) can0 1BFC38B2#8001648483830063
(1493282493.620976) can0 30B#7F00110000000098
(1493282493.621219) can0 65E#8808C0C9A1270A00
(1493282493.629619) can0 62F#4451000B2D
(1493282493.635294) can0 3C0#6A7E1335
(1493282493.641483) can0 52F#C879
(1493282493.658709) can0 1FD#0000000000000000
(1493282493.669468) can0 30B#7F00110000000098
(1493282493.691752) can0 538#11EFBE7806227F26
(1493282493.719579) can0 6C7#04051101020000
(1493282493.719818) can0 1FD#0000000000000000
(1493282493.720243) can0 30B#7F00110000000098
(1493282493.720445) can0 5F2#B500
(1493282493.738708) can0 3C0#6A7E1335
(1493282493.741880) can0 661#809B5A
(1493282493.769958) can0 30B#7F00110000000098
(1493282493.780619) can0 1FD#0000000000000000
(1493282493.780971) can0 64E#00A2130000000000
(1493282493.791948) can0 0DC#0446DF65ACA47D19
(1493282493.819858) can0 30B#7F00110000000098
(1493282493.838697) can0 1FD#0000000000000000
(1493282493.841949) can0 578#FA9F786F0175A064
(1493282493.842661) can0 3C0#6A7E1335
(1493282493.860945) can0 1BFC38B1#0000000000000000
(1493282493.861318) can0 1BFC38BB#FFFFFFFFFFFFFFFF
(1493282493.861572) can0 1BFC38BA#0000000700000014
(1493282493.861945) can0 1BFC38B9#000096408008FC68
(1493282493.862303) can0 1BFC38B8#0000000800000000
(1493282493.862563) can0 1BFC38B7#8001648425020267
(1493282493.862805) can0 1BFC38B6#00001B8B00000000
(1493282493.863174) can0 1BFC38B5#0502FF1202028A12
(1493282493.863557) can0 1BFC38B4#111001010000A800
(1493282493.863811) can0 1BFC38B3#8001648432404433
(1493282493.864088) can0 1BFC38B2#8001648483830063
(1493282493.869227) can0 30B#7F00110000000098
(1493282493.892208) can0 6C4#D9EBEF2D1005042E
(1493282493.898822) can0 1FD#0000000000000000
(1493282493.920691) can0 6C7#04051101020000
(1493282493.920942) can0 30B#7F00110000000098
(1493282493.921178) can0 5F2#B500
(1493282493.942444) can0 650#F608
(1493282493.946178) can0 3C0#6A7E1335
(1493282493.958691) can0 1FD#0000000000000000
(1493282493.969349) can0 30B#7F00110000000098
(1493282493.992578) can0 7C6#42F9E361F5D4245D
(1493282494.020834) can0 1FD#0000000000000000
(1493282494.021064) can0 30B#7F00110000000098
(1493282494.042703) can0 180#7A93F864B8A60953
(1493282494.052242) can0 3C0#6A7E1335
(1493282494.069310) can0 30B#7F00110000000098
(1493282494.079062) can0 1FD#0000000000000000
(1493282494.092815) can0 658#BEC88879B984AD52
(1493282494.113081) can0 1BFC38B1#0000000000000000
(1493282494.113443) can0 1BFC38BA#0000000700000014
(1493282494.113826) can0 1BFC38BB#FFFFFFFFFFFFFFFF
(1493282494.114081) can0 1BFC38B9#000096408008FC68
(1493282494.114421) can0 1BFC38B8#0000000800000000
(1493282494.114666) can0 1BFC38B7#8001648425020267
(1493282494.115055) can0 1BFC38B6#00001B8E0000A213
(1493282494.115425) can0 1BFC38B5#0502FF1202028A12
(1493282494.115683) can0 1BFC38B4#110F01010000A213
(1493282494.115927) can0 1BFC38B3#8001648431009988
(1493282494.116305) can0 1BFC38B2#80016484838300B9
(1493282494.118660) can0 6C7#04051101020000
(1493282494.119038) can0 30B#7F00110000000098
(1493282494.119157) can0 5F2#B500
(1493282494.119451) can0 643#000200
(1493282494.119705) can0 64E#00A2130000000000
(1493282494.119948) can0 65E#88086AB2CCAF0A00
(1493282494.120152) can0 6B8#6D08000000000000
(1493282494.120419) can0 6BC#62822651324C078E
(1493282494.138667) can0 1FD#0000000000000000
(1493282494.143079) can0 12F#516933730B620B79
(1493282494.153554) can0 3C0#6A7E1335
(1493282494.169552) can0 30B#7F00110000000098
(1493282494.193180) can0 609#B706891281
(1493282494.198801) can0 1FD#0000000000000000
(1493282494.220685) can0 30B#7F00110000000098
(1493282494.228677) can0 6B6#390C1C000B2D
(1493282494.228916) can0 6B7#BEB4000008FF80FE
(1493282494.243409) can0 424#82A0
(1493282494.257383) can0 3C0#6A7E1335
(1493282494.258622) can0 1FD#0000000000000000
(1493282494.269427) can0 30B#7F00110000000098
(1493282494.293627) can0 1FA#F84FA8374A68B226
(1493282494.320671) can0 6C7#04051101020000
(1493282494.320922) can0 1FD#0000000000000000
(1493282494.321171) can0 30B#7F00110000000098
(1493282494.321408) can0 5F2#B500
(1493282494.343661) can0 49D#7C4ACE1D638CFC41
(1493282494.360871) can0 3C0#6A7E1335
(1493282494.361292) can0 1BFC38B1#0000000000000000
(1493282494.361666) can0 1BFC38B9#000096408008FC68
(1493282494.362040) can0 1BFC38BA#0000000700000014
(1493282494.362380) can0 1BFC38B8#0000000800000000
(1493282494.362665) can0 1BFC38B7#8001648425020267
(1493282494.362907) can0 1BFC38B6#00001B9002028A12
(1493282494.363296) can0 1BFC38B5#0502FF1202028A12
(1493282494.363508) can0 1BFC38B4#110F01010000A213
(1493282494.363906) can0 1BFC38B3#8001648431009988
(1493282494.364189) can0 1BFC38B2#80016484838300B9
(1493282494.364565) can0 1BFC38BB#FFFFFFFFFFFFFFFF
(1493282494.369944) can0 30B#7F00110000000098
(1493282494.380030) can0 1FD#0000000000000000
(1493282494.393788) can0 48D#5861211F0D06BB68
(1493282494.420418) can0 30B#7F00110000000098
(1493282494.438664) can0 1FD#0000000000000000
(1493282494.443938) can0 6C8#C6ACC4
(1493282494.464643) can0 3C0#6A7E1335
(1493282494.469568) can0 30B#7F00110000000098
(1493282494.494049) can0 75E#DAE10512
(1493282494.498814) can0 1FD#0000000000000000
(1493282494.520662) can0 6C7#04051101020000
(1493282494.521034) can0 30B#7F00110000000098
(1493282494.521138) can0 5F2#B500
(1493282494.544258) can0 1C3#99325007CC8F7025
(1493282494.558656) can0 1FD#0000000000000000
(1493282494.568133) can0 3C0#6A7E1335
(1493282494.569522) can0 30B#7F00110000000098
(1493282494.594400) can0 280#
(1493282494.612402) can0 1BFC38B1#0000000000000000
(1493282494.612780) can0 1BFC38B9#010296408005A3F4
(1493282494.613034) can0 1BFC38BA#0000000700000014
(1493282494.613402) can0 1BFC38B8#0000000800000000
(1493282494.613629) can0 1BFC38B7#80016484250202A2
(1493282494.614016) can0 1BFC38B6#00001B9300000000
(1493282494.614383) can0 1BFC38B5#0502FF1202028A12
(1493282494.614649) can0 1BFC38B4#110F01010000A213
(1493282494.614885) can0 1BFC38B3#8001648431009988
(1493282494.615257) can0 1BFC38B2#80016484838300B9
(1493282494.615508) can0 1BFC38BB#FFFFFFFFFFFFFFFF
(1493282494.618661) can0 1FD#0000000000000000
(1493282494.618913) can0 30B#7F00110000000098
(1493282494.619289) can0 65E#8808F7BB33C40900
(1493282494.639064) can0 62F#4451000B2E
(1493282494.644507) can0 002#
(1493282494.669528) can0 30B#7F00110000000098
(1493282494.671759) can0 3C0#6A7E1335
(1493282494.679386) can0 1FD#0000000000000000
(1493282494.694664) can0 02B#47CACE04C9
(1493282494.720146) can0 6C7#04051101020000
(1493282494.720394) can0 30B#7F00110000000098
(1493282494.720665) can0 5F2#B400
(1493282494.728778) can0 630#33C414
(1493282494.738637) can0 1FD#0000000000000000
(1493282494.744803) can0 274#2C896F76
(1493282494.769645) can0 30B#7F00110000000098
(1493282494.775232) can0 3C0#6A7E1335
(1493282494.795036) can0 082#0E8D9D614B
(1493282494.798798) can0 1FD#0000000000000000
(1493282494.819790) can0 30B#7F00110000000098
(1493282494.845126) can0 758#6B6CCF02
(1493282494.858644) can0 1FD#0000000000000000
(1493282494.861017) can0 1BFC38B1#0000000000000000
(1493282494.861264) can0 1BFC38BB#FFFFFFFFFFFFFFFF
(1493282494.861667) can0 1BFC38BA#535553500000001A
(1493282494.861893) can0 1BFC38B9#010296408005A3F4
(1493282494.862265) can0 1BFC38B8#0000000800000000
(1493282494.862474) can0 1BFC38B7#80016484250202A2
(1493282494.862855) can0 1BFC38B6#00001B9500000000
(1493282494.863156) can0 1BFC38B5#0502FF1202028A12
(1493282494.863521) can0 1BFC38B4#110F01010000A213
(1493282494.863777) can0 1BFC38B3#8001648431009988
(1493282494.864145) can0 1BFC38B2#80016484838300B9
(1493282494.870172) can0 30B#7F00110000000098
(1493282494.878903) can0 3C0#6A7E1335
(1493282494.895417) can0 759#4427C1091C
(1493282494.919651) can0 6C7#04051101020000
(1493282494.919899) can0 1FD#0000000000000000
(1493282494.920339) can0 30B#7F00110000000098
(1493282494.920514) can0 5F2#B400
(1493282494.945499) can0 170#E9185176F0935A78
(1493282494.969508) can0 30B#7F00110000000098
(1493282494.979041) can0 1FD#0000000000000000
(1493282494.982505) can0 3C0#6A7E1335
(1493282494.995635) can0 32D#95920D5A3073
(1493282495.019784) can0 30B#7F00110000000098
(1493282495.038633) can0 1FD#0000000000000000
(1493282495.045753) can0 006#2DD5
(1493282495.069507) can0 30B#7F00110000000098
(1493282495.086372) can0 3C0#6A7E1335
(1493282495.096065) can0 5A7#FB149066
(1493282495.098623) can0 1FD#0000000000000000
(1493282495.112153) can0 1BFC38B1#0000000000000000
(1493282495.112499) can0 1BFC38BB#FFFFFFFFFFFFFFFF
(1493282495.112745) can0 1BFC38BA#535553500000001A
(1493282495.113125) can0 1BFC38B9#010296408005A3F4
(1493282495.113342) can0 1BFC38B8#0000000800000000
(1493282495.113714) can0 1BFC38B7#80016484250202A2
(1493282495.114025) can0 1BFC38B6#00001B980000A213
(1493282495.114385) can0 1BFC38B5#0502FF1202028A12
(1493282495.114591) can0 1BFC38B4#110F01010000A213
(1493282495.115016) can0 1BFC38B3#800164843100BBAA
(1493282495.115386) can0 1BFC38B2#800164848383802D
(1493282495.120264) can0 6C7#04051101020000
(1493282495.120511) can0 30B#7F00110000000098
(1493282495.120749) can0 5F2#B400
(1493282495.120828) can0 643#000200
(1493282495.121151) can0 64E#00A2130000000000
(1493282495.121523) can0 65E#8808A7A873C00800
(1493282495.121717) can0 6B8#6D08000000000000
(1493282495.121982) can0 6BC#62822651324C0790
(1493282495.146074) can0 438#1CEF7C79BB0C9D
(1493282495.158629) can0 1FD#0000000000000000
(1493282495.170256) can0 30B#7F00110000000098
(1493282495.189614) can0 3C0#6A7E1335
(1493282495.199370) can0 0AC#061C143204683B0C
(1493282495.220776) can0 1FD#0000000000000000
(1493282495.220978) can0 30B#7F00110000000098
(1493282495.221374) can0 631#34C37807FE000000
(1493282495.221484) can0 62D#3482030012000300
(1493282495.228651) can0 6B6#390C1C000B2E
(1493282495.228996) can0 6B7#BEB4000008FF80FE
(1493282495.246521) can0 5FF#BB
(1493282495.269377) can0 30B#7F00110000000098
(1493282495.279030) can0 1FD#0000000000000000
(1493282495.293358) can0 3C0#6A7E1335
(1493282495.296648) can0 6B7#75EE0C1C2770C763
(1493282495.320649) can0 6C7#04051101020000
(1493282495.320861) can0 30B#7F00110000000098
(1493282495.320988) can0 5F2#B300
(1493282495.338615) can0 1FD#0000000000000000
(1493282495.346721) can0 7DC#1804225C09D3744D
(1493282495.361249) can0 1BFC38B1#0000000000000000
(1493282495.361639) can0 1BFC38BA#535553500000001A
(1493282495.361871) can0 1BFC38BB#FFFFFFFFFFFFFFFF
(1493282495.362295) can0 1BFC38B9#010296408005A3F4
(1493282495.362485) can0 1BFC38B8#0000000800000000
(1493282495.362875) can0 1BFC38B7#80016484250202A2
(1493282495.363122) can0 1BFC38B6#00001B9A000034A8
(1493282495.363495) can0 1BFC38B5#0502FF1202028A12
(1493282495.363752) can0 1BFC38B4#110F01010000A213
(1493282495.364122) can0 1BFC38B3#800164843100BBAA
(1493282495.364369) can0 1BFC38B2#800164848383802D
(1493282495.369728) can0 30B#7F00110000000098
(1493282495.396709) can0 3C0#6A7E1335
(1493282495.396857) can0 394#39463A149B0B631E
(1493282495.398843) can0 1FD#0000000000000000
(1493282495.420730) can0 30B#7F00110000000098
(1493282495.447129) can0 2CF#CD23805076E8
(1493282495.458618) can0 1FD#0000000000000000
(1493282495.469356) can0 30B#7F00110000000098
(1493282495.497206) can0 2DB#92509364136F1A2F
(1493282495.500557) can0 3C0#6A7E1335
(1493282495.520844) can0 6C7#04051101020000
(1493282495.521097) can0 1FD#0000000000000000
(1493282495.521479) can0 30B#7F00110000000098
(1493282495.521549) can0 5F2#B300
(1493282495.547383) can0 6EF#CE7BB71D9C5FA006
(1493282495.569364) can0 30B#7F00110000000098
(1493282495.579131) can0 1FD#0000000000000000
(1493282495.597351) can0 3D9#A0C7DB12
(1493282495.604329) can0 3C0#6A7E1335
(1493282495.613134) can0 1BFC38B1#0000000000000000
(1493282495.613351) can0 1BFC38BA#535553500000001A
(1493282495.613755) can0 1BFC38BB#FFFFFFFFFFFFFFFF
(1493282495.613967) can0 1BFC38B9#020096408008FC68
(1493282495.614331) can0 1BFC38B8#0000000800000000
(1493282495.614703) can0 1BFC38B7#80016484250202DE
(1493282495.614953) can0 1BFC38B6#00001B9D00000000
(1493282495.615327) can0 1BFC38B5#0502FF1202028A12
(1493282495.615593) can0 1BFC38B4#110F01010000A213
(1493282495.615832) can0 1BFC38B3#800164843100BBAA
(1493282495.616238) can0 1BFC38B2#800164848383802D
(1493282495.618703) can0 30B#7F00110000000098
(1493282495.618953) can0 65E#8808E9886C060A00
(1493282495.638592) can0 1FD#0000000000000000
(1493282495.639108) can0 62F#4451000B2F
(1493282495.647451) can0 046#31D7D37CFDF6674E
(1493282495.669393) can0 30B#7F00110000000098
(1493282495.697732) can0 45A#24672F3236AC
(1493282495.698844) can0 1FD#0000000000000000
(1493282495.708593) can0 3C0#6A7E1335
(1493282495.720594) can0 6C7#04051101020000
(1493282495.720843) can0 30B#7F00110000000098
(1493282495.721107) can0 5F2#B200
(1493282495.747842) can0 504#407F0B1C99A8FA6B
(1493282495.758759) can0 1FD#0000000000000000
(1493282495.769214) can0 30B#7F00110000000098
(1493282495.798107) can0 1E9#34B45D0AB8741540
(1493282495.812323) can0 3C0#6A7E1335
(1493282495.820743) can0 1FD#0000000000000000
(1493282495.821126) can0 30B#7F00110000000098
(1493282495.848212) can0 0E0#2F
(1493282495.861332) can0 1BFC38B1#0000000000000000
(1493282495.861573) can0 1BFC38BA#0000000700000014
(1493282495.861961) can0 1BFC38BB#FFFFFFFFFFFFFFFF
(1493282495.862223) can0 1BFC38B9#020096408008FC68
(1493282495.862599) can0 1BFC38B8#0000000800000000
(1493282495.862841) can0 1BFC38B7#80016484250202DE
(1493282495.863215) can0 1BFC38B6#00001B9F00000000
(1493282495.863474) can0 1BFC38B5#0502FF1202028A12
(1493282495.863815) can0 1BFC38B4#110F01010000A213
(1493282495.864099) can0 1BFC38B3#800164843100BBAA
(1493282495.864464) can0 1BFC38B2#800164848383802D
(1493282495.869868) can0 30B#7F00110000000098
(1493282495.879494) can0 1FD#0000000000000000
(1493282495.898334) can0 0C9#CE
(1493282495.915668) can0 3C0#6A7E1335
(1493282495.920344) can0 6C7#04051101020000
(1493282495.920830) can0 30B#7F00110000000098
(1493282495.920948) can0 5F2#B200
(1493282495.938732) can0 1FD#0000000000000000
(1493282495.948514) can0 56F#54479E2C49A9DC1F
(1493282495.969329) can0 30B#7F00110000000098
(1493282495.998743) can0 671#221B8451B7
(1493282495.998847) can0 1FD#0000000000000000
(1493282496.019168) can0 3C0#6A7E1335
(1493282496.020696) can0 30B#7F00110000000098
(1493282496.048883) can0 550#B435E3
(1493282496.058699) can0 1FD#0000000000000000
(1493282496.069322) can0 30B#7F00110000000098
(1493282496.098965) can0 7FA#E1ADB054FE847712
(1493282496.112573) can0 1BFC38B1#0000000000000000
(1493282496.112947) can0 1BFC38BA#0000000700000014
(1493282496.113319) can0 1BFC38BB#FFFFFFFFFFFFFFFF
(1493282496.113579) can0 1BFC38B9#020096408008FC68
(1493282496.113812) can0 1BFC38B8#0000000800000000
(1493282496.114187) can0 1BFC38B7#80016484250202DE
(1493282496.114449) can0 1BFC38B6#00001BA20000A213
(1493282496.114786) can0 1BFC38B5#0502FF1202028A12
(1493282496.115073) can0 1BFC38B4#110F01010000A213
(1493282496.115426) can0 1BFC38B3#80016484324000FF
(1493282496.115672) can0 1BFC38B2#8001648483830075
(1493282496.121155) can0 6C7#04051101020000
(1493282496.121444) can0 1FD#0000000000000000
(1493282496.121692) can0 30B#7F00110000000098
(1493282496.121899) can0 5F2#B100
(1493282496.122068) can0 643#000200
(1493282496.122280) can0 64E#00A2130000000000
(1493282496.122530) can0 65E#8808F30B8DFF0600
(1493282496.122904) can0 6B8#6D08000000000000
(1493282496.123157) can0 6BC#62822651324C0792
(1493282496.123274) can0 3C0#6A7E1335
(1493282496.149147) can0 015#97
(1493282496.169318) can0 30B#7F00110000000098
(1493282496.178946) can0 1FD#0000000000000000
(1493282496.199199) can0 29B#B77EFA007BD3630A
(1493282496.220730) can0 30B#7F00110000000098
(1493282496.227071) can0 3C0#6A7E1335
(1493282496.228732) can0 6B6#390C1C000B2F
(1493282496.229095) can0 6B7#BEB4000008FF80FE
(1493282496.238719) can0 1FD#0000000000000000
(1493282496.249334) can0 1CC#366F925695CA
(1493282496.269313) can0 30B#7F00110000000098
(1493282496.298811) can0 1FD#0000000000000000
(1493282496.299497) can0 1A7#4EB2991B
(1493282496.320572) can0 6C7#04051101020000
(1493282496.320954) can0 30B#7F00110000000098
(1493282496.321055) can0 5F2#B100
(1493282496.330529) can0 3C0#6A7E1335
(1493282496.349598) can0 0A1#6020
(1493282496.358711) can0 1FD#0000000000000000
(1493282496.361341) can0 1BFC38B1#0000000000000000
(1493282496.361558) can0 1BFC38B9#020096408008FC68
(1493282496.361971) can0 1BFC38BA#0000000700000014
(1493282496.362304) can0 1BFC38B8#0000000800000000
(1493282496.362570) can0 1BFC38B7#80016484250202DE
(1493282496.362799) can0 1BFC38B6#00001BA402028A12
(1493282496.363191) can0 1BFC38B5#0502FF1202028A12
(1493282496.363413) can0 1BFC38B4#110F01010000A213
(1493282496.363787) can0 1BFC38B3#80016484324000FF
(1493282496.364046) can0 1BFC38B2#8001648483830075
(1493282496.364431) can0 1BFC38BB#FFFFFFFFFFFFFFFF
(1493282496.369818) can0 30B#7F00110000000098
(1493282496.399734) can0 097#CA5D
(1493282496.420697) can0 1FD#0000000000000000
(1493282496.420932) can0 30B#7F00110000000098
(1493282496.434306) can0 3C0#6A7E1335
(1493282496.449795) can0 5D5#939FD967CFE54D3B
(1493282496.469459) can0 30B#7F00110000000098
(1493282496.479078) can0 1FD#0000000000000000
(1493282496.500068) can0 058#CE6AC54D
(1493282496.520675) can0 6C7#04051101020000
(1493282496.520911) can0 30B#7F00110000000098
(1493282496.521160) can0 5F2#B000
(1493282496.538020) can0 3C0#6A7E1335
(1493282496.538630) can0 1FD#0000000000000000
(1493282496.550191) can0 296#6C42622831
(1493282496.569295) can0 30B#7F00110000000098
(1493282496.598797) can0 1FD#0000000000000000
(1493282496.600308) can0 231#AC40AC58
(1493282496.613043) can0 1BFC38B1#0000000000000000
(1493282496.613280) can0 1BFC38BA#0000000700000014
(1493282496.613667) can0 1BFC38BB#FFFFFFFFFFFFFFFF
(1493282496.613900) can0 1BFC38B9#030296408005A3F4
(1493282496.614279) can0 1BFC38B8#0000000800000000
(1493282496.614535) can0 1BFC38B7#800164842502021A
(1493282496.614914) can0 1BFC38B6#00001BA700000000
(1493282496.615280) can0 1BFC38B5#0502FF1202028A12
(1493282496.615541) can0 1BFC38B4#110F01010000A213
(1493282496.615897) can0 1BFC38B3#80016484324000FF
(1493282496.616161) can0 1BFC38B2#8001648483830075
(1493282496.621308) can0 30B#7F00110000000098
(1493282496.621559) can0 65E#88087898B8740A00
(1493282496.639079) can0 62F#4451000B30
(1493282496.641666) can0 3C0#6A7E1335
(1493282496.650416) can0 50A#93FE
(1493282496.658695) can0 1FD#0000000000000000
(1493282496.669300) can0 30B#7F00110000000098
(1493282496.700660) can0 1E6#C9
(1493282496.720546) can0 6C7#04051101020000
(1493282496.720926) can0 1FD#0000000000000000
(1493282496.721147) can0 30B#7F00110000000098
(1493282496.721260) can0 5F2#B000
(1493282496.728788) can0 630#33CE1300
(1493282496.745534) can0 3C0#6A7E1335
(1493282496.750785) can0 283#9B499E3F1BB3D419
(1493282496.769285) can0 30B#7F00110000000098
(1493282496.778911) can0 1FD#0000000000000000
(1493282496.800922) can0 1AB#0351947B80
(1493282496.820690) can0 30B#7F00110000000098
(1493282496.838659) can0 1FD#0000000000000000
(1493282496.849153) can0 3C0#6A7E1335
(1493282496.851024) can0 2E4#500DC6593C6B
(1493282496.861279) can0 1BFC38B1#0000000000000000
(1493282496.861529) can0 1BFC38B9#030296408005A3F4
(1493282496.861904) can0 1BFC38BA#535553500000001A
(1493282496.862292) can0 1BFC38B8#0000000800000000
(1493282496.862495) can0 1BFC38B7#800164842502021A
(1493282496.862758) can0 1BFC38B6#00001BA900000000
(1493282496.863154) can0 1BFC38B5#0502FF1202028A12
(1493282496.863384) can0 1BFC38B4#110F01010000A213
(1493282496.863756) can0 1BFC38B3#80016484324000FF
(1493282496.864015) can0 1BFC38B2#8001648483830075
(1493282496.864432) can0 1BFC38BB#FFFFFFFFFFFFFFFF
(1493282496.869907) can0 30B#7F00110000000098
(1493282496.898780) can0 1FD#0000000000000000
(1493282496.901166) can0 60A#AAA35E50A0B83E4D
(1493282496.920314) can0 6C7#04051101020000
(1493282496.920775) can0 30B#7F00110000000098
(1493282496.920888) can0 5F2#AF00
(1493282496.951265) can0 083#D125871BB48A
(1493282496.952510) can0 3C0#6A7E1335
(1493282496.958660) can0 1FD#0000000000000000
(1493282496.969426) can0 30B#7F00110000000098
(1493282497.001409) can0 73A#B2BE7F0145448370
(1493282497.020773) can0 1FD#0000000000000000
(1493282497.021009) can0 30B#7F00110000000098
(1493282497.051519) can0 65F#F76A936C46
(1493282497.055728) can0 3C0#6A7E1335
(1493282497.069267) can0 30B#7F00110000000098
(1493282497.078895) can0 1FD#0000000000000000
(1493282497.101806) can0 626#
(1493282497.113015) can0 1BFC38B1#0000000000000000
(1493282497.113252) can0 1BFC38BA#535553500000001A
(1493282497.113641) can0 1BFC38B9#030296408005A3F4
(1493282497.113878) can0 1BFC38B8#0000000800000000
(1493282497.114265) can0 1BFC38B7#800164842502021A
(1493282497.114517) can0 1BFC38B6#00001BAC0000A213
(1493282497.114886) can0 1BFC38B5#0502FF1202028A12
(1493282497.115265) can0 1BFC38B4#110F01010000A213
(1493282497.115515) can0 1BFC38B3#8001648431005544
(1493282497.115765) can0 1BFC38B2#80016484838300FB
(1493282497.116148) can0 1BFC38BB#FFFFFFFFFFFFFFFF
(1493282497.121273) can0 6C7#04051101020000
(1493282497.121528) can0 30B#7F00110000000098
(1493282497.121641) can0 5F2#AF00
(1493282497.121754) can0 643#000200
(1493282497.122165) can0 64E#00A2130000000000
(1493282497.122386) can0 65E#880845B5CCDB0800
(1493282497.122652) can0 6B8#6D08000000000000
(1493282497.122900) can0 6BC#62822651324C0798
(1493282497.138621) can0 1FD#0000000000000000
(1493282497.151884) can0 6E9#C4CBB22594C0080C
(1493282497.159480) can0 3C0#6A7E1335
(1493282497.169294) can0 30B#7F00110000000098
(1493282497.198767) can0 1FD#0000000000000000
(1493282497.202029) can0 3CE#14E8802AB396AA
(1493282497.220684) can0 30B#7F00110000000098
(1493282497.220881) can0 631#34C414
(1493282497.221262) can0 62D#34837801F8000000
(1493282497.228765) can0 6B6#390C1C000B30
(1493282497.228994) can0 6B7#BEB4000008FF80FE
(1493282497.252130) can0 55D#EF018C37
(1493282497.258637) can0 1FD#0000000000000000
(1493282497.263467) can0 3C0#6A7E1335
(1493282497.269261) can0 30B#7F00110000000098
(1493282497.302266) can0 582#0804EC71067E951F
(1493282497.320583) can0 6C7#04051101020000
(1493282497.320907) can0 1FD#0000000000000000
(1493282497.321133) can0 30B#7F00110000000098
(1493282497.321250) can0 5F2#AF00
(1493282497.352398) can0 3B0#BA086068EA32C922
(1493282497.361216) can0 1BFC38B1#0000000000000000
(1493282497.361615) can0 1BFC38B9#030296408005A3F4
(1493282497.361864) can0 1BFC38BA#535553500000001A
(1493282497.362273) can0 1BFC38B8#0000000800000000
(1493282497.362511) can0 1BFC38B7#800164842502021A
(1493282497.362898) can0 1BFC38B6#00001BAE000034A8
(1493282497.363144) can0 1BFC38B5#0502FF1202028A12
(1493282497.363550) can0 1BFC38B4#110F01010000A213
(1493282497.363752) can0 1BFC38B3#8001648431005544
(1493282497.364136) can0 1BFC38B2#80016484838300FB
(1493282497.364381) can0 1BFC38BB#FFFFFFFFFFFFFFFF
(1493282497.367091) can0 3C0#6A7E1335
(1493282497.370012) can0 30B#7F00110000000098
(1493282497.379782) can0 1FD#0000000000000000
(1493282497.402502) can0 057#2F774C13B7A61825
(1493282497.420253) can0 30B#7F00110000000098
(1493282497.438621) can0 1FD#0000000000000000
(1493282497.452749) can0 4B1#FDE6A449D7F2
(1493282497.469358) can0 30B#7F00110000000098
(1493282497.470851) can0 3C0#6A7E1335
(1493282497.498869) can0 1FD#0000000000000000
(1493282497.502915) can0 2E6#810B4A1FCFB1853E
(1493282497.520382) can0 6C7#04051101020000
(1493282497.520752) can0 30B#7F00110000000098
(1493282497.521003) can0 5F2#AF00
(1493282497.553152) can0 634#63728E4A02
(1493282497.558618) can0 1FD#0000000000000000
(1493282497.569394) can0 30B#7F00110000000098
(1493282497.574604) can0 3C0#6A7E1335
(1493282497.603237) can0 40D#B5F8D4496A01F96A
(1493282497.612488) can0 1BFC38B1#0000000000000000
(1493282497.612737) can0 1BFC38B9#040096408008FC68
(1493282497.613151) can0 1BFC38BA#535553500000001A
(1493282497.613349) can0 1BFC38B8#0000000800000000
(1493282497.613765) can0 1BFC38B7#8001648425020256
(1493282497.613987) can0 1BFC38B6#00001BB100000000
(1493282497.614370) can0 1BFC38B5#0502FF1202028A12
(1493282497.614624) can0 1BFC38B4#110F01010000A213
(1493282497.614993) can0 1BFC38B3#8001648431005544
(1493282497.615232) can0 1BFC38B2#80016484838300FB
(1493282497.615595) can0 1BFC38BB#FFFFFFFFFFFFFFFF
(1493282497.621254) can0 1FD#0000000000000000
(1493282497.621493) can0 30B#7F00110000000098
(1493282497.621882) can0 65E#88088A689D570700
(1493282497.639131) can0 62F#4451000B31
(1493282497.653419) can0 7DC#D24CA60F5F
(1493282497.669373) can0 30B#7F00110000000098
(1493282497.678208) can0 3C0#6A7E1335
(1493282497.679074) can0 1FD#0000000000000000
(1493282497.703647) can0 03E#653BBE44EE2BF709
(1493282497.720634) can0 6C7#04051101020000
(1493282497.720839) can0 30B#7F00110000000098
(1493282497.720952) can0 5F2#AE00
(1493282497.738614) can0 1FD#0000000000000000
(1493282497.753713) can0 2B5#D95EC02C0C0BAC10
(1493282497.769732) can0 30B#7F00110000000098
(1493282497.781590) can0 3C0#6A7E1335
(1493282497.788606) can0 64E#00A84F0000000000
(1493282497.798855) can0 1FD#0000000000000000
(1493282497.803898) can0 38C#C3B1C4353D90AE30
(1493282497.820353) can0 30B#7F00110000000098
(1493282497.853977) can0 02F#
(1493282497.858613) can0 1FD#0000000000000000
(1493282497.861102) can0 1BFC38B1#0000000000000000
(1493282497.861477) can0 1BFC38BB#FFFFFFFFFFFFFFFF
(1493282497.861725) can0 1BFC38BA#0000000700000014
(1493282497.862103) can0 1BFC38B9#040096408008FC68
(1493282497.862470) can0 1BFC38B8#0000000800000000
(1493282497.862739) can0 1BFC38B7#8001648425020256
(1493282497.863098) can0 1BFC38B6#00001BB300000000
(1493282497.863347) can0 1BFC38B5#0502FF1202028A12
(1493282497.863734) can0 1BFC38B4#110F01010000A213
(1493282497.863989) can0 1BFC38B3#8001648431005544
(1493282497.864343) can0 1BFC38B2#80016484838300FB
(1493282497.870082) can0 30B#7F00110000000098
(1493282497.885233) can0 3C0#6A7E1335
(1493282497.904277) can0 28B#E554527BBFF0
(1493282497.919612) can0 6C7#04051101020000
(1493282497.919812) can0 1FD#0000000000000000
(1493282497.920250) can0 30B#7F00110000000098
(1493282497.920363) can0 5F2#AE00
(1493282497.954384) can0 5DB#C252037FE859A50E
(1493282497.969373) can0 30B#7F00110000000098
(1493282497.978877) can0 1FD#0000000000000000
(1493282497.988458) can0 3C0#6A7E1335
(1493282498.004467) can0 1C0#535B9E799D7146
(1493282498.019705) can0 30B#7F00110000000098
(1493282498.038720) can0 1FD#0000000000000000
(1493282498.054597) can0 61C#FC2E6F595B
(1493282498.069472) can0 30B#7F00110000000098
(1493282498.092209) can0 3C0#6A7E1335
(1493282498.098742) can0 1FD#0000000000000000
(1493282498.104790) can0 100#49
(1493282498.112086) can0 1BFC38B1#0000000000000000
(1493282498.112460) can0 1BFC38BB#FFFFFFFFFFFFFFFF
(1493282498.112708) can0 1BFC38BA#0000000700000014
(1493282498.113085) can0 1BFC38B9#040096408008FC68
(1493282498.113468) can0 1BFC38B8#0000000800000000
(1493282498.113732) can0 1BFC38B7#8001648425020256
(1493282498.114105) can0 1BFC38B6#00001BB60000A800
(1493282498.114338) can0 1BFC38B5#0502FF1202028A12
(1493282498.114735) can0 1BFC38B4#111001010000A800
(1493282498.114924) can0 1BFC38B3#8001648431007766
(1493282498.115342) can0 1BFC38B2#800164848383803F
(1493282498.120220) can0 6C7#04051101020000
(1493282498.120470) can0 30B#7F00110000000098
(1493282498.120555) can0 5F2#AD00
(1493282498.120858) can0 643#000200
(1493282498.121115) can0 64E#00A84F0000000000
(1493282498.121301) can0 65E#88083515A4270A00
(1493282498.121564) can0 6B8#6D08000000000000
(1493282498.121939) can0 6BC#62822651324C079D
(1493282498.154987) can0 680#C27E
(1493282498.158746) can0 1FD#0000000000000000
(1493282498.170207) can0 30B#7F00110000000098
(1493282498.195538) can0 3C0#6A7E1335
(1493282498.205076) can0 72B#4A4AF8125A
(1493282498.220705) can0 1FD#0000000000000000
(1493282498.220951) can0 30B#7F00110000000098
(1493282498.228706) can0 6B6#390C1C000B31
(1493282498.228956) can0 6B7#BEB4000008FF80FE
(1493282498.255203) can0 146#6FA20247D1B34739
(1493282498.269233) can0 30B#7F00110000000098
(1493282498.278832) can0 1FD#0000000000000000
(1493282498.299405) can0 3C0#6A7E1335
(1493282498.305209) can0 3F5#91A4203D
(1493282498.320698) can0 6C7#04051101020000
(1493282498.320990) can0 30B#7F00110000000098
(1493282498.321201) can0 5F2#AD00
(1493282498.338701) can0 1FD#0000000000000000
(1493282498.355478) can0 69D#B91B7E
(1493282498.361225) can0 1BFC38B1#0000000000000000
(1493282498.361619) can0 1BFC38BA#0000000700000014
(1493282498.361959) can0 1BFC38BB#FFFFFFFFFFFFFFFF
(1493282498.362194) can0 1BFC38B9#040096408008FC68
(1493282498.362579) can0 1BFC38B8#0000000800000000
(1493282498.362828) can0 1BFC38B7#8001648425020256
(1493282498.363201) can0 1BFC38B6#00001BB802028A12
(1493282498.363474) can0 1BFC38B5#0502FF1202028A12
(1493282498.363845) can0 1BFC38B4#111001010000A800
(1493282498.364031) can0 1BFC38B3#8001648431007766
(1493282498.364478) can0 1BFC38B2#800164848383803F
(1493282498.369825) can0 30B#7F00110000000098
(1493282498.398847) can0 1FD#0000000000000000
(1493282498.402942) can0 3C0#6A7E1335
(1493282498.405621) can0 2CA#FA516C77E788354F
(1493282498.420689) can0 30B#7F00110000000098
(1493282498.455692) can0 731#426FBA223218
(1493282498.458688) can0 1FD#0000000000000000
(1493282498.469314) can0 30B#7F00110000000098
(1493282498.505814) can0 357#E78B1419D899543A
(1493282498.506810) can0 3C0#6A7E1335
(1493282498.520722) can0 6C7#04051101020000
(1493282498.520950) can0 1FD#0000000000000000
(1493282498.521184) can0 30B#7F00110000000098
(1493282498.521414) can0 5F2#AD00
(1493282498.555927) can0 2AE#E4539E1CD939BC54
(1493282498.569342) can0 30B#7F00110000000098
(1493282498.578814) can0 1FD#0000000000000000
(1493282498.606196) can0 32F#3339F25E7504A103
(1493282498.610557) can0 3C0#6A7E1335
(1493282498.612319) can0 1BFC38B1#0000000000000000
(1493282498.612690) can0 1BFC38BA#0000000700000014
(1493282498.612950) can0 1BFC38BB#FFFFFFFFFFFFFFFF
(1493282498.613327) can0 1BFC38B9#050296408005A3F4
(1493282498.613546) can0 1BFC38B8#0000000800000000
(1493282498.613913) can0 1BFC38B7#800164842502028C
(1493282498.614160) can0 1BFC38B6#00001BBB00000000
(1493282498.614536) can0 1BFC38B5#0502FF1202028A12
(1493282498.614794) can0 1BFC38B4#111001010000A800
(1493282498.615157) can0 1BFC38B3#8001648431007766
(1493282498.615412) can0 1BFC38B2#800164848383803F
(1493282498.621316) can0 30B#7F00110000000098
(1493282498.621576) can0 65E#8808F88387E10C00
(1493282498.638684) can0 1FD#0000000000000000
(1493282498.639193) can0 62F#4451000B32
(1493282498.656163) can0 38D#46B8
(1493282498.669287) can0 30B#7F00110000000098
(1493282498.698807) can0 1FD#0000000000000000
(1493282498.706440) can0 2F7#5389F92394917F
(1493282498.714658) can0 3C0#6A7E1335
(1493282498.720001) can0 6C7#04051101020000
(1493282498.720346) can0 30B#7F00110000000098
(1493282498.720449) can0 5F2#AC00
(1493282498.728923) can0 630#33CF00
(1493282498.756604) can0 42A#F171A533F596293B
(1493282498.758671) can0 1FD#0000000000000000
(1493282498.769303) can0 30B#7F00110000000098
(1493282498.806673) can0 418#DC1F5F0A493BF574
(1493282498.818039) can0 3C0#6A7E1335
(1493282498.819911) can0 1FD#0000000000000000
(1493282498.820211) can0 30B#7F00110000000098
(1493282498.856822) can0 4E2#7B532D743A30F66A
(1493282498.860934) can0 1BFC38B1#0000000000000000
(1493282498.861313) can0 1BFC38BB#FFFFFFFFFFFFFFFF
(1493282498.861536) can0 1BFC38BA#535553500000001A
(1493282498.861927) can0 1BFC38B9#050296408005A3F4
(1493282498.862305) can0 1BFC38B8#0000000800000000
(1493282498.862540) can0 1BFC38B7#800164842502028C
(1493282498.862944) can0 1BFC38B6#00001BBD00000000
(1493282498.863152) can0 1BFC38B5#0502FF1202028A12
(1493282498.863551) can0 1BFC38B4#111001010000A800
(1493282498.863818) can0 1BFC38B3#8001648431007766
(1493282498.864051) can0 1BFC38B2#800164848383803F
(1493282498.870177) can0 30B#7F00110000000098
(1493282498.879327) can0 1FD#0000000000000000
(1493282498.907051) can0 0A9#12CA4A
(1493282498.919582) can0 6C7#04051101020000
(1493282498.919898) can0 30B#7F00110000000098
(1493282498.919989) can0 5F2#AC00
(1493282498.921655) can0 3C0#6A7E1335
(1493282498.938662) can0 1FD#0000000000000000
(1493282498.957197) can0 20C#303D7F0C3B25
(1493282498.969429) can0 30B#7F00110000000098
(1493282498.998673) can0 1FD#0000000000000000
(1493282499.007429) can0 425#B0296A
(1493282499.019670) can0 30B#7F00110000000098
(1493282499.025122) can0 3C0#6A7E1335
(1493282499.057535) can0 206#35EF4939FD24B0
(1493282499.058658) can0 1FD#0000000000000000
(1493282499.069419) can0 30B#7F00110000000098
(1493282499.107670) can0 6CE#91B62F6AF9928965
(1493282499.112154) can0 1BFC38B1#0000000000000000
(1493282499.112393) can0 1BFC38BB#FFFFFFFFFFFFFFFF
(1493282499.112805) can0 1BFC38BA#535553500000001A
(1493282499.113162) can0 1BFC38B9#050296408005A3F4
(1493282499.113419) can0 1BFC38B8#0000000800000000
(1493282499.113652) can0 1BFC38B7#800164842502028C
(1493282499.114036) can0 1BFC38B6#00001BC00000A800
(1493282499.114295) can0 1BFC38B5#0502FF1202028A12
(1493282499.114668) can0 1BFC38B4#111001010000A800
(1493282499.114907) can0 1BFC38B3#800164843240CCBB
(1493282499.115309) can0 1BFC38B2#80016484838300C7
(1493282499.120159) can0 6C7#04051101020000
(1493282499.120529) can0 1FD#0000000000000000
(1493282499.120777) can0 30B#7F00110000000098
(1493282499.120889) can0 5F2#AC00
(1493282499.121155) can0 643#000200
(1493282499.121404) can0 64E#00A84F0000000000
(1493282499.121654) can0 65E#8808E19C89570800
(1493282499.122027) can0 6B8#6D08000000000000
(1493282499.122313) can0 6BC#62822651324C07BA
(1493282499.128531) can0 3C0#6A7E1335
(1493282499.157801) can0 594#EE29
(1493282499.170164) can0 30B#7F00110000000098
(1493282499.179064) can0 1FD#0000000000000000
(1493282499.207902) can0 46E#F57444685131D444
(1493282499.220662) can0 30B#7F00110000000098
(1493282499.221178) can0 631#34CD00
(1493282499.221297) can0 62D#348414
(1493282499.228649) can0 6B6#390C1C000B32
(1493282499.228897) can0 6B7#BEB4000008FF80FE
(1493282499.232402) can0 3C0#6A7E1335
(1493282499.238678) can0 1FD#0000000000000000
(1493282499.258040) can0 0E8#8B
(1493282499.269157) can0 30B#7F00110000000098
(1493282499.298804) can0 1FD#0000000000000000
(1493282499.308146) can0 7D4#E9EC3E3DE091923A
(1493282499.320676) can0 6C7#04051101020000
(1493282499.320889) can0 30B#7F00110000000098
(1493282499.321186) can0 5F2#AB00
(1493282499.335610) can0 3C0#6A7E1335
(1493282499.358270) can0 193#1CB75B2FB8057E08
(1493282499.358889) can0 1FD#0000000000000000
(1493282499.361263) can0 1BFC38B1#0000000000000000
(1493282499.361515) can0 1BFC38BA#535553500000001A
(1493282499.361914) can0 1BFC38BB#FFFFFFFFFFFFFFFF
(1493282499.362290) can0 1BFC38B9#050296408005A3F4
(1493282499.362518) can0 1BFC38B8#0000000800000000
(1493282499.362884) can0 1BFC38B7#800164842502028C
(1493282499.363129) can0 1BFC38B6#00001BC2000034A8
(1493282499.363493) can0 1BFC38B5#0502FF1202028A12
(1493282499.363743) can0 1BFC38B4#111001010000A800
(1493282499.364168) can0 1BFC38B3#800164843240CCBB
(1493282499.364363) can0 1BFC38B2#80016484838300C7
(1493282499.369776) can0 30B#7F00110000000098
(1493282499.408564) can0 07D#6B2DA70083F29546
(1493282499.420663) can0 1FD#0000000000000000
(1493282499.420881) can0 30B#7F00110000000098
(1493282499.438852) can0 3C0#6A7E1335
(1493282499.458664) can0 2C3#
(1493282499.469386) can0 30B#7F00110000000098
(1493282499.479010) can0 1FD#0000000000000000
(1493282499.508772) can0 528#8B
(1493282499.520638) can0 6C7#04051101020000
(1493282499.520872) can0 30B#7F00110000000098
(1493282499.521151) can0 5F2#AB00
(1493282499.538621) can0 1FD#0000000000000000
(1493282499.542262) can0 3C0#6A7E1335
(1493282499.558893) can0 693#68EC3E7D02E33111
(1493282499.569128) can0 30B#7F00110000000098
(1493282499.598761) can0 1FD#0000000000000000
(1493282499.609127) can0 043#531406562BE1EF15
(1493282499.613126) can0 1BFC38B1#0000000000000000
(1493282499.613357) can0 1BFC38BA#535553500000001A
(1493282499.613748) can0 1BFC38BB#FFFFFFFFFFFFFFFF
(1493282499.614137) can0 1BFC38B9#060096408008FC68
(1493282499.614395) can0 1BFC38B8#0000000800000000
(1493282499.614616) can0 1BFC38B7#80016484250202C8
(1493282499.615015) can0 1BFC38B6#00001BC500000000
(1493282499.615238) can0 1BFC38B5#0502FF1202028A12
(1493282499.615602) can0 1BFC38B4#111001010000A800
(1493282499.615854) can0 1BFC38B3#800164843240CCBB
(1493282499.616265) can0 1BFC38B2#80016484838300C7
(1493282499.621259) can0 30B#7F00110000000098
(1493282499.621647) can0 65E#880878058C5D0B00
(1493282499.639169) can0 62F#4451000B33
(1493282499.645900) can0 3C0#6A7E1335
(1493282499.658615) can0 1FD#0000000000000000
(1493282499.659085) can0 1CE#BCCA6B1BA2D1A82B
(1493282499.669141) can0 30B#7F00110000000098
(1493282499.709394) can0 17B#83633B660E
(1493282499.720626) can0 6C7#04051101020000
(1493282499.720860) can0 1FD#0000000000000000
(1493282499.721103) can0 30B#7F00110000000098
(1493282499.721371) can0 5F2#AB00
(1493282499.749619) can0 3C0#6A7E1335
(1493282499.759369) can0 1BF#C7F0617A3C829857
(1493282499.769148) can0 30B#7F00110000000098
(1493282499.778898) can0 1FD#0000000000000000
(1493282499.809482) can0 36B#BF74
(1493282499.820645) can0 30B#7F00110000000098
(1493282499.838620) can0 1FD#0000000000000000
(1493282499.853368) can0 3C0#6A7E1335
(1493282499.859631) can0 2D2#C1BFEA26FACF2E4C
(1493282499.861269) can0 1BFC38B1#0000000000000000
(1493282499.861656) can0 1BFC38B9#060096408008FC68
(1493282499.861868) can0 1BFC38BA#0000000700000014
(1493282499.862207) can0 1BFC38B8#0000000800000000
(1493282499.862471) can0 1BFC38B7#80016484250202C8
(1493282499.862844) can0 1BFC38B6#00001BC700000000
(1493282499.863090) can0 1BFC38B5#0502FF1202028A12
(1493282499.863468) can0 1BFC38B4#111001010000A800
(1493282499.863731) can0 1BFC38B3#800164843240CCBB
(1493282499.864181) can0 1BFC38B2#80016484838300C7
(1493282499.864365) can0 1BFC38BB#FFFFFFFFFFFFFFFF
(1493282499.870001) can0 30B#7F00110000000098
(1493282499.898865) can0 1FD#0000000000000000
(1493282499.909738) can0 250#B6821E56E3503551
(1493282499.920359) can0 6C7#04051101020000
(1493282499.920735) can0 30B#7F00110000000098
(1493282499.920846) can0 5F2#AB00
(1493282499.956470) can0 3C0#6A7E1335
(1493282499.958619) can0 1FD#0000000000000000
(1493282499.959850) can0 2C5#E5336762081B5F69
(1493282499.969356) can0 30B#7F00110000000098
(1493282500.010107) can0 07B#33FC4E7F4AFAD57A
(1493282500.020756) can0 1FD#0000000000000000
(1493282500.020969) can0 30B#7F00110000000098
(1493282500.059808) can0 3C0#6A7E1335
(1493282500.060094) can0 616#ECCB7E26915F2319
(1493282500.069383) can0 30B#7F00110000000098
(1493282500.079134) can0 1FD#0000000000000000
(1493282500.110363) can0 695#A04A070B5460CE15
(1493282500.112976) can0 1BFC38B1#0000000000000000
(1493282500.113382) can0 1BFC38BA#0000000700000014
(1493282500.113595) can0 1BFC38BB#FFFFFFFFFFFFFFFF
(1493282500.113976) can0 1BFC38B9#060096408008FC68
(1493282500.114217) can0 1BFC38B8#0000000800000000
(1493282500.114598) can0 1BFC38B7#80016484250202C8
(1493282500.114848) can0 1BFC38B6#00001BCA0000A800
(1493282500.115221) can0 1BFC38B5#0502FF1202028A12
(1493282500.115473) can0 1BFC38B4#111001010000A800
(1493282500.115863) can0 1BFC38B3#8001648431001100
(1493282500.116070) can0 1BFC38B2#80016484838300DD
(1493282500.118620) can0 6C7#04051101020000
(1493282500.118970) can0 30B#7F00110000000098
(1493282500.119068) can0 5F2#AA00
(1493282500.119372) can0 643#000200
(1493282500.119588) can0 64E#00A84F0000000000
(1493282500.119869) can0 65E#880831ABBD070900
(1493282500.120097) can0 6B8#6D08000000000000
(1493282500.120369) can0 6BC#62822651324C07BB
(1493282500.138606) can0 1FD#0000000000000000
(1493282500.160494) can0 20E#90E2666D7A45AE
(1493282500.163304) can0 3C0#6A7E1335
(1493282500.169379) can0 30B#7F00110000000098
(1493282500.198848) can0 1FD#0000000000000000
(1493282500.210674) can0 199#A903247A6B946C35
(1493282500.220372) can0 30B#7F00110000000098
(1493282500.228722) can0 6B6#390C1C000B33
(1493282500.229110) can0 6B7#BEB4000008FF80FE
(1493282500.258720) can0 1FD#0000000000000000
(1493282500.260880) can0 38E#65649B01DE3DF472
(1493282500.267195) can0 3C0#6A7E1335
(1493282500.269496) can0 30B#7F00110000000098
(1493282500.310978) can0 7B6#C18E29447B2A9365
(1493282500.320088) can0 6C7#04051101020000
(1493282500.320338) can0 1FD#0000000000000000
(1493282500.320575) can0 30B#7F00110000000098
(1493282500.320841) can0 5F2#AA00
(1493282500.360957) can0 1BFC38B1#0000000000000000
(1493282500.361077) can0 639#8345F24EB426F8
(1493282500.361390) can0 1BFC38BB#FFFFFFFFFFFFFFFF
(1493282500.361831) can0 1BFC38BA#0000000700000014
(1493282500.362084) can0 1BFC38B9#060096408008FC68
(1493282500.362462) can0 1BFC38B8#0000000800000000
(1493282500.362711) can0 1BFC38B7#80016484250202C8
(1493282500.363083) can0 1BFC38B6#00001BCC02028A12
(1493282500.363341) can0 1BFC38B5#0502FF1202028A12
(1493282500.363710) can0 1BFC38B4#111001010000A800
(1493282500.364088) can0 1BFC38B3#8001648431001100
(1493282500.364332) can0 1BFC38B2#80016484838300DD
(1493282500.370075) can0 30B#7F00110000000098
(1493282500.370674) can0 3C0#6A7E1335
(1493282500.379839) can0 1FD#0000000000000000
(1493282500.411203) can0 2DF#FE20CE5EF6C8
(1493282500.419690) can0 30B#7F00110000000098
(1493282500.438733) can0 1FD#0000000000000000
(1493282500.461334) can0 0A5#87285F363A87615C
(1493282500.469490) can0 30B#7F00110000000098
(1493282500.474688) can0 3C0#6A7E1335
(1493282500.498715) can0 1FD#0000000000000000
(1493282500.511454) can0 45A#8EE72F72696658
(1493282500.519825) can0 6C7#04051101020000
(1493282500.520077) can0 30B#7F00110000000098
(1493282500.520317) can0 5F2#AA00
(1493282500.558702) can0 1FD#0000000000000000
(1493282500.561716) can0 68E#E3AB061427084247
(1493282500.569448) can0 30B#7F00110000000098
(1493282500.578692) can0 3C0#6A7E1335
(1493282500.611837) can0 16D#929CAE7CFB043655
(1493282500.612196) can0 1BFC38B1#0000000000000000
(1493282500.612695) can0 1BFC38BB#FFFFFFFFFFFFFFFF
(1493282500.613070) can0 1BFC38BA#0000000700000014
(1493282500.613334) can0 1BFC38B9#070296408005A3F4
(1493282500.613692) can0 1BFC38B8#0000000800000000
(1493282500.614065) can0 1BFC38B7#801270C025020203
(1493282500.614319) can0 1BFC38B6#00001BCF00000000
(1493282500.614539) can0 1BFC38B5#0502FF1202028A12
(1493282500.614926) can0 1BFC38B4#111001010000A800
(1493282500.615181) can0 1BFC38B3#8001648431001100
(1493282500.615550) can0 1BFC38B2#80016484838300DD
(1493282500.618691) can0 1FD#0000000000000000
(1493282500.619050) can0 30B#7F00110000000098
(1493282500.619348) can0 65E#8808021A8FDB0800
(1493282500.629832) can0 62F#4451000B34
(1493282500.662068) can0 2F6#D9422A48AC8A31
(1493282500.669365) can0 30B#7F00110000000098
(1493282500.678944) can0 1FD#0000000000000000
(1493282500.682443) can0 3C0#6A7E1335
(1493282500.712068) can0 012#27B5C44E4B3E1B01
(1493282500.719549) can0 6C7#04051101020000
(1493282500.720062) can0 30B#7F00110000000098
(1493282500.720065) can0 5F2#A900
(1493282500.729328) can0 630#33D03F0102
(1493282500.738687) can0 1FD#0000000000000000
(1493282500.762177) can0 442#00651365219FE211
(1493282500.769447) can0 30B#7F00110000000098
(1493282500.785672) can0 3C0#6A7E1335
(1493282500.798691) can0 1FD#0000000000000000
(1493282500.812370) can0 460#17681E2F0545F454
(1493282500.819672) can0 30B#7F00110000000098
(1493282500.858687) can0 1FD#0000000000000000
(1493282500.861056) can0 1BFC38B1#0000000000000000
(1493282500.861290) can0 1BFC38BB#FFFFFFFFFFFFFFFF
(1493282500.861558) can0 1BFC38BA#535553500000001A
(1493282500.861945) can0 1BFC38B9#070296408005A3F4
(1493282500.862315) can0 1BFC38B8#0000000800000000
(1493282500.862571) can0 2E9#40CC5531448F355B
(1493282500.862574) can0 1BFC38B7#801270C025020203
(1493282500.863012) can0 1BFC38B6#00001BD100000000
(1493282500.863430) can0 1BFC38B5#0502FF1202028A12
(1493282500.863694) can0 1BFC38B4#111001010000A800
(1493282500.864063) can0 1BFC38B3#8001648431001100
(1493282500.864306) can0 1BFC38B2#80016484838300DD
(1493282500.870075) can0 30B#7F00110000000098
(1493282500.889304) can0 3C0#6A7E1335
(1493282500.912590) can0 3C6#ADF58D0F55B2B36D
(1493282500.919688) can0 6C7#04051101020000
(1493282500.920068) can0 1FD#0000000000000000
(1493282500.920316) can0 30B#7F00110000000098
(1493282500.920427) can0 5F2#A900
(1493282500.962817) can0 5ED#
(1493282500.969431) can0 30B#7F00110000000098
(1493282500.979083) can0 1FD#0000000000000000
(1493282500.992671) can0 3C0#6A7E1335
(1493282501.012991) can0 11C#56A47E4312C4F860
(1493282501.019709) can0 30B#7F00110000000098
(1493282501.038675) can0 1FD#0000000000000000
(1493282501.063060) can0 006#BE4E2A4A1940F205
(1493282501.069422) can0 30B#7F00110000000098
(1493282501.096298) can0 3C0#6A7E1335
(1493282501.098683) can0 1FD#0000000000000000
(1493282501.112187) can0 1BFC38B1#0000000000000000
(1493282501.112382) can0 1BFC38BB#FFFFFFFFFFFFFFFF
(1493282501.112808) can0 1BFC38BA#535553500000001A
(1493282501.113054) can0 0CA#647E0D070C
(1493282501.113057) can0 1BFC38B9#070296408005A3F4
(1493282501.113440) can0 1BFC38B8#0000000800000000
(1493282501.113948) can0 1BFC38B7#801270C025020203
(1493282501.114176) can0 1BFC38B6#00001BD40000A800
(1493282501.114523) can0 1BFC38B5#0502FF1202028A12
(1493282501.114772) can0 1BFC38B4#111001010000A800
(1493282501.115149) can0 1BFC38B3#8001648431003322
(1493282501.115397) can0 1BFC38B2#8001648483838051
(1493282501.120178) can0 6C7#04051101020000
(1493282501.120585) can0 30B#7F00110000000098
(1493282501.120688) can0 5F2#A900
(1493282501.120784) can0 643#000200
(1493282501.121196) can0 64E#00A84F0000000000
(1493282501.121419) can0 65E#88084C885FA30500
(1493282501.121696) can0 6B8#6D08000000000000
(1493282501.122047) can0 6BC#62822651324C07BD
(1493282501.158667) can0 1FD#0000000000000000
(1493282501.163331) can0 68F#2EECC35C
(1493282501.169418) can0 30B#7F00110000000098
(1493282501.199626) can0 3C0#6A7E1335
(1493282501.213474) can0 163#F47F92774C
(1493282501.220007) can0 1FD#0000000000000000
(1493282501.220162) can0 30B#7F00110000000098
(1493282501.220415) can0 631#34CE01
(1493282501.220664) can0 62D#348F00
(1493282501.229036) can0 6B6#390C1C000B34
(1493282501.229279) can0 6B7#BEB4000008FF80FE
(1493282501.263499) can0 4E4#906B6654
(1493282501.269425) can0 30B#7F00110000000098
(1493282501.278791) can0 1FD#0000000000000000
(1493282501.303501) can0 3C0#6A7E1335
(1493282501.313738) can0 003#009BF705F07D8A4F
(1493282501.319686) can0 6C7#04051101020000
(1493282501.320028) can0 30B#7F00110000000098
(1493282501.320147) can0 5F2#A900
(1493282501.338652) can0 1FD#0000000000000000
(1493282501.361029) can0 1BFC38B1#0000000000000000
(1493282501.361270) can0 1BFC38BB#FFFFFFFFFFFFFFFF
(1493282501.361672) can0 1BFC38BA#535553500000001A
(1493282501.361891) can0 1BFC38B9#070296408005A3F4
(1493282501.362305) can0 1BFC38B8#0000000800000000
(1493282501.362557) can0 1BFC38B7#801270C025020203
(1493282501.362896) can0 1BFC38B6#00001BD6000034A8
(1493282501.363139) can0 1BFC38B5#0502FF1202028A12
(1493282501.363524) can0 1BFC38B4#111001010000A800
(1493282501.363608) can0 2CD#4A1DD33DE9534839
(1493282501.363726) can0 1BFC38B3#8001648431003322
(1493282501.364278) can0 1BFC38B2#8001648483838051
(1493282501.370154) can0 30B#7F00110000000098
(1493282501.398685) can0 1FD#0000000000000000
(1493282501.407018) can0 3C0#6A7E1335
(1493282501.416266) can0 48B#
(1493282501.419998) can0 30B#7F00110000000098
(1493282501.458647) can0 1FD#0000000000000000
(1493282501.464026) can0 0D0#AB4472229A61F724
(1493282501.469409) can0 30B#7F00110000000098
(1493282501.510267) can0 3C0#6A7E1335
(1493282501.514197) can0 29E#A7AED86F2D690034
(1493282501.519675) can0 6C7#04051101020000
(1493282501.520021) can0 1FD#0000000000000000
(1493282501.520268) can0 30B#7F00110000000098
(1493282501.520392) can0 5F2#A900
(1493282501.564263) can0 674#1CA49E56D7
(1493282501.569523) can0 30B#7F00110000000098
(1493282501.579022) can0 1FD#0000000000000000
(1493282501.612094) can0 1BFC38B1#0000000000000000
(1493282501.612343) can0 1BFC38BB#FFFFFFFFFFFFFFFF
(1493282501.612728) can0 1BFC38BA#535553500000001A
(1493282501.613001) can0 1BFC38B9#000096408008FC68
(1493282501.613358) can0 1BFC38B8#0000000800000000
(1493282501.613629) can0 1BFC38B7#800164842502023F
(1493282501.613978) can0 1BFC38B6#00001BD900000000
(1493282501.614224) can0 1BFC38B5#0502FF1202028A12
(1493282501.614343) can0 71A#23
(1493282501.614345) can0 3C0#6A7E1335
(1493282501.614637) can0 1BFC38B4#111001010000A800
(1493282501.615005) can0 1BFC38B3#8001648431003322
(1493282501.615474) can0 1BFC38B2#8001648483838051
(1493282501.620248) can0 30B#7F00110000000098
(1493282501.620495) can0 65E#88080AF5B9620A00
(1493282501.630014) can0 62F#4451000B35
(1493282501.638643) can0 1FD#0000000000000000
(1493282501.664502) can0 045#AABC2262
(1493282501.670139) can0 30B#7F00110000000098
(1493282501.698799) can0 1FD#0000000000000000
(1493282501.714645) can0 0F1#38EE1113BFBBB77E
(1493282501.718591) can0 3C0#6A7E1335
(1493282501.720668) can0 6C7#04051101020000
(1493282501.720887) can0 30B#7F00110000000098
(1493282501.721152) can0 5F2#A800
(1493282501.758592) can0 1FD#0000000000000000
(1493282501.764710) can0 526#A80F00
(1493282501.769088) can0 30B#7F00110000000098
(1493282501.814896) can0 523#445E192C
(1493282501.820748) can0 1FD#0000000000000000
(1493282501.820992) can0 30B#7F00110000000098
(1493282501.822464) can0 3C0#6A7E1335
(1493282501.861255) can0 1BFC38B1#0000000000000000
(1493282501.861665) can0 1BFC38BA#0000000700000014
(1493282501.862014) can0 1BFC38BB#FFFFFFFFFFFFFFFF
(1493282501.862243) can0 1BFC38B9#000096408008FC68
(1493282501.862502) can0 1BFC38B8#0000000800000000
(1493282501.862880) can0 1BFC38B7#800164842502023F
(1493282501.863129) can0 1BFC38B6#00001BDB00000000
(1493282501.863513) can0 1BFC38B5#0502FF1202028A12
(1493282501.863762) can0 1BFC38B4#111001010000A800
(1493282501.864141) can0 1BFC38B3#8001648431003322
(1493282501.864368) can0 1BFC38B2#8001648483838051
(1493282501.865209) can0 65D#8ED72804FCF80634
(1493282501.869876) can0 30B#7F00110000000098
(1493282501.879395) can0 1FD#0000000000000000
(1493282501.915263) can0 5FE#2962076872
(1493282501.920406) can0 6C7#04051101020000
(1493282501.920773) can0 30B#7F00110000000098
(1493282501.920991) can0 5F2#A800
(1493282501.926008) can0 3C0#6A7E1335
(1493282501.938629) can0 1FD#0000000000000000
(1493282501.965516) can0 10A#491C4F532410
(1493282501.969371) can0 30B#7F00110000000098
(1493282501.998908) can0 1FD#0000000000000000
(1493282502.015635) can0 257#23E4FB629C9AF003
(1493282502.020634) can0 30B#7F00110000000098
(1493282502.029237) can0 3C0#6A7E1335
(1493282502.058654) can0 1FD#0000000000000000
(1493282502.065734) can0 021#E50A784712198C1C
(1493282502.069278) can0 30B#7F00110000000098
(1493282502.112613) can0 1BFC38B1#0000000000000000
(1493282502.113016) can0 1BFC38BA#0000000700000014
(1493282502.113231) can0 1BFC38BB#FFFFFFFFFFFFFFFF
(1493282502.113480) can0 1BFC38B9#000096408008FC68
(1493282502.113865) can0 1BFC38B8#0000000800000000
(1493282502.114240) can0 1BFC38B7#800164842502023F
(1493282502.114489) can0 1BFC38B6#00001BDE0000A800
(1493282502.114862) can0 1BFC38B5#0502FF1202028A12
(1493282502.115115) can0 1BFC38B4#111001010000A800
(1493282502.115361) can0 1BFC38B3#8001648432408877
(1493282502.115722) can0 1BFC38B2#80016484838300D9
(1493282502.115960) can0 077#D1D4431B9EA54050
(1493282502.121121) can0 6C7#04051101020000
(1493282502.121566) can0 1FD#0000000000000000
(1493282502.121740) can0 30B#7F00110000000098
(1493282502.121973) can0 5F2#A800
(1493282502.121975) can0 643#000200
(1493282502.122374) can0 64E#00A84F0000000000
(1493282502.122576) can0 65E#88083A15A45B0600
(1493282502.122969) can0 6B8#6D08000000000000
(1493282502.123235) can0 6BC#62822651324C07BE
(1493282502.132991) can0 3C0#6A7E1335
(1493282502.165990) can0 4A0#50FFD95FC4D1A57D
(1493282502.169234) can0 30B#7F00110000000098
(1493282502.178999) can0 1FD#0000000000000000
(1493282502.216239) can0 41E#B747D75C
(1493282502.220597) can0 30B#7F00110000000098
(1493282502.228643) can0 6B6#390C1C000B35
(1493282502.228985) can0 6B7#BEB4000008FF80FE
(1493282502.236858) can0 3C0#6A7E1335
(1493282502.238729) can0 1FD#0000000000000000
(1493282502.266365) can0 083#7793381081
(1493282502.269259) can0 30B#7F00110000000098
(1493282502.298860) can0 1FD#0000000000000000
(1493282502.316481) can0 57A#F4
(1493282502.320604) can0 6C7#04051101020000
(1493282502.320974) can0 30B#7F00110000000098
(1493282502.320977) can0 5F2#A900
(1493282502.340359) can0 3C0#6A7E1335
(1493282502.358722) can0 1FD#0000000000000000
(1493282502.361256) can0 1BFC38B1#0000000000000000
(1493282502.361632) can0 1BFC38BA#0000000700000014
(1493282502.362007) can0 1BFC38BB#FFFFFFFFFFFFFFFF
(1493282502.362225) can0 1BFC38B9#000096408008FC68
(1493282502.362451) can0 1BFC38B8#0000000800000000
(1493282502.362830) can0 1BFC38B7#800164842502023F
(1493282502.363084) can0 1BFC38B6#00001BE002028A12
(1493282502.363457) can0 1BFC38B5#0502FF1202028A12
(1493282502.363712) can0 1BFC38B4#111001010000A800
(1493282502.364147) can0 1BFC38B3#8001648432408877
(1493282502.364357) can0 1BFC38B2#80016484838300D9
(1493282502.366629) can0 3E7#A9D6BC2E3E26BD43
(1493282502.370005) can0 30B#7F00110000000098
(1493282502.416863) can0 7AA#DAC0AD47CBF7056B
(1493282502.420726) can0 1FD#0000000000000000
(1493282502.420974) can0 30B#7F00110000000098
(1493282502.443564) can0 3C0#6A7E1335
(1493282502.466942) can0 39A#DE10920711541004
(1493282502.469260) can0 30B#7F00110000000098
(1493282502.478998) can0 1FD#0000000000000000
(1493282502.517092) can0 4DD#AFF950547DC91E15
(1493282502.520717) can0 6C7#04051101020000
(1493282502.520958) can0 30B#7F00110000000098
(1493282502.521209) can0 5F2#A900
(1493282502.538600) can0 1FD#0000000000000000
(1493282502.546958) can0 3C0#6A7E1335
(1493282502.567197) can0 229#419BC41247D69E1B
(1493282502.569369) can0 30B#7F00110000000098
(1493282502.598844) can0 1FD#0000000000000000
(1493282502.613090) can0 1BFC38B1#0000000000000000
(1493282502.613478) can0 1BFC38BA#0000000700000014
(1493282502.613699) can0 1BFC38BB#FFFFFFFFFFFFFFFF
(1493282502.614089) can0 1BFC38B9#010296408005A3F4
(1493282502.614338) can0 1BFC38B8#0000000800000000
(1493282502.614712) can0 1BFC38B7#800164842502027B
(1493282502.614961) can0 1BFC38B6#00001BE300000000
(1493282502.615346) can0 1BFC38B5#0502FF1202028A12
(1493282502.615598) can0 1BFC38B4#111001010000A800
(1493282502.615965) can0 1BFC38B3#8001648432408877
(1493282502.616220) can0 1BFC38B2#80016484838300D9
(1493282502.617396) can0 693#C370D07716579D1A
(1493282502.618834) can0 30B#7F00110000000098
(1493282502.619086) can0 65E#88080B2688E10B00
(1493282502.639102) can0 62F#4451000B36
(1493282502.650335) can0 3C0#6A7E1335
(1493282502.658740) can0 1FD#0000000000000000
(1493282502.667429) can0 23E#98BD276DB9A79D25
(1493282502.669363) can0 30B#7F00110000000098
(1493282502.717718) can0 1DB#3D6E3D3BC2F52E37
(1493282502.720582) can0 6C7#04051101020000
(1493282502.720953) can0 1FD#0000000000000000
(1493282502.721195) can0 30B#7F00110000000098
(1493282502.721313) can0 5F2#A900
(1493282502.728943) can0 630#33D203D2
(1493282502.753946) can0 3C0#6A7E1335
(1493282502.767825) can0 7C9#001CEC7A7457
(1493282502.769234) can0 30B#7F00110000000098
(1493282502.778983) can0 1FD#0000000000000000
(1493282502.817954) can0 7B3#3F4F92314D5B8A52
(1493282502.820697) can0 30B#7F00110000000098
(1493282502.838699) can0 1FD#0000000000000000
(1493282502.857960) can0 3C0#6A7E1335
(1493282502.861355) can0 1BFC38B1#0000000000000000
(1493282502.861582) can0 1BFC38BA#535553500000001A
(1493282502.861954) can0 1BFC38BB#FFFFFFFFFFFFFFFF
(1493282502.862206) can0 1BFC38B9#010296408005A3F4
(1493282502.862551) can0 1BFC38B8#0000000800000000
(1493282502.862926) can0 1BFC38B7#800164842502027B
(1493282502.863188) can0 1BFC38B6#00001BE500000000
(1493282502.863421) can0 1BFC38B5#0502FF1202028A12
(1493282502.863803) can0 1BFC38B4#111001010000A800
(1493282502.864076) can0 1BFC38B3#8001648432408877
(1493282502.864426) can0 1BFC38B2#80016484838300D9
(1493282502.868066) can0 09A#5EAF9A56776D6F3B
(1493282502.869948) can0 30B#7F00110000000098
(1493282502.898823) can0 1FD#0000000000000000
(1493282502.918333) can0 5CD#F5368E50F60F1452
(1493282502.920574) can0 6C7#04051101020000
(1493282502.920945) can0 30B#7F00110000000098
(1493282502.921055) can0 5F2#A900
(1493282502.958693) can0 1FD#0000000000000000
(1493282502.961819) can0 3C0#6A7E1335
(1493282502.968467) can0 20D#3EE6B26DA1F8
(1493282502.969347) can0 30B#7F00110000000098
(1493282503.018567) can0 52F#B7
(1493282503.020845) can0 1FD#0000000000000000
(1493282503.021107) can0 30B#7F00110000000098
(1493282503.065177) can0 3C0#6A7E1335
(1493282503.068701) can0 33B#275F28491755D56D
(1493282503.069346) can0 30B#7F00110000000098
(1493282503.078968) can0 1FD#0000000000000000
(1493282503.113087) can0 1BFC38B1#0000000000000000
(1493282503.113301) can0 1BFC38BA#535553500000001A
(1493282503.113687) can0 1BFC38B9#010296408005A3F4
(1493282503.113929) can0 1BFC38B8#0000000800000000
(1493282503.114337) can0 1BFC38B7#800164842502027B
(1493282503.114559) can0 1BFC38B6#00001BE80000A800
(1493282503.114933) can0 1BFC38B5#0502FF1202028A12
(1493282503.115183) can0 1BFC38B4#111001010000A800
(1493282503.115557) can0 1BFC38B3#800164843100DDCC
(1493282503.115936) can0 1BFC38B2#80016484838300FF
(1493282503.116177) can0 1BFC38BB#FFFFFFFFFFFFFFFF
(1493282503.118959) can0 5DB#D94A0425
(1493282503.121219) can0 6C7#04051101020000
(1493282503.121448) can0 30B#7F00110000000098
(1493282503.121715) can0 5F2#A900
(1493282503.121977) can0 643#000200
(1493282503.122204) can0 64E#00A84F0000000000
(1493282503.122442) can0 65E#88085E1A84740A00
(1493282503.122813) can0 6B8#6D08000000000000
(1493282503.123093) can0 6BC#62822651324C07BF
(1493282503.138692) can0 1FD#0000000000000000
(1493282503.168641) can0 3C0#6A7E1335
(1493282503.168912) can0 24B#1955C83BFE11136A
(1493282503.169147) can0 30B#7F00110000000098
(1493282503.198932) can0 1FD#0000000000000000
(1493282503.219184) can0 3B5#4B6D9D3C4FEC4934
(1493282503.220714) can0 30B#7F00110000000098
(1493282503.220930) can0 631#34CF00
(1493282503.221176) can0 62D#3490204C00
(1493282503.228817) can0 6B6#390C1C000B36
(1493282503.229014) can0 6B7#BEB4000008FF80FE
(1493282503.258706) can0 1FD#0000000000000000
(1493282503.269124) can0 30B#7F00110000000098
(1493282503.269379) can0 476#C759B96F434A7902
(1493282503.272926) can0 3C0#6A7E1335
(1493282503.319589) can0 5B7#395A8D54C5673A1D
(1493282503.320561) can0 6C7#04051101020000
(1493282503.320922) can0 1FD#0000000000000000
(1493282503.321173) can0 30B#7F00110000000098
(1493282503.321290) can0 5F2#AA00
(1493282503.361331) can0 1BFC38B1#0000000000000000
(1493282503.361542) can0 1BFC38B9#010296408005A3F4
(1493282503.361923) can0 1BFC38BA#535553500000001A
(1493282503.362164) can0 1BFC38B8#0000000800000000
(1493282503.362545) can0 1BFC38B7#800164842502027B
(1493282503.362812) can0 1BFC38B6#00001BEA000034A8
(1493282503.363171) can0 1BFC38B5#0502FF1202028A12
(1493282503.363423) can0 1BFC38B4#111001010000A800
(1493282503.363781) can0 1BFC38B3#800164843100DDCC
(1493282503.364016) can0 1BFC38B2#80016484838300FF
(1493282503.364400) can0 1BFC38BB#FFFFFFFFFFFFFFFF
(1493282503.369664) can0 2F2#66606F3C221889
(1493282503.369889) can0 30B#7F00110000000098
(1493282503.376300) can0 3C0#6A7E1335
(1493282503.379554) can0 1FD#0000000000000000
(1493282503.419950) can0 778#90CF131AB4F24F15
(1493282503.420445) can0 30B#7F00110000000098
(1493282503.438701) can0 1FD#0000000000000000
(1493282503.469306) can0 30B#7F00110000000098
(1493282503.470058) can0 56D#CB47250348FB93
(1493282503.480147) can0 3C0#6A7E1335
(1493282503.498917) can0 1FD#0000000000000000
(1493282503.520175) can0 41B#EDF8CF06
(1493282503.520660) can0 6C7#04051101020000
(1493282503.520893) can0 30B#7F00110000000098
(1493282503.521175) can0 5F2#AA00
(1493282503.558675) can0 1FD#0000000000000000
(1493282503.569287) can0 30B#7F00110000000098
(1493282503.570288) can0 17E#64201540333D
(1493282503.585502) can0 3C0#6A7E1335
(1493282503.612535) can0 1BFC38B1#0000000000000000
(1493282503.612907) can0 1BFC38BA#535553500000001A
(1493282503.613280) can0 1BFC38BB#FFFFFFFFFFFFFFFF
(1493282503.613543) can0 1BFC38B9#020096408008FC68
(1493282503.613907) can0 1BFC38B8#0000000800000000
(1493282503.614185) can0 1BFC38B7#80016484250202B7
(1493282503.614525) can0 1BFC38B6#00001BED00000000
(1493282503.614775) can0 1BFC38B5#0502FF1202028A12
(1493282503.615138) can0 1BFC38B4#111001010000A800
(1493282503.615396) can0 1BFC38B3#800164843100DDCC
(1493282503.615760) can0 1BFC38B2#80016484838300FF
(1493282503.620465) can0 25F#8329EE5ED5F67156
(1493282503.621158) can0 1FD#0000000000000000
(1493282503.621530) can0 30B#7F00110000000098
(1493282503.621806) can0 65E#8808CFC9A1060A00
(1493282503.639038) can0 62F#4451000B37
(1493282503.669199) can0 30B#7F00110000000098
(1493282503.670521) can0 259#1841EB5810700E4E
(1493282503.678904) can0 1FD#0000000000000000
(1493282503.689267) can0 3C0#6A7E1335
(1493282503.720546) can0 6C7#04051101020000
(1493282503.720778) can0 406#D5
(1493282503.720781) can0 30B#7F00110000000098
(1493282503.721230) can0 5F2#AA00
(1493282503.738661) can0 1FD#0000000000000000
(1493282503.769276) can0 30B#7F00110000000098
(1493282503.770885) can0 3C9#1A8F122941737C17
(1493282503.792780) can0 3C0#6A7E1335
(1493282503.798929) can0 1FD#0000000000000000
(1493282503.820644) can0 30B#7F00110000000098
(1493282503.821032) can0 059#F565CC2CC6A5353B
(1493282503.858669) can0 1FD#0000000000000000
(1493282503.861271) can0 1BFC38B1#0000000000000000
(1493282503.861513) can0 1BFC38B9#020096408008FC68
(1493282503.861895) can0 1BFC38BA#0000000700000014
(1493282503.862269) can0 1BFC38B8#0000000800000000
(1493282503.862517) can0 1BFC38B7#80016484250202B7
(1493282503.862891) can0 1BFC38B6#00001BEF00000000
(1493282503.863185) can0 1BFC38B5#0502FF1202028A12
(1493282503.863535) can0 1BFC38B4#111001010000A800
(1493282503.863786) can0 1BFC38B3#800164843100DDCC
(1493282503.864138) can0 1BFC38B2#80016484838300FF
(1493282503.864410) can0 1BFC38BB#FFFFFFFFFFFFFFFF
(1493282503.870001) can0 30B#7F00110000000098
(1493282503.871111) can0 561#
(1493282503.896391) can0 3C0#6A7E1335
(1493282503.920050) can0 6C7#04051101020000
(1493282503.920417) can0 1FD#0000000000000000
(1493282503.920641) can0 30B#7F00110000000098
(1493282503.920900) can0 5F2#AB00
(1493282503.921287) can0 065#E3970664E3393520
(1493282503.969394) can0 30B#7F00110000000098
(1493282503.971390) can0 002#1777D94A61DA2446
(1493282503.978882) can0 1FD#0000000000000000
(1493282503.999861) can0 3C0#6A7E1335
(1493282504.020278) can0 30B#7F00110000000098
(1493282504.021535) can0 5F7#36D1961C50F0B830
(1493282504.038633) can0 1FD#0000000000000000
(1493282504.069398) can0 30B#7F00110000000098
(1493282504.071796) can0 3E4#6160C77EEA375E07
(1493282504.098878) can0 1FD#0000000000000000
(1493282504.103476) can0 3C0#6A7E1335
(1493282504.112288) can0 1BFC38B1#0000000000000000
(1493282504.112659) can0 1BFC38BB#FFFFFFFFFFFFFFFF
(1493282504.112876) can0 1BFC38BA#0000000700000014
(1493282504.113257) can0 1BFC38B9#020096408008FC68
(1493282504.113503) can0 1BFC38B8#0000000800000000
(1493282504.113859) can0 1BFC38B7#80016484250202B7
(1493282504.114114) can0 1BFC38B6#00001BF20000A800
(1493282504.114483) can0 1BFC38B5#0502FF1202028A12
(1493282504.114858) can0 1BFC38B4#111001010000A800
(1493282504.115121) can0 1BFC38B3#800164843100FFEE
(1493282504.115361) can0 1BFC38B2#8001648483838073
(1493282504.118664) can0 6C7#04051101020000
(1493282504.118889) can0 30B#7F00110000000098
(1493282504.119107) can0 5F2#AB00
(1493282504.119221) can0 643#000200
(1493282504.119504) can0 64E#00A84F0000000000
(1493282504.119858) can0 65E#8808AEA9BDD60800
(1493282504.120099) can0 6B8#6D08000000000000
(1493282504.120371) can0 6BC#62822651324C07C0
(1493282504.121901) can0 5A0#E2AEE7396989
(1493282504.158632) can0 1FD#0000000000000000
(1493282504.169380) can0 30B#7F00110000000098
(1493282504.172021) can0 072#AAFC2F2ACB58C22F
(1493282504.206869) can0 3C0#6A7E1335
(1493282504.219910) can0 1FD#0000000000000000
(1493282504.220093) can0 30B#7F00110000000098
(1493282504.222202) can0 4A7#
(1493282504.228883) can0 6B6#390C1C000B37
(1493282504.229115) can0 6B7#BEB4000008FF80FE
(1493282504.269375) can0 30B#7F00110000000098
(1493282504.272285) can0 060#86B3875AC550095F
(1493282504.278873) can0 1FD#0000000000000000
(1493282504.310367) can0 3C0#6A7E1335
(1493282504.319649) can0 6C7#04051101020000
(1493282504.319878) can0 30B#7F00110000000098
(1493282504.319973) can0 5F2#AB00
(1493282504.322336) can0 19B#A98A3E7F9E218D21
(1493282504.338613) can0 1FD#0000000000000000
(1493282504.360990) can0 1BFC38B1#0000000000000000
(1493282504.361404) can0 1BFC38BB#FFFFFFFFFFFFFFFF
(1493282504.361606) can0 1BFC38BA#0000000700000014
(1493282504.362029) can0 1BFC38B9#020096408008FC68
(1493282504.362241) can0 1BFC38B8#0000000800000000
(1493282504.362616) can0 1BFC38B7#80016484250202B7
(1493282504.362865) can0 1BFC38B6#00001BF402028A12
(1493282504.363237) can0 1BFC38B5#0502FF1202028A12
(1493282504.363485) can0 1BFC38B4#111001010000A800
(1493282504.363892) can0 1BFC38B3#800164843100FFEE
(1493282504.364114) can0 1BFC38B2#8001648483838073
(1493282504.370117) can0 30B#7F00110000000098
(1493282504.372493) can0 3B1#
(1493282504.398647) can0 1FD#0000000000000000
(1493282504.413474) can0 3C0#6A7E1335
(1493282504.419769) can0 30B#7F00110000000098
(1493282504.422610) can0 25A#F93931343EC6
(1493282504.458596) can0 1FD#0000000000000000
(1493282504.469367) can0 30B#7F00110000000098
(1493282504.472860) can0 784#28FEAC73248DC51C
(1493282504.517362) can0 3C0#6A7E1335
(1493282504.519716) can0 6C7#04051101020000
(1493282504.520025) can0 1FD#0000000000000000
(1493282504.520232) can0 30B#7F00110000000098
(1493282504.520506) can0 5F2#AB00
(1493282504.522868) can0 291#8D16792F0343D12E
(1493282504.569362) can0 30B#7F00110000000098
(1493282504.572985) can0 307#CE9B935EAF87AF36
(1493282504.578857) can0 1FD#0000000000000000
(1493282504.612104) can0 1BFC38B1#0000000000000000
(1493282504.612515) can0 1BFC38BB#FFFFFFFFFFFFFFFF
(1493282504.612863) can0 1BFC38BA#0000000700000014
(1493282504.613090) can0 1BFC38B9#030296408005A3F4
(1493282504.613351) can0 1BFC38B8#0000000800000000
(1493282504.613724) can0 1BFC38B7#80016484250202F3
(1493282504.613971) can0 1BFC38B6#00001BF700000000
(1493282504.614349) can0 1BFC38B5#0502FF1202028A12
(1493282504.614600) can0 1BFC38B4#111001010000A800
(1493282504.614974) can0 1BFC38B3#800164843100FFEE
(1493282504.615231) can0 1BFC38B2#8001648483838073
(1493282504.620225) can0 30B#7F00110000000098
(1493282504.620468) can0 65E#8808FF27794B0800
(1493282504.621071) can0 3C0#6A7E1335
(1493282504.623099) can0 5D8#B8B1320338869337
(1493282504.629977) can0 62F#4451000B38
(1493282504.638759) can0 1FD#0000000000000000
(1493282504.669377) can0 30B#7F00110000000098
(1493282504.673378) can0 1FE#FED69C169A73A80C
(1493282504.698646) can0 1FD#0000000000000000
(1493282504.719723) can0 6C7#04051101020000
(1493282504.719959) can0 30B#7F00110000000098
(1493282504.720072) can0 5F2#AB00
(1493282504.723294) can0 0A7#3895352E59B4F2
(1493282504.724328) can0 3C0#6A7E1335
(1493282504.729845) can0 630#33DCFF0F01
(1493282504.758753) can0 1FD#0000000000000000
(1493282504.769346) can0 30B#7F00110000000098
(1493282504.773491) can0 367#02FE6A02C105D3
(1493282504.819717) can0 1FD#0000000000000000
(1493282504.819937) can0 30B#7F00110000000098
(1493282504.823730) can0 66D#FFCB2140F23DFB13
(1493282504.827823) can0 3C0#6A7E1335
(1493282504.860964) can0 1BFC38B1#0000000000000000
(1493282504.861339) can0 1BFC38BB#FFFFFFFFFFFFFFFF
(1493282504.861615) can0 1BFC38BA#535553500000001A
(1493282504.861979) can0 1BFC38B9#030296408005A3F4
(1493282504.862198) can0 1BFC38B8#0000000800000000
(1493282504.862568) can0 1BFC38B7#80016484250202F3
(1493282504.862805) can0 1BFC38B6#00001BF900000000
(1493282504.863220) can0 1BFC38B5#0502FF1202028A12
(1493282504.863446) can0 1BFC38B4#111001010000A800
(1493282504.863819) can0 1BFC38B3#800164843100FFEE
(1493282504.864101) can0 1BFC38B2#8001648483838073
(1493282504.870089) can0 30B#7F00110000000098
(1493282504.873861) can0 256#16CBC030E7A49D
(1493282504.878833) can0 1FD#0000000000000000
(1493282504.919747) can0 6C7#04051101020000
(1493282504.919957) can0 30B#7F00110000000098
(1493282504.920089) can0 5F2#AB00
(1493282504.923926) can0 731#EAE76E35
(1493282504.931541) can0 3C0#6A7E1335
(1493282504.938727) can0 1FD#0000000000000000
(1493282504.969364) can0 30B#7F00110000000098
(1493282504.974114) can0 4DC#E8E9A128B46A886A
(1493282504.998721) can0 1FD#0000000000000000
(1493282505.019732) can0 30B#7F00110000000098
(1493282505.024203) can0 617#
(1493282505.034788) can0 3C0#6A7E1335
(1493282505.058704) can0 1FD#0000000000000000
(1493282505.069452) can0 30B#7F00110000000098
(1493282505.074437) can0 0DE#AFCB836B85B1D725
(1493282505.112108) can0 1BFC38B1#0000000000000000
(1493282505.112449) can0 1BFC38BB#FFFFFFFFFFFFFFFF
(1493282505.112851) can0 1BFC38BA#535553500000001A
(1493282505.113071) can0 1BFC38B9#030296408005A3F4
(1493282505.113449) can0 1BFC38B8#0000000800000000
(1493282505.113700) can0 1BFC38B7#80016484250202F3
(1493282505.114074) can0 1BFC38B6#00001BFC0000A800
(1493282505.114325) can0 1BFC38B5#0502FF1202028A12
(1493282505.114696) can0 1BFC38B4#111001010000A800
(1493282505.114966) can0 1BFC38B3#8001648432404433
(1493282505.115323) can0 1BFC38B2#80016484838300EB
(1493282505.120213) can0 6C7#04051101020000
(1493282505.120408) can0 1FD#0000000000000000
(1493282505.120835) can0 30B#7F00110000000098
(1493282505.120944) can0 5F2#AB00
(1493282505.121033) can0 643#000200
(1493282505.121429) can0 64E#00A84F0000000000
(1493282505.121693) can0 65E#88083AA5886D0A00
(1493282505.121928) can0 6B8#6D08000000000000
(1493282505.122183) can0 6BC#62822651324C07C1
(1493282505.124567) can0 191#DE65CA24F88C87
(1493282505.138534) can0 3C0#6A7E1335
(1493282505.170076) can0 30B#7F00110000000098
(1493282505.174788) can0 21F#
(1493282505.178851) can0 1FD#0000000000000000
(1493282505.220612) can0 30B#7F00110000000098
(1493282505.221089) can0 631#34D000
(1493282505.221303) can0 62D#3491022601
(1493282505.224958) can0 3DC#7E8ECC5D326E6647
(1493282505.228695) can0 6B6#390C1C000B38
(1493282505.228945) can0 6B7#BEB4000008FF80FE
(1493282505.238696) can0 1FD#0000000000000000
(1493282505.242192) can0 3C0#6A7E1335
(1493282505.269201) can0 30B#7F00110000000098
(1493282505.275056) can0 0DF#1913044E11
(1493282505.298829) can0 1FD#0000000000000000
(1493282505.320591) can0 6C7#04051101020000
(1493282505.320797) can0 30B#7F00110000000098
(1493282505.321061) can0 5F2#AB00
(1493282505.325267) can0 339#4A02A1
(1493282505.346180) can0 3C0#6A7E1335
(1493282505.358688) can0 1FD#0000000000000000
(1493282505.361220) can0 1BFC38B1#0000000000000000
(1493282505.361592) can0 1BFC38BA#535553500000001A
(1493282505.361981) can0 1BFC38BB#FFFFFFFFFFFFFFFF
(1493282505.362158) can0 1BFC38B9#030296408005A3F4
(1493282505.362541) can0 1BFC38B8#0000000800000000
(1493282505.362806) can0 1BFC38B7#80016484250202F3
(1493282505.363165) can0 1BFC38B6#00001BFE000034A8
(1493282505.363428) can0 1BFC38B5#0502FF1202028A12
(1493282505.363790) can0 1BFC38B4#111001010000A800
(1493282505.364022) can0 1BFC38B3#8001648432404433
(1493282505.364398) can0 1BFC38B2#80016484838300EB
(1493282505.369951) can0 30B#7F00110000000098
(1493282505.375335) can0 6BB#C99A
(1493282505.420447) can0 1FD#0000000000000000
(1493282505.420817) can0 30B#7F00110000000098
(1493282505.425416) can0 7D2#E7F4DE53B0
(1493282505.450049) can0 3C0#6A7E1335
(1493282505.469306) can0 30B#7F00110000000098
(1493282505.475557) can0 3A0#353A7E4D317D9B
(1493282505.479087) can0 1FD#0000000000000000
(1493282505.520674) can0 6C7#04051101020000
(1493282505.520930) can0 30B#7F00110000000098
(1493282505.521191) can0 5F2#AC00
(1493282505.525672) can0 17E#2A0A236B
(1493282505.538678) can0 1FD#0000000000000000
(1493282505.553917) can0 3C0#6A7E1335
(1493282505.569301) can0 30B#7F00110000000098
(1493282505.575972) can0 3F4#2A648E
(1493282505.598802) can0 1FD#0000000000000000
(1493282505.612549) can0 1BFC38B1#0000000000000000
(1493282505.612791) can0 1BFC38BA#535553500000001A
(1493282505.613175) can0 1BFC38BB#FFFFFFFFFFFFFFFF
(1493282505.613564) can0 1BFC38B9#040096408008FC68
(1493282505.613795) can0 1BFC38B8#0000000800000000
(1493282505.614172) can0 1BFC38B7#800164842502022F
(1493282505.614422) can0 1BFC38B6#00001C0100000000
(1493282505.614797) can0 1BFC38B5#0502FF1202028A12
(1493282505.615053) can0 1BFC38B4#111001010000A800
(1493282505.615420) can0 1BFC38B3#8001648432404433
(1493282505.615806) can0 1BFC38B2#80016484838300EB
(1493282505.621190) can0 30B#7F00110000000098
(1493282505.621392) can0 65E#8808E906746D0800
(1493282505.626214) can0 39C#020EB63E7B244526
(1493282505.639060) can0 62F#4451000B39
(1493282505.657533) can0 3C0#6A7E1335
(1493282505.658631) can0 1FD#0000000000000000
(1493282505.669296) can0 30B#7F00110000000098
(1493282505.676184) can0 43D#8CC4F37D7687AF2D
(1493282505.720541) can0 6C7#04051101020000
(1493282505.720773) can0 1FD#0000000000000000
(1493282505.721193) can0 30B#7F00110000000098
(1493282505.721297) can0 5F2#AC00
(1493282505.726292) can0 41E#8BB75956D99A
(1493282505.760908) can0 3C0#6A7E1335
(1493282505.769290) can0 30B#7F00110000000098
(1493282505.776426) can0 308#AB37A61C
(1493282505.779067) can0 1FD#0000000000000000
(1493282505.820665) can0 30B#7F00110000000098
(1493282505.826701) can0 60A#8AC395
(1493282505.838665) can0 1FD#0000000000000000
(1493282505.861287) can0 1BFC38B1#0000000000000000
(1493282505.861523) can0 1BFC38BA#0000000700000014
(1493282505.861921) can0 1BFC38BB#FFFFFFFFFFFFFFFF
(1493282505.862118) can0 1BFC38B9#040096408008FC68
(1493282505.862531) can0 1BFC38B8#0000000800000000
(1493282505.862779) can0 1BFC38B7#800164842502022F
(1493282505.863121) can0 1BFC38B6#00001C0300000000
(1493282505.863373) can0 1BFC38B5#0502FF1202028A12
(1493282505.863748) can0 1BFC38B4#111001010000A800
(1493282505.864029) can0 1BFC38B3#8001648432404433
(1493282505.864394) can0 3C0#6A7E1335
(1493282505.864397) can0 1BFC38B2#80016484838300EB
(1493282505.869824) can0 30B#7F00110000000098
(1493282505.876783) can0 52A#
(1493282505.898813) can0 1FD#0000000000000000
(1493282505.920164) can0 6C7#04051101020000
(1493282505.920394) can0 30B#7F00110000000098
(1493282505.920641) can0 5F2#AD00
(1493282505.926923) can0 5D4#4622C111C8
(1493282505.958694) can0 1FD#0000000000000000
(1493282505.967807) can0 3C0#6A7E1335
(1493282505.969393) can0 30B#7F00110000000098
(1493282505.976899) can0 5E9#
(1493282506.020026) can0 1FD#0000000000000000
(1493282506.020417) can0 30B#7F00110000000098
(1493282506.027189) can0 118#00765D7856C59253
(1493282506.069435) can0 30B#7F00110000000098
(1493282506.071733) can0 3C0#6A7E1335
(1493282506.077141) can0 0B7#CC4C4201D58CC72B
(1493282506.078857) can0 1FD#0000000000000000
(1493282506.112145) can0 1BFC38B1#0000000000000000
(1493282506.112388) can0 1BFC38BB#FFFFFFFFFFFFFFFF
(1493282506.112773) can0 1BFC38BA#0000000700000014
(1493282506.113171) can0 1BFC38B9#040096408008FC68
(1493282506.113394) can0 1BFC38B8#0000000800000000
(1493282506.113767) can0 1BFC38B7#800164842502022F
(1493282506.114022) can0 1BFC38B6#00001C060000A800
(1493282506.114405) can0 1BFC38B5#0502FF1202028A12
(1493282506.114780) can0 1BFC38B4#111001010000A800
(1493282506.115003) can0 1BFC38B3#8001648431009988
(1493282506.115262) can0 1BFC38B2#80016484838300F1
(1493282506.120406) can0 6C7#04051101020000
(1493282506.120802) can0 30B#7F00110000000098
(1493282506.120926) can0 5F2#AD00
(1493282506.121005) can0 643#000200
(1493282506.121394) can0 64E#00A84F0000000000
(1493282506.121645) can0 65E#88087848A7CB0C00
(1493282506.121883) can0 6B8#6D08000000000000
(1493282506.122143) can0 6BC#62822651324C07C2
(1493282506.127407) can0 163#AF276A536CB4BD77
(1493282506.138641) can0 1FD#0000000000000000
(1493282506.169397) can0 30B#7F00110000000098
(1493282506.175610) can0 3C0#6A7E1335
(1493282506.177518) can0 6AC#46EFAC4FB6340360
(1493282506.198637) can0 1FD#0000000000000000
(1493282506.219683) can0 30B#7F00110000000098
(1493282506.227658) can0 3ED#60
(1493282506.229259) can0 6B6#390C1C000B39
(1493282506.229514) can0 6B7#BEB4000008FF80FE
(1493282506.258763) can0 1FD#0000000000000000
(1493282506.269424) can0 30B#7F00110000000098
(1493282506.277713) can0 091#C0878119654EB35B
(1493282506.279407) can0 3C0#6A7E1335
(1493282506.319638) can0 6C7#04051101020000
(1493282506.319884) can0 1FD#0000000000000000
(1493282506.320116) can0 30B#7F00110000000098
(1493282506.320397) can0 5F2#AD00
(1493282506.327924) can0 641#2DF08D342A24
(1493282506.361008) can0 1BFC38B1#0000000000000000
(1493282506.361239) can0 1BFC38BB#FFFFFFFFFFFFFFFF
(1493282506.361628) can0 1BFC38BA#0000000700000014
(1493282506.361871) can0 1BFC38B9#040096408008FC68
(1493282506.362267) can0 1BFC38B8#0000000800000000
(1493282506.362652) can0 1BFC38B7#800164842502022F
(1493282506.362886) can0 1BFC38B6#00001C0802028A12
(1493282506.363167) can0 1BFC38B5#0502FF1202028A12
(1493282506.363537) can0 1BFC38B4#111001010000A800
(1493282506.363908) can0 1BFC38B3#8001648431009988
(1493282506.364171) can0 1BFC38B2#80016484838300F1
(1493282506.370144) can0 30B#7F00110000000098
(1493282506.378004) can0 076#AF753A5F8EA9
(1493282506.378877) can0 1FD#0000000000000000
(1493282506.382866) can0 3C0#6A7E1335
(1493282506.419753) can0 30B#7F00110000000098
(1493282506.428266) can0 162#
(1493282506.438751) can0 1FD#0000000000000000
(1493282506.469372) can0 30B#7F00110000000098
(1493282506.478414) can0 63D#EE
(1493282506.486233) can0 3C0#6A7E1335
(1493282506.498780) can0 1FD#0000000000000000
(1493282506.519749) can0 6C7#04051101020000
(1493282506.519961) can0 30B#7F00110000000098
(1493282506.520248) can0 5F2#AE00
(1493282506.528515) can0 009#0CDC8C03B516D611
(1493282506.558745) can0 1FD#0000000000000000
(1493282506.570127) can0 30B#7F00110000000098
(1493282506.578485) can0 5F8#6C4BD9
(1493282506.589587) can0 3C0#6A7E1335
(1493282506.613121) can0 1BFC38B1#0000000000000000
(1493282506.613494) can0 1BFC38BA#0000000700000014
(1493282506.613726) can0 1BFC38B9#050296408005A3F4
(1493282506.614116) can0 1BFC38B8#0000000800000000
(1493282506.614365) can0 1BFC38B7#800164842502026B
(1493282506.614755) can0 1BFC38B6#00001C0B00000000
(1493282506.614955) can0 1BFC38B5#0502FF1202028A12
(1493282506.615382) can0 1BFC38B4#111001010000A800
(1493282506.615751) can0 1BFC38B3#8001648431009988
(1493282506.616016) can0 1BFC38B2#80016484838300F1
(1493282506.616426) can0 1BFC38BB#FFFFFFFFFFFFFFFF
(1493282506.621252) can0 1FD#0000000000000000
(1493282506.621509) can0 30B#7F00110000000098
(1493282506.621723) can0 65E#8808B9E9A5EC0C00
(1493282506.628756) can0 624#FD0A880FB52ED33E
(1493282506.639129) can0 62F#4451000B3A
(1493282506.669132) can0 30B#7F00110000000098
(1493282506.678869) can0 708#1A7D861A4A952500
(1493282506.678871) can0 1FD#0000000000000000
(1493282506.692726) can0 3C0#6A7E1335
(1493282506.720613) can0 6C7#04051101020000
(1493282506.720864) can0 30B#7F00110000000098
(1493282506.720979) can0 5F2#AE00
(1493282506.729012) can0 4C3#74B9470D396DDE
(1493282506.729014) can0 630#33E601000100
(1493282506.738769) can0 1FD#0000000000000000
(1493282506.769276) can0 30B#7F00110000000098
(1493282506.779136) can0 70E#C7161B08
(1493282506.796458) can0 3C0#6A7E1335
(1493282506.798870) can0 1FD#0000000000000000
(1493282506.820729) can0 30B#7F00110000000098
(1493282506.829308) can0 2D4#8912981611410312
(1493282506.858731) can0 1FD#0000000000000000
(1493282506.861233) can0 1BFC38B1#0000000000000000
(1493282506.861600) can0 1BFC38BA#535553500000001A
(1493282506.861841) can0 1BFC38BB#FFFFFFFFFFFFFFFF
(1493282506.862227) can0 1BFC38B9#050296408005A3F4
(1493282506.862605) can0 1BFC38B8#0000000800000000
(1493282506.862855) can0 1BFC38B7#800164842502026B
(1493282506.863231) can0 1BFC38B6#00001C0D00000000
(1493282506.863479) can0 1BFC38B5#0502FF1202028A12
(1493282506.863853) can0 1BFC38B4#111001010000A800
(1493282506.864105) can0 1BFC38B3#8001648431009988
(1493282506.864479) can0 1BFC38B2#80016484838300F1
(1493282506.869837) can0 30B#7F00110000000098
(1493282506.879355) can0 15D#B168D21D6601AA
(1493282506.900472) can0 3C0#6A7E1335
(1493282506.920725) can0 6C7#04051101020000
(1493282506.921002) can0 1FD#0000000000000000
(1493282506.921223) can0 30B#7F00110000000098
(1493282506.921471) can0 5F2#AE00
(1493282506.929466) can0 015#1B18805B0D3E6C3E
(1493282506.969341) can0 30B#7F00110000000098
(1493282506.978971) can0 1FD#0000000000000000
(1493282506.979599) can0 011#F2CF763D358E15
(1493282507.003937) can0 3C0#6A7E1335
(1493282507.020747) can0 30B#7F00110000000098
(1493282507.029745) can0 554#EABCE8555CDC3941
(1493282507.038717) can0 1FD#0000000000000000
(1493282507.069219) can0 30B#7F00110000000098
(1493282507.079856) can0 5AC#A6715F41
(1493282507.098868) can0 1FD#0000000000000000
(1493282507.107209) can0 3C0#6A7E1335
(1493282507.113239) can0 1BFC38B1#0000000000000000
(1493282507.113463) can0 1BFC38BA#535553500000001A
(1493282507.113854) can0 1BFC38BB#FFFFFFFFFFFFFFFF
(1493282507.114054) can0 1BFC38B9#050296408005A3F4
(1493282507.114400) can0 1BFC38B8#0000000800000000
(1493282507.114734) can0 1BFC38B7#800164842502026B
(1493282507.115102) can0 1BFC38B6#00001C100000A800
(1493282507.115365) can0 1BFC38B5#0502FF1202028A12
(1493282507.115720) can0 1BFC38B4#111001010000A800
(1493282507.115961) can0 1BFC38B3#800164843100BBAA
(1493282507.116350) can0 1BFC38B2#8001648483838075
(1493282507.118727) can0 6C7#04051101020000
(1493282507.118950) can0 30B#7F00110000000098
(1493282507.119067) can0 5F2#AF00
(1493282507.119332) can0 643#000200
(1493282507.119695) can0 64E#00A84F0000000000
(1493282507.119825) can0 65E#8808E2A8722B0800
(1493282507.120239) can0 6B8#6D08000000000000
(1493282507.120459) can0 6BC#62822651324C07C3
(1493282507.129986) can0 74B#A817332E59465013
(1493282507.158710) can0 1FD#0000000000000000
(1493282507.169342) can0 30B#7F00110000000098
(1493282507.180227) can0 23F#
(1493282507.210715) can0 3C0#6A7E1335
(1493282507.220210) can0 1FD#0000000000000000
(1493282507.220462) can0 30B#7F00110000000098
(1493282507.221208) can0 631#34D100
(1493282507.221499) can0 62D#349220C900
(1493282507.228708) can0 6B6#390C1C000B3A
(1493282507.228960) can0 6B7#BEB4000008FF80FE
(1493282507.230355) can0 41C#24B6
(1493282507.269331) can0 30B#7F00110000000098
(1493282507.278956) can0 1FD#0000000000000000
(1493282507.280607) can0 2CA#DFF6DE78DF
(1493282507.314193) can0 3C0#6A7E1335
(1493282507.320232) can0 6C7#04051101020000
(1493282507.320453) can0 30B#7F00110000000098
(1493282507.320546) can0 5F2#AF00
(1493282507.330706) can0 393#EC804361A4731145
(1493282507.338714) can0 1FD#0000000000000000
(1493282507.361078) can0 1BFC38B1#0000000000000000
(1493282507.361327) can0 1BFC38BA#535553500000001A
(1493282507.361704) can0 1BFC38BB#FFFFFFFFFFFFFFFF
(1493282507.362109) can0 1BFC38B9#050296408005A3F4
(1493282507.362317) can0 1BFC38B8#0000000800000000
(1493282507.362714) can0 1BFC38B7#800164842502026B
(1493282507.362952) can0 1BFC38B6#00001C12000034A8
(1493282507.363331) can0 1BFC38B5#0502FF1202028A12
(1493282507.363714) can0 1BFC38B4#111001010000A800
(1493282507.363955) can0 1BFC38B3#800164843100BBAA
(1493282507.364183) can0 1BFC38B2#8001648483838075
(1493282507.370057) can0 30B#7F00110000000098
(1493282507.380880) can0 282#D901275CD687D04D
(1493282507.398839) can0 1FD#0000000000000000
(1493282507.417698) can0 3C0#6A7E1335
(1493282507.419845) can0 30B#7F00110000000098
(1493282507.430973) can0 3CE#32640A
(1493282507.458696) can0 1FD#0000000000000000
(1493282507.469446) can0 30B#7F00110000000098
(1493282507.481086) can0 0C7#EA43162C13A00262
(1493282507.519657) can0 6C7#04051101020000
(1493282507.519915) can0 1FD#0000000000000000
(1493282507.520165) can0 30B#7F00110000000098
(1493282507.520283) can0 5F2#AF00
(1493282507.521055) can0 3C0#6A7E1335
(1493282507.531191) can0 0F4#6CE6
(1493282507.569444) can0 30B#7F00110000000098
(1493282507.578946) can0 1FD#0000000000000000
(1493282507.581325) can0 202#46D07D591E3E
(1493282507.612063) can0 1BFC38B1#0000000000000000
(1493282507.612434) can0 1BFC38BB#FFFFFFFFFFFFFFFF
(1493282507.612670) can0 1BFC38BA#535553500000001A
(1493282507.613058) can0 1BFC38B9#060096408008FC68
(1493282507.613465) can0 1BFC38B8#0000000800000000
(1493282507.613690) can0 1BFC38B7#80016484250202A7
(1493282507.614063) can0 1BFC38B6#00001C1500000000
(1493282507.614304) can0 1BFC38B5#0502FF1202028A12
(1493282507.614714) can0 1BFC38B4#111001010000A800
(1493282507.614939) can0 1BFC38B3#800164843100BBAA
(1493282507.615312) can0 1BFC38B2#8001648483838075
(1493282507.620222) can0 30B#7F00110000000098
(1493282507.620561) can0 65E#8808891B8FCF0900
(1493282507.624684) can0 3C0#6A7E1335
(1493282507.630092) can0 62F#4451000B3B
(1493282507.634789) can0 688#9733057652D13504
(1493282507.638715) can0 1FD#0000000000000000
(1493282507.669439) can0 30B#7F00110000000098
(1493282507.681686) can0 53F#31140D27D308
(1493282507.698687) can0 1FD#0000000000000000
(1493282507.719686) can0 6C7#04051101020000
(1493282507.719799) can0 30B#7F00110000000098
(1493282507.720049) can0 5F2#AF00
(1493282507.728560) can0 3C0#6A7E1335
(1493282507.731690) can0 171#777C672FF3ABFB64
(1493282507.758678) can0 1FD#0000000000000000
(1493282507.769429) can0 30B#7F00110000000098
(1493282507.781806) can0 5FC#C9
(1493282507.819681) can0 1FD#0000000000000000
(1493282507.819896) can0 30B#7F00110000000098
(1493282507.831893) can0 514#44AB8574DC351D60
(1493282507.831895) can0 3C0#6A7E1335
(1493282507.860928) can0 1BFC38B1#0000000000000000
(1493282507.861297) can0 1BFC38BB#FFFFFFFFFFFFFFFF
(1493282507.861674) can0 1BFC38BA#0000000700000014
(1493282507.861966) can0 1BFC38B9#060096408008FC68
(1493282507.862298) can0 1BFC38B8#0000000800000000
(1493282507.862551) can0 1BFC38B7#80016484250202A7
(1493282507.862937) can0 1BFC38B6#00001C1700000000
(1493282507.863176) can0 1BFC38B5#0502FF1202028A12
(1493282507.863557) can0 1BFC38B4#111001010000A800
(1493282507.863824) can0 1BFC38B3#800164843100BBAA
(1493282507.864251) can0 1BFC38B2#8001648483838075
(1493282507.870063) can0 30B#7F00110000000098
(1493282507.878810) can0 1FD#0000000000000000
(1493282507.882047) can0 5D4#EFD51F42C86E5131
(1493282507.919671) can0 6C7#04051101020000
(1493282507.919887) can0 30B#7F00110000000098
(1493282507.920173) can0 5F2#AF00
(1493282507.932335) can0 2C1#FBC98B0BC3D47C0B
(1493282507.935155) can0 3C0#6A7E1335
(1493282507.938682) can0 1FD#0000000000000000
(1493282507.969417) can0 30B#7F00110000000098
(1493282507.982432) can0 191#E2
(1493282507.998696) can0 1FD#0000000000000000
(1493282508.019819) can0 30B#7F00110000000098
(1493282508.032666) can0 0AB#6CA1062DEBC5AB69
(1493282508.038648) can0 3C0#6A7E1335
(1493282508.058663) can0 1FD#0000000000000000
(1493282508.069440) can0 30B#7F00110000000098
(1493282508.082804) can0 0F0#BECE015461AA797A
(1493282508.112165) can0 1BFC38B1#0000000000000000
(1493282508.112392) can0 1BFC38BB#FFFFFFFFFFFFFFFF
(1493282508.112812) can0 1BFC38BA#0000000700000014
(1493282508.113063) can0 1BFC38B9#060096408008FC68
(1493282508.113411) can0 1BFC38B8#0000000800000000
(1493282508.113661) can0 1BFC38B7#80016484250202A7
(1493282508.114036) can0 1BFC38B6#00001C1A0000A800
(1493282508.114411) can0 1BFC38B5#0502FF1202028A12
(1493282508.114661) can0 1BFC38B4#111001010000A800
(1493282508.115068) can0 1BFC38B3#80016484324000FF
(1493282508.115283) can0 1BFC38B2#80016484838300FD
(1493282508.120165) can0 6C7#04051101020000
(1493282508.120535) can0 1FD#0000000000000000
(1493282508.120786) can0 30B#7F00110000000098
(1493282508.120872) can0 5F2#B000
(1493282508.121168) can0 643#000200
(1493282508.121413) can0 64E#00A84F0000000000
(1493282508.121628) can0 65E#88085025790A0700
(1493282508.121899) can0 6B8#6D08000000000000
(1493282508.122265) can0 6BC#62822651324C07C4
(1493282508.132902) can0 2BB#5456755FB7
(1493282508.142279) can0 3C0#6A7E1335
(1493282508.170170) can0 30B#7F00110000000098
(1493282508.178921) can0 1FD#0000000000000000
(1493282508.183057) can0 186#814233169B06964C
(1493282508.220699) can0 30B#7F00110000000098
(1493282508.228659) can0 6B6#390C1C000B3B
(1493282508.228855) can0 6B7#BEB4000008FF80FE
(1493282508.233146) can0 218#773CB32CED8F
(1493282508.238683) can0 1FD#0000000000000000
(1493282508.246245) can0 3C0#6A7E1335
(1493282508.269280) can0 30B#7F00110000000098
(1493282508.283292) can0 4F4#B5FEA917B527
(1493282508.298784) can0 1FD#0000000000000000
(1493282508.320523) can0 6C7#04051101020000
(1493282508.320756) can0 30B#7F00110000000098
(1493282508.321023) can0 5F2#B000
(1493282508.333402) can0 6C1#79
(1493282508.349898) can0 3C0#6A7E1335
(1493282508.358650) can0 1FD#0000000000000000
(1493282508.361302) can0 1BFC38B1#0000000000000000
(1493282508.361648) can0 1BFC38B9#060096408008FC68
(1493282508.361913) can0 1BFC38BA#0000000700000014
(1493282508.362266) can0 1BFC38B8#0000000800000000
(1493282508.362503) can0 1BFC38B7#80016484250202A7
(1493282508.362753) can0 1BFC38B6#00001C1C02028A12
(1493282508.363126) can0 1BFC38B5#0502FF1202028A12
(1493282508.363377) can0 1BFC38B4#111001010000A800
(1493282508.363751) can0 1BFC38B3#80016484324000FF
(1493282508.364224) can0 1BFC38B2#80016484838300FD
(1493282508.364395) can0 1BFC38BB#FFFFFFFFFFFFFFFF
(1493282508.369802) can0 30B#7F00110000000098
(1493282508.383540) can0 2F2#6DA891769E830D58
(1493282508.420393) can0 1FD#0000000000000000
(1493282508.420807) can0 30B#7F00110000000098
(1493282508.433670) can0 5D4#8949B941C4C68C03
(1493282508.453376) can0 3C0#6A7E1335
(1493282508.469394) can0 30B#7F00110000000098
(1493282508.479014) can0 1FD#0000000000000000
(1493282508.483731) can0 777#2571067E334A10
(1493282508.520648) can0 6C7#04051101020000
(1493282508.520882) can0 30B#7F00110000000098
(1493282508.521119) can0 5F2#B000
(1493282508.534026) can0 37C#EA7A7F57032D1C28
(1493282508.538634) can0 1FD#0000000000000000
(1493282508.557255) can0 3C0#6A7E1335
(1493282508.569266) can0 30B#7F00110000000098
(1493282508.584163) can0 196#9E33B274AF73D543
(1493282508.598771) can0 1FD#0000000000000000
(1493282508.612635) can0 1BFC38B1#0000000000000000
(1493282508.612884) can0 1BFC38BA#0000000700000014
(1493282508.613260) can0 1BFC38BB#FFFFFFFFFFFFFFFF
(1493282508.613632) can0 1BFC38B9#070296408005A3F4
(1493282508.613884) can0 1BFC38B8#0000000800000000
(1493282508.614134) can0 1BFC38B7#80016484250202E3
(1493282508.614509) can0 1BFC38B6#00001C1F00000000
(1493282508.614758) can0 1BFC38B5#0502FF1202028A12
(1493282508.615142) can0 1BFC38B4#111001010000A800
(1493282508.615521) can0 1BFC38B3#80016484324000FF
(1493282508.615734) can0 1BFC38B2#80016484838300FD
(1493282508.621267) can0 30B#7F00110000000098
(1493282508.621546) can0 65E#8808BDF68FED0600
(1493282508.634428) can0 332#9C032E2A26
(1493282508.639136) can0 62F#4451000C00
(1493282508.658660) can0 1FD#0000000000000000
(1493282508.660878) can0 3C0#6A7E1335
(1493282508.669255) can0 30B#7F00110000000098
(1493282508.684546) can0 27B#DC
(1493282508.720283) can0 6C7#04051101020000
(1493282508.720674) can0 1FD#0000000000000000
(1493282508.720865) can0 30B#7F00110000000098
(1493282508.720993) can0 5F2#B100
(1493282508.728879) can0 630#33E90500
(1493282508.734655) can0 302#8F293F04F5
(1493282508.764244) can0 3C0#6A7E1335
(1493282508.769375) can0 30B#7F00110000000098
(1493282508.779125) can0 1FD#0000000000000000
(1493282508.784773) can0 3B0#93B15A4584110C4C
(1493282508.820125) can0 30B#7F00110000000098
(1493282508.835040) can0 3D6#49D8984F4D1B1516
(1493282508.838654) can0 1FD#0000000000000000
(1493282508.860998) can0 1BFC38B1#0000000000000000
(1493282508.861236) can0 1BFC38B9#070296408005A3F4
(1493282508.861624) can0 1BFC38BA#535553500000001A
(1493282508.861859) can0 1BFC38B8#0000000800000000
(1493282508.862242) can0 1BFC38B7#80016484250202E3
(1493282508.862620) can0 1BFC38B6#00001C2100000000
(1493282508.862871) can0 1BFC38B5#0502FF1202028A12
(1493282508.863246) can0 1BFC38B4#111001010000A800
(1493282508.863495) can0 1BFC38B3#80016484324000FF
(1493282508.863893) can0 1BFC38B2#80016484838300FD
(1493282508.864124) can0 1BFC38BB#FFFFFFFFFFFFFFFF
(1493282508.867586) can0 3C0#6A7E1335
(1493282508.870150) can0 30B#7F00110000000098
(1493282508.885038) can0 363#8065256ADF76F335
(1493282508.898894) can0 1FD#0000000000000000
(1493282508.919618) can0 6C7#04051101020000
(1493282508.919847) can0 30B#7F00110000000098
(1493282508.920003) can0 5F2#B200
(1493282508.935257) can0 0E8#E2A30F5E7E62D81A
(1493282508.958619) can0 1FD#0000000000000000
(1493282508.969359) can0 30B#7F00110000000098
(1493282508.970974) can0 3C0#6A7E1335
(1493282508.985529) can0 5D7#
(1493282509.019757) can0 1FD#0000000000000000
(1493282509.019985) can0 30B#7F00110000000098
(1493282509.035610) can0 795#2FD1834B10CA5F04
(1493282509.069366) can0 30B#7F00110000000098
(1493282509.074330) can0 3C0#6A7E1335
(1493282509.079139) can0 1FD#0000000000000000
(1493282509.085918) can0 41B#4D1BDE3A1DA7C12F
(1493282509.112149) can0 1BFC38B1#0000000000000000
(1493282509.112512) can0 1BFC38BB#FFFFFFFFFFFFFFFF
(1493282509.112740) can0 1BFC38BA#535553500000001A
(1493282509.113145) can0 1BFC38B9#070296408005A3F4
(1493282509.113360) can0 1BFC38B8#0000000800000000
(1493282509.113740) can0 1BFC38B7#80016484250202E3
(1493282509.113995) can0 1BFC38B6#00001C240000A800
(1493282509.114365) can0 1BFC38B5#0502FF1202028A12
(1493282509.114619) can0 1BFC38B4#111001010000A800
(1493282509.114962) can0 1BFC38B3#8001648431005544
(1493282509.115207) can0 1BFC38B2#8001648483830013
(1493282509.120240) can0 6C7#04051101020000
(1493282509.120491) can0 30B#7F00110000000098
(1493282509.120602) can0 5F2#B200
(1493282509.120854) can0 643#000200
(1493282509.121116) can0 64E#00A84F0000000000
(1493282509.121367) can0 65E#88084CB872DA0B00
(1493282509.121591) can0 6B8#6D08000000000000
(1493282509.121959) can0 6BC#62822651324C07C5
(1493282509.136002) can0 560#12D50E1D10E9E510
(1493282509.138763) can0 1FD#0000000000000000
(1493282509.170120) can0 30B#7F00110000000098
(1493282509.177587) can0 3C0#6A7E1335
(1493282509.186154) can0 6D9#95FAF15CAF
(1493282509.198850) can0 1FD#0000000000000000
(1493282509.220607) can0 30B#7F00110000000098
(1493282509.220992) can0 631#34D200
(1493282509.221210) can0 62D#349302E900
(1493282509.228727) can0 6B6#390C1C000C00
(1493282509.228975) can0 6B7#BEB4000008FF80FE
(1493282509.236253) can0 1C1#FC4D6C6E24954C06
(1493282509.258725) can0 1FD#0000000000000000
(1493282509.269102) can0 30B#7F00110000000098
(1493282509.281344) can0 3C0#6A7E1335
(1493282509.286309) can0 44C#040C403C342D4525
(1493282509.320596) can0 6C7#04051101020000
(1493282509.320818) can0 1FD#0000000000000000
(1493282509.321097) can0 30B#7F00110000000098
(1493282509.321345) can0 5F2#B200
(1493282509.336606) can0 3E8#B38F1D40BF31
(1493282509.361230) can0 1BFC38B1#0000000000000000
(1493282509.361617) can0 1BFC38BA#535553500000001A
(1493282509.361984) can0 1BFC38BB#FFFFFFFFFFFFFFFF
(1493282509.362204) can0 1BFC38B9#070296408005A3F4
(1493282509.362587) can0 1BFC38B8#0000000800000000
(1493282509.362855) can0 1BFC38B7#80016484250202E3
(1493282509.363215) can0 1BFC38B6#00001C26000034A8
(1493282509.363469) can0 1BFC38B5#0502FF1202028A12
(1493282509.363839) can0 1BFC38B4#111001010000A800
(1493282509.364090) can0 1BFC38B3#8001648431005544
(1493282509.364468) can0 1BFC38B2#8001648483830013
(1493282509.369842) can0 30B#7F00110000000098
(1493282509.379591) can0 1FD#0000000000000000
(1493282509.385095) can0 3C0#6A7E1335
(1493282509.386698) can0 767#
(1493282509.420465) can0 30B#7F00110000000098
(1493282509.436853) can0 7AA#0D999865C51B5B
(1493282509.438709) can0 1FD#0000000000000000
(1493282509.469225) can0 30B#7F00110000000098
(1493282509.486928) can0 503#E2C21C2263FA8363
(1493282509.488441) can0 3C0#6A7E1335
(1493282509.498860) can0 1FD#0000000000000000
(1493282509.520581) can0 6C7#04051101020000
(1493282509.520834) can0 30B#7F00110000000098
(1493282509.521122) can0 5F2#B300
(1493282509.537162) can0 136#74E369740F
(1493282509.558708) can0 1FD#0000000000000000
(1493282509.569211) can0 30B#7F00110000000098
(1493282509.587208) can0 69A#BE42D9715CA0120B
(1493282509.591796) can0 3C0#6A7E1335
(1493282509.612581) can0 1BFC38B1#0000000000000000
(1493282509.612829) can0 1BFC38BA#535553500000001A
(1493282509.613204) can0 1BFC38BB#FFFFFFFFFFFFFFFF
(1493282509.613580) can0 1BFC38B9#000096408008FC68
(1493282509.613844) can0 1BFC38B8#0000000800000000
(1493282509.614205) can0 1BFC38B7#800164842502021F
(1493282509.614450) can0 1BFC38B6#00001C2900000000
(1493282509.614822) can0 1BFC38B5#0502FF1202028A12
(1493282509.615057) can0 1BFC38B4#111001010000A800
(1493282509.615434) can0 1BFC38B3#8001648431005544
(1493282509.615684) can0 1BFC38B2#8001648483830013
(1493282509.621204) can0 1FD#0000000000000000
(1493282509.621454) can0 30B#7F00110000000098
(1493282509.621706) can0 65E#880857E4B7570A00
(1493282509.637492) can0 0E7#80355F1133CD1078
(1493282509.639076) can0 62F#4451000C01
(1493282509.669202) can0 30B#7F00110000000098
(1493282509.678953) can0 1FD#0000000000000000
(1493282509.687575) can0 438#68FA551D
(1493282509.695033) can0 3C0#6A7E1335
(1493282509.720326) can0 6C7#04051101020000
(1493282509.720699) can0 30B#7F00110000000098
(1493282509.720805) can0 5F2#B400
(1493282509.737699) can0 16B#DF099C1CD2780055
(1493282509.738693) can0 1FD#0000000000000000
(1493282509.769361) can0 30B#7F00110000000098
(1493282509.787832) can0 7FB#CE473936A52FE6
(1493282509.798321) can0 3C0#6A7E1335
(1493282509.798769) can0 1FD#0000000000000000
(1493282509.820693) can0 30B#7F00110000000098
(1493282509.837954) can0 09E#6A4B4116A19D161D
(1493282509.858690) can0 1FD#0000000000000000
(1493282509.861313) can0 1BFC38B1#0000000000000000
(1493282509.861553) can0 1BFC38BA#0000000700000014
(1493282509.861940) can0 1BFC38BB#FFFFFFFFFFFFFFFF
(1493282509.862191) can0 1BFC38B9#000096408008FC68
(1493282509.862564) can0 1BFC38B8#0000000800000000
(1493282509.862818) can0 1BFC38B7#800164842502021F
(1493282509.863190) can0 1BFC38B6#00001C2B00000000
(1493282509.863560) can0 1BFC38B5#0502FF1202028A12
(1493282509.863816) can0 1BFC38B4#111001010000A800
(1493282509.864062) can0 1BFC38B3#8001648431005544
(1493282509.864424) can0 1BFC38B2#8001648483830013
(1493282509.869923) can0 30B#7F00110000000098
(1493282509.888046) can0 535#05989A006C8EDC1B
(1493282509.901780) can0 3C0#6A7E1335
(1493282509.920718) can0 6C7#04051101020000
