(1493282353.127901) can0 2CC#6DA18904F656CD28
(1493282353.139561) can0 1FD#0000000000000000
(1493282353.154899) can0 3C0#6A7E1335
(1493282353.170473) can0 30B#7F00110000000098
(1493282353.178212) can0 26F#5E98884C3A3EC10E
(1493282353.199598) can0 1FD#0000000000000000
(1493282353.220697) can0 30B#7F00110000000098
(1493282353.221072) can0 631#34D200
(1493282353.221270) can0 62D#34837801F8000000
(1493282353.228355) can0 713#0054A54A30136565
(1493282353.229930) can0 6B6#390C1C000918
(1493282353.230303) can0 6B7#BEB4000008FF80FE
(1493282353.258138) can0 3C0#6A7E1335
(1493282353.259527) can0 1FD#0000000000000000
(1493282353.270452) can0 30B#7F00110000000098
(1493282353.278439) can0 3AA#
(1493282353.320669) can0 6C7#04051101020000
(1493282353.320910) can0 1FD#0000000000000000
(1493282353.321173) can0 30B#7F00110000000098
(1493282353.321417) can0 5F2#B400
(1493282353.328546) can0 1AC#FEEC8F
(1493282353.361668) can0 3C0#6A7E1335
(1493282353.361883) can0 1BFC38B1#0000000000000000
(1493282353.362249) can0 1BFC38BB#FFFFFFFFFFFFFFFF
(1493282353.362666) can0 1BFC38BA#535553500000001A
(1493282353.362918) can0 1BFC38B9#030296408005A3F4
(1493282353.363252) can0 1BFC38B8#0000000800000000
(1493282353.363523) can0 1BFC38B7#800164842502027E
(1493282353.363906) can0 1BFC38B6#0000160E000034A8
(1493282353.364196) can0 1BFC38B5#0502FF1202028A12
(1493282353.364565) can0 1BFC38B4#110F01010000A101
(1493282353.364799) can0 1BFC38B3#8001648431005544
(1493282353.365185) can0 1BFC38B2#80016484838300DB
(1493282353.371041) can0 30B#7F00110000000098
(1493282353.378644) can0 5E4#8B
(1493282353.380049) can0 1FD#0000000000000000
(1493282353.420791) can0 30B#7F00110000000098
(1493282353.428930) can0 129#81528E35CBD0035B
(1493282353.439569) can0 1FD#0000000000000000
(1493282353.465541) can0 3C0#6A7E1335
(1493282353.470443) can0 30B#7F00110000000098
(1493282353.479160) can0 1A1#72D38F5F6E5CB332
(1493282353.499536) can0 1FD#0000000000000000
(1493282353.520535) can0 6C7#04051101020000
(1493282353.520907) can0 30B#7F00110000000098
(1493282353.521019) can0 5F2#B400
(1493282353.529296) can0 680#64B3805BEF387130
(1493282353.559564) can0 1FD#0000000000000000
(1493282353.569028) can0 3C0#6A7E1335
(1493282353.570392) can0 30B#7F00110000000098
(1493282353.579434) can0 68E#2A77
(1493282353.613026) can0 1BFC38B1#0000000000000000
(1493282353.613403) can0 1BFC38BB#FFFFFFFFFFFFFFFF
(1493282353.613647) can0 1BFC38BA#535553500000001A
(1493282353.614028) can0 1BFC38B9#040096408008FC68
(1493282353.614278) can0 1BFC38B8#0000000800000000
(1493282353.614613) can0 1BFC38B7#80016484250202BA
(1493282353.614859) can0 1BFC38B6#0000161100000000
(1493282353.615286) can0 1BFC38B5#0502FF1202028A12
(1493282353.615488) can0 1BFC38B4#110F01010000A101
(1493282353.615885) can0 1BFC38B3#8001648431005544
(1493282353.616163) can0 1BFC38B2#80016484838300DB
(1493282353.621163) can0 1FD#0000000000000000
(1493282353.621549) can0 30B#7F00110000000098
(1493282353.621780) can0 65E#880809D5D53E0900
(1493282353.629692) can0 6DB#D250977F85DA412F
(1493282353.630676) can0 62F#4451000919
(1493282353.670400) can0 30B#7F00110000000098
(1493282353.672264) can0 3C0#6A7E1335
(1493282353.679629) can0 4CA#1325503477FE2324
(1493282353.679632) can0 1FD#0000000000000000
(1493282353.720606) can0 6C7#04051101020000
(1493282353.720884) can0 30B#7F00110000000098
(1493282353.721136) can0 5F2#B500
(1493282353.729730) can0 520#1F
(1493282353.739531) can0 1FD#0000000000000000
(1493282353.770391) can0 30B#7F00110000000098
(1493282353.776147) can0 3C0#6A7E1335
(1493282353.779972) can0 313#7C2A24363C94DB11
(1493282353.799518) can0 1FD#0000000000000000
(1493282353.820643) can0 30B#7F00110000000098
(1493282353.830177) can0 427#0865DF6CC945A47B
(1493282353.859528) can0 1FD#0000000000000000
(1493282353.861884) can0 1BFC38B1#0000000000000000
(1493282353.862298) can0 1BFC38BB#FFFFFFFFFFFFFFFF
(1493282353.862512) can0 1BFC38BA#0000000700000014
(1493282353.862888) can0 1BFC38B9#040096408008FC68
(1493282353.863132) can0 1BFC38B8#0000000800000000
(1493282353.863491) can0 1BFC38B7#80016484250202BA
(1493282353.863755) can0 1BFC38B6#0000161300000000
(1493282353.864121) can0 1BFC38B5#0502FF1202028A12
(1493282353.864406) can0 1BFC38B4#110F01010000A101
(1493282353.864726) can0 1BFC38B3#8001648431005544
(1493282353.865146) can0 1BFC38B2#80016484838300DB
(1493282353.871023) can0 30B#7F00110000000098
(1493282353.879596) can0 3C0#6A7E1335
(1493282353.880136) can0 085#37A2572E0627D90E
(1493282353.920644) can0 6C7#04051101020000
(1493282353.920845) can0 1FD#0000000000000000
(1493282353.921278) can0 30B#7F00110000000098
(1493282353.921388) can0 5F2#B500
(1493282353.930434) can0 55A#F55F4A3FE82BF513
(1493282353.970381) can0 30B#7F00110000000098
(1493282353.979752) can0 1FD#0000000000000000
(1493282353.980518) can0 15D#8A69272E38C0E40A
(1493282353.983723) can0 3C0#6A7E1335
(1493282354.020626) can0 30B#7F00110000000098
(1493282354.030650) can0 249#BD9A263A14A72E20
(1493282354.039622) can0 1FD#0000000000000000
(1493282354.070371) can0 30B#7F00110000000098
(1493282354.080774) can0 7CA#
(1493282354.087231) can0 3C0#6A7E1335
(1493282354.099631) can0 1FD#0000000000000000
(1493282354.113114) can0 1BFC38B1#0000000000000000
(1493282354.113368) can0 1BFC38BB#FFFFFFFFFFFFFFFF
(1493282354.113742) can0 1BFC38BA#0000000700000014
(1493282354.113992) can0 1BFC38B9#040096408008FC68
(1493282354.114368) can0 1BFC38B8#0000000800000000
(1493282354.114617) can0 1BFC38B7#80016484250202BA
(1493282354.114949) can0 1BFC38B6#000016160000A101
(1493282354.115246) can0 1BFC38B5#0502FF1202028A12
(1493282354.115577) can0 1BFC38B4#110F01010000A101
(1493282354.115881) can0 1BFC38B3#8001648431007766
(1493282354.116252) can0 1BFC38B2#800164848383807F
(1493282354.121128) can0 6C7#04051101020000
(1493282354.121515) can0 30B#7F00110000000098
(1493282354.121629) can0 5F2#B500
(1493282354.121874) can0 643#000200
(1493282354.122119) can0 64E#00A1010000000000
(1493282354.122380) can0 65E#880820E8A2860800
(1493282354.122628) can0 6B8#6D08000000000000
(1493282354.123002) can0 6BC#62822651324C0701
(1493282354.130986) can0 1E2#EE474623F524491E
(1493282354.159633) can0 1FD#0000000000000000
(1493282354.170373) can0 30B#7F00110000000098
(1493282354.181128) can0 554#31B924307C09F40D
(1493282354.191115) can0 3C0#6A7E1335
(1493282354.220891) can0 1FD#0000000000000000
(1493282354.221096) can0 30B#7F00110000000098
(1493282354.230357) can0 6B6#390C1C000919
(1493282354.230603) can0 6B7#BEB4000008FF80FE
(1493282354.231133) can0 767#454F9809ED0FBD33
(1493282354.270399) can0 30B#7F00110000000098
(1493282354.279735) can0 1FD#0000000000000000
(1493282354.281260) can0 6B4#F33696420E04FC19
(1493282354.294855) can0 3C0#6A7E1335
(1493282354.320559) can0 6C7#04051101020000
(1493282354.320987) can0 30B#7F00110000000098
(1493282354.321058) can0 5F2#B600
(1493282354.331529) can0 717#F62FF12D74E8A973
(1493282354.339612) can0 1FD#0000000000000000
(1493282354.361854) can0 1BFC38B1#0000000000000000
(1493282354.362252) can0 1BFC38BB#FFFFFFFFFFFFFFFF
(1493282354.362477) can0 1BFC38BA#0000000700000014
(1493282354.362848) can0 1BFC38B9#040096408008FC68
(1493282354.363252) can0 1BFC38B8#0000000800000000
(1493282354.363477) can0 1BFC38B7#80016484250202BA
(1493282354.363708) can0 1BFC38B6#0000161802028A12
(1493282354.364095) can0 1BFC38B5#0502FF1202028A12
(1493282354.364502) can0 1BFC38B4#110F01010000A101
(1493282354.364721) can0 1BFC38B3#8001648431007766
(1493282354.365100) can0 1BFC38B2#800164848383807F
(1493282354.371098) can0 30B#7F00110000000098
(1493282354.381651) can0 608#AC
(1493282354.398823) can0 3C0#6A7E1335
(1493282354.399564) can0 1FD#0000000000000000
(1493282354.420717) can0 30B#7F00110000000098
(1493282354.431718) can0 3DE#65B7E028A873D862
(1493282354.459597) can0 1FD#0000000000000000
(1493282354.470342) can0 30B#7F00110000000098
(1493282354.481872) can0 339#
(1493282354.502466) can0 3C0#6A7E1335
(1493282354.520712) can0 6C7#04051101020000
(1493282354.520965) can0 1FD#0000000000000000
(1493282354.521214) can0 30B#7F00110000000098
(1493282354.521504) can0 5F2#B700
(1493282354.532085) can0 79A#
(1493282354.570343) can0 30B#7F00110000000098
(1493282354.579715) can0 1FD#0000000000000000
(1493282354.582087) can0 2EB#6BEE
(1493282354.605699) can0 3C0#6A7E1335
(1493282354.613209) can0 1BFC38B1#0000000000000000
(1493282354.613577) can0 1BFC38BB#FFFFFFFFFFFFFFFF
(1493282354.613831) can0 1BFC38BA#0000000700000014
(1493282354.614193) can0 1BFC38B9#050296408005A3F4
(1493282354.614437) can0 1BFC38B8#0000000800000000
(1493282354.614813) can0 1BFC38B7#80016484250202F6
(1493282354.615063) can0 1BFC38B6#0000161B00000000
(1493282354.615435) can0 1BFC38B5#0502FF1202028A12
(1493282354.615687) can0 1BFC38B4#110F01010000A101
(1493282354.616112) can0 1BFC38B3#8001648431007766
(1493282354.616336) can0 1BFC38B2#800164848383807F
(1493282354.619718) can0 30B#7F00110000000098
(1493282354.619953) can0 65E#88087B267E660400
(1493282354.630958) can0 62F#445100091A
(1493282354.632261) can0 17B#
(1493282354.639499) can0 1FD#0000000000000000
(1493282354.670347) can0 30B#7F00110000000098
(1493282354.682373) can0 72C#3D2C
(1493282354.699606) can0 1FD#0000000000000000
(1493282354.709067) can0 3C0#6A7E1335
(1493282354.721453) can0 6C7#04051101020000
(1493282354.721688) can0 30B#7F00110000000098
(1493282354.721970) can0 5F2#B700
(1493282354.722214) can0 630#33D03F0102
(1493282354.729855) can0 64E#00A2160000000000
(1493282354.732457) can0 01B#B75E9E1E
(1493282354.759608) can0 1FD#0000000000000000
(1493282354.771071) can0 30B#7F00110000000098
(1493282354.782609) can0 5B5#74F632
(1493282354.813071) can0 3C0#6A7E1335
(1493282354.821071) can0 1FD#0000000000000000
(1493282354.821443) can0 30B#7F00110000000098
(1493282354.832717) can0 2CC#3BBD1D5A054E0E7D
(1493282354.861819) can0 1BFC38B1#0000000000000000
(1493282354.862190) can0 1BFC38BB#FFFFFFFFFFFFFFFF
(1493282354.862436) can0 1BFC38BA#535553500000001A
(1493282354.862817) can0 1BFC38B9#050296408005A3F4
(1493282354.863193) can0 1BFC38B8#0000000800000000
(1493282354.863441) can0 1BFC38B7#80016484250202F6
(1493282354.863678) can0 1BFC38B6#0000161D00000000
(1493282354.864063) can0 1BFC38B5#0502FF1202028A12
(1493282354.864469) can0 1BFC38B4#110F01010000A101
(1493282354.864708) can0 1BFC38B3#8001648431007766
(1493282354.865068) can0 1BFC38B2#800164848383807F
(1493282354.871078) can0 30B#7F00110000000098
(1493282354.880719) can0 1FD#0000000000000000
(1493282354.882957) can0 2CA#2123917165DAA215
(1493282354.916428) can0 3C0#6A7E1335
(1493282354.920641) can0 6C7#04051101020000
(1493282354.920891) can0 30B#7F00110000000098
(1493282354.921019) can0 5F2#B800
(1493282354.933091) can0 64D#54
(1493282354.939542) can0 1FD#0000000000000000
(1493282354.970438) can0 30B#7F00110000000098
(1493282354.983213) can0 073#8B2B6A40EFA14227
(1493282354.999559) can0 1FD#0000000000000000
(1493282355.020173) can0 3C0#6A7E1335
(1493282355.020672) can0 30B#7F00110000000098
(1493282355.033363) can0 36F#1ECAAA709B1A5F71
(1493282355.059552) can0 1FD#0000000000000000
(1493282355.070442) can0 30B#7F00110000000098
(1493282355.083427) can0 6FD#DE90531C182F7D4B
(1493282355.113050) can0 1BFC38B1#0000000000000000
(1493282355.113425) can0 1BFC38BB#FFFFFFFFFFFFFFFF
(1493282355.113655) can0 1BFC38BA#535553500000001A
(1493282355.114045) can0 1BFC38B9#050296408005A3F4
(1493282355.114301) can0 1BFC38B8#0000000800000000
(1493282355.114671) can0 1BFC38B7#80016484250202F6
(1493282355.115041) can0 1BFC38B6#000016200000A216
(1493282355.115316) can0 1BFC38B5#0502FF1202028A12
(1493282355.115547) can0 1BFC38B4#110F01010000A216
(1493282355.115912) can0 1BFC38B3#800164843240CCBB
(1493282355.116173) can0 1BFC38B2#80016484838300E7
(1493282355.119575) can0 6C7#04051101020000
(1493282355.119798) can0 1FD#0000000000000000
(1493282355.120006) can0 30B#7F00110000000098
(1493282355.120254) can0 5F2#B800
(1493282355.120384) can0 643#000200
(1493282355.120757) can0 64E#00A2160000000000
(1493282355.121015) can0 65E#880803D443440D00
(1493282355.121264) can0 6B8#6D08000000000000
(1493282355.121550) can0 6BC#62822651324C0702
(1493282355.124023) can0 3C0#6A7E1335
(1493282355.133752) can0 290#3B15FE6645
(1493282355.170452) can0 30B#7F00110000000098
(1493282355.179955) can0 1FD#0000000000000000
(1493282355.183780) can0 6F8#D891174AC441012E
(1493282355.220675) can0 30B#7F00110000000098
(1493282355.221164) can0 631#34D300
(1493282355.221662) can0 62D#348414
(1493282355.227541) can0 3C0#6A7E1335
(1493282355.229949) can0 6B6#390C1C00091A
(1493282355.230168) can0 6B7#BEB4000008FF80FE
(1493282355.234058) can0 189#C98F0F
(1493282355.239569) can0 1FD#0000000000000000
(1493282355.270425) can0 30B#7F00110000000098
(1493282355.284205) can0 4E0#B99E2E282DE31C1F
(1493282355.299551) can0 1FD#0000000000000000
(1493282355.320543) can0 6C7#04051101020000
(1493282355.320914) can0 30B#7F00110000000098
(1493282355.320990) can0 5F2#B900
(1493282355.331246) can0 3C0#6A7E1335
(1493282355.334284) can0 01C#6674973C8FA04B68
(1493282355.359510) can0 1FD#0000000000000000
(1493282355.361905) can0 1BFC38B1#0000000000000000
(1493282355.362127) can0 1BFC38BB#FFFFFFFFFFFFFFFF
(1493282355.362501) can0 1BFC38BA#535553500000001A
(1493282355.362751) can0 1BFC38B9#050296408005A3F4
(1493282355.363126) can0 1BFC38B8#0000000800000000
(1493282355.363355) can0 1BFC38B7#80016484250202F6
(1493282355.363730) can0 1BFC38B6#00001622000034A8
(1493282355.363978) can0 1BFC38B5#0502FF1202028A12
(1493282355.364355) can0 1BFC38B4#110F01010000A216
(1493282355.364617) can0 1BFC38B3#800164843240CCBB
(1493282355.364988) can0 1BFC38B2#80016484838300E7
(1493282355.371045) can0 30B#7F00110000000098
(1493282355.384402) can0 3CC#7E
(1493282355.420810) can0 1FD#0000000000000000
(1493282355.421008) can0 30B#7F00110000000098
(1493282355.434486) can0 5BB#D6110A28B82C7244
(1493282355.434987) can0 3C0#6A7E1335
(1493282355.470400) can0 30B#7F00110000000098
(1493282355.479772) can0 1FD#0000000000000000
(1493282355.484663) can0 2F9#D05BEF0F
(1493282355.520647) can0 6C7#04051101020000
(1493282355.521018) can0 30B#7F00110000000098
(1493282355.521147) can0 5F2#BA00
(1493282355.534787) can0 249#CE9D7E0C41896E57
(1493282355.538998) can0 3C0#6A7E1335
(1493282355.539485) can0 1FD#0000000000000000
(1493282355.570644) can0 30B#7F00110000000098
(1493282355.585029) can0 4BB#05CB6F054436
(1493282355.599525) can0 1FD#0000000000000000
(1493282355.613140) can0 1BFC38B1#0000000000000000
(1493282355.613509) can0 1BFC38BB#FFFFFFFFFFFFFFFF
(1493282355.613766) can0 1BFC38BA#535553500000001A
(1493282355.614006) can0 1BFC38B9#060096408008FC68
(1493282355.614397) can0 1BFC38B8#0000000800000000
(1493282355.614777) can0 1BFC38B7#8001648425020230
(1493282355.614984) can0 1BFC38B6#0000162500000000
(1493282355.615395) can0 1BFC38B5#0502FF1202028A12
(1493282355.615645) can0 1BFC38B4#110F01010000A216
(1493282355.616012) can0 1BFC38B3#800164843240CCBB
(1493282355.616242) can0 1BFC38B2#80016484838300E7
(1493282355.619672) can0 30B#7F00110000000098
(1493282355.619937) can0 65E#880871E5888A0800
(1493282355.630654) can0 62F#445100091B
(1493282355.635132) can0 6B9#98FAEE6C997B405A
(1493282355.643106) can0 3C0#6A7E1335
(1493282355.659515) can0 1FD#0000000000000000
(1493282355.671137) can0 30B#7F00110000000098
(1493282355.685384) can0 5B9#C6
(1493282355.721663) can0 6C7#04051101020000
(1493282355.721881) can0 1FD#0000000000000000
(1493282355.722131) can0 30B#7F00110000000098
(1493282355.722375) can0 5F2#BA00
(1493282355.735511) can0 75E#647E69562A03171B
(1493282355.746585) can0 3C0#6A7E1335
(1493282355.770132) can0 30B#7F00110000000098
(1493282355.779880) can0 1FD#0000000000000000
(1493282355.785755) can0 31D#65FAC1
(1493282355.821629) can0 30B#7F00110000000098
(1493282355.835995) can0 580#9115810B79D0783A
(1493282355.839494) can0 1FD#0000000000000000
(1493282355.850109) can0 3C0#6A7E1335
(1493282355.862125) can0 1BFC38B1#0000000000000000
(1493282355.862498) can0 1BFC38B9#060096408008FC68
(1493282355.862764) can0 1BFC38BA#0000000700000014
(1493282355.863144) can0 1BFC38B8#0000000800000000
(1493282355.863352) can0 1BFC38B7#8001648425020230
(1493282355.863728) can0 1BFC38B6#0000162700000000
(1493282355.863958) can0 1BFC38B5#0502FF1202028A12
(1493282355.864409) can0 1BFC38B4#110F01010000A216
(1493282355.864667) can0 1BFC38B3#800164843240CCBB
(1493282355.865024) can0 1BFC38B2#80016484838300E7
(1493282355.865259) can0 1BFC38BB#FFFFFFFFFFFFFFFF
(1493282355.871026) can0 30B#7F00110000000098
(1493282355.885997) can0 6EF#0226
(1493282355.899749) can0 1FD#0000000000000000
(1493282355.920993) can0 6C7#04051101020000
(1493282355.921233) can0 30B#7F00110000000098
(1493282355.921485) can0 5F2#BA00
(1493282355.936112) can0 26D#
(1493282355.953567) can0 3C0#6A7E1335
(1493282355.959497) can0 1FD#0000000000000000
(1493282355.970367) can0 30B#7F00110000000098
(1493282355.986243) can0 376#6D95DF6E2F720552
(1493282356.020643) can0 1FD#0000000000000000
(1493282356.020997) can0 30B#7F00110000000098
(1493282356.036503) can0 04D#C8ED452C06
(1493282356.057114) can0 3C0#6A7E1335
(1493282356.070361) can0 30B#7F00110000000098
(1493282356.080078) can0 1FD#0000000000000000
(1493282356.086481) can0 157#DBDB1406B5208B5D
(1493282356.113110) can0 1BFC38B1#0000000000000000
(1493282356.113354) can0 1BFC38BB#FFFFFFFFFFFFFFFF
(1493282356.113727) can0 1BFC38BA#0000000700000014
(1493282356.113962) can0 1BFC38B9#060096408008FC68
(1493282356.114366) can0 1BFC38B8#0000000800000000
(1493282356.114583) can0 1BFC38B7#8001648425020230
(1493282356.114958) can0 1BFC38B6#0000162A0000A216
(1493282356.115208) can0 1BFC38B5#0502FF1202028A12
(1493282356.115586) can0 1BFC38B4#110F01010000A216
(1493282356.115995) can0 1BFC38B3#8001648431001100
(1493282356.116270) can0 1BFC38B2#80016484838300FD
(1493282356.119516) can0 6C7#04051101020000
(1493282356.119883) can0 30B#7F00110000000098
(1493282356.119999) can0 5F2#BB00
(1493282356.120224) can0 643#000200
(1493282356.120493) can0 64E#00A2160000000000
(1493282356.120726) can0 65E#8808A0E58AF00900
(1493282356.120993) can0 6B8#6D08000000000000
(1493282356.121336) can0 6BC#62822651324C0709
(1493282356.136613) can0 7BB#E023A278D8928E0E
(1493282356.139479) can0 1FD#0000000000000000
(1493282356.161230) can0 3C0#6A7E1335
(1493282356.170359) can0 30B#7F00110000000098
(1493282356.186862) can0 322#B17B9D55A2
(1493282356.199597) can0 1FD#0000000000000000
(1493282356.220722) can0 30B#7F00110000000098
(1493282356.230350) can0 6B6#390C1C00091B
(1493282356.230584) can0 6B7#BEB4000008FF80FE
(1493282356.236975) can0 281#1BB91F
(1493282356.259506) can0 1FD#0000000000000000
(1493282356.264862) can0 3C0#6A7E1335
(1493282356.270372) can0 30B#7F00110000000098
(1493282356.287246) can0 2A5#A91AD33F12E5EC0E
(1493282356.320469) can0 6C7#04051101020000
(1493282356.320869) can0 1FD#0000000000000000
(1493282356.321092) can0 30B#7F00110000000098
(1493282356.321204) can0 5F2#BC00
(1493282356.337352) can0 2ED#3B44
(1493282356.361878) can0 1BFC38B1#0000000000000000
(1493282356.362259) can0 1BFC38BB#FFFFFFFFFFFFFFFF
(1493282356.362462) can0 1BFC38BA#0000000700000014
(1493282356.362877) can0 1BFC38B9#060096408008FC68
(1493282356.363090) can0 1BFC38B8#0000000800000000
(1493282356.363466) can0 1BFC38B7#8001648425020230
(1493282356.363714) can0 1BFC38B6#0000162C02028A12
(1493282356.364103) can0 1BFC38B5#0502FF1202028A12
(1493282356.364358) can0 1BFC38B4#110F01010000A216
(1493282356.364721) can0 1BFC38B3#8001648431001100
(1493282356.364975) can0 1BFC38B2#80016484838300FD
(1493282356.368703) can0 3C0#6A7E1335
(1493282356.370920) can0 30B#7F00110000000098
(1493282356.380059) can0 1FD#0000000000000000
(1493282356.387421) can0 2A1#92082801EE6AE939
(1493282356.420594) can0 30B#7F00110000000098
(1493282356.437582) can0 1AD#F468E0510493035F
(1493282356.439582) can0 1FD#0000000000000000
(1493282356.470331) can0 30B#7F00110000000098
(1493282356.472570) can0 3C0#6A7E1335
(1493282356.487734) can0 2E9#BAB38E3CA462A92E
(1493282356.499611) can0 1FD#0000000000000000
(1493282356.520574) can0 6C7#04051101020000
(1493282356.520815) can0 30B#7F00110000000098
(1493282356.520935) can0 5F2#BC00
(1493282356.537950) can0 70E#7CF5373D31BAE976
(1493282356.559576) can0 1FD#0000000000000000
(1493282356.570330) can0 30B#7F00110000000098
(1493282356.576061) can0 3C0#6A7E1335
(1493282356.588068) can0 5DF#D3A2901F6020C543
(1493282356.612948) can0 1BFC38B1#0000000000000000
(1493282356.613319) can0 1BFC38BB#FFFFFFFFFFFFFFFF
(1493282356.613734) can0 1BFC38BA#0000000700000014
(1493282356.613943) can0 1BFC38B9#070296408005A3F4
(1493282356.614331) can0 1BFC38B8#0000000800000000
(1493282356.614587) can0 1BFC38B7#800164842502026C
(1493282356.614953) can0 1BFC38B6#0000162F00000000
(1493282356.615161) can0 1BFC38B5#0502FF1202028A12
(1493282356.615550) can0 1BFC38B4#110F01010000A216
(1493282356.615952) can0 1BFC38B3#8001648431001100
(1493282356.616210) can0 1BFC38B2#80016484838300FD
(1493282356.621205) can0 1FD#0000000000000000
(1493282356.621462) can0 30B#7F00110000000098
(1493282356.621682) can0 65E#880845178B570800
(1493282356.630565) can0 62F#445100091C
(1493282356.638332) can0 271#D1F91E4616058370
(1493282356.670320) can0 30B#7F00110000000098
(1493282356.679530) can0 3C0#6A7E1335
(1493282356.679533) can0 1FD#0000000000000000
(1493282356.688500) can0 30C#28EA6F7FFADDDD31
(1493282356.720597) can0 6C7#04051101020000
(1493282356.720947) can0 30B#7F00110000000098
(1493282356.721032) can0 5F2#BC00
(1493282356.721322) can0 630#33D203D2
(1493282356.738625) can0 19C#5D7400
(1493282356.739559) can0 1FD#0000000000000000
(1493282356.770686) can0 30B#7F00110000000098
(1493282356.783265) can0 3C0#6A7E1335
(1493282356.788583) can0 00B#
(1493282356.799589) can0 1FD#0000000000000000
(1493282356.820556) can0 30B#7F00110000000098
(1493282356.838818) can0 34A#BD043D0233B6A762
(1493282356.859584) can0 1FD#0000000000000000
(1493282356.861932) can0 1BFC38B1#0000000000000000
(1493282356.862180) can0 1BFC38BB#FFFFFFFFFFFFFFFF
(1493282356.862410) can0 1BFC38BA#535553500000001A
(1493282356.862830) can0 1BFC38B9#070296408005A3F4
(1493282356.863052) can0 1BFC38B8#0000000800000000
(1493282356.863427) can0 1BFC38B7#800164842502026C
(1493282356.863677) can0 1BFC38B6#0000163100000000
(1493282356.864071) can0 1BFC38B5#0502FF1202028A12
(1493282356.864309) can0 1BFC38B4#110F01010000A216
(1493282356.864686) can0 1BFC38B3#8001648431001100
(1493282356.865064) can0 1BFC38B2#80016484838300FD
(1493282356.870911) can0 30B#7F00110000000098
(1493282356.886883) can0 3C0#6A7E1335
(1493282356.888951) can0 4EE#D7185111FD2BF2
(1493282356.920563) can0 6C7#04051101020000
(1493282356.920937) can0 1FD#0000000000000000
(1493282356.921173) can0 30B#7F00110000000098
(1493282356.921296) can0 5F2#BD00
(1493282356.939051) can0 011#2EE6DB58
(1493282356.970297) can0 30B#7F00110000000098
(1493282356.979800) can0 1FD#0000000000000000
(1493282356.989156) can0 782#51
(1493282356.990368) can0 3C0#6A7E1335
(1493282357.020695) can0 30B#7F00110000000098
(1493282357.039293) can0 4F0#0987
(1493282357.039531) can0 1FD#0000000000000000
(1493282357.070294) can0 30B#7F00110000000098
(1493282357.089577) can0 49C#F7
(1493282357.093776) can0 3C0#6A7E1335
(1493282357.099568) can0 1FD#0000000000000000
(1493282357.113034) can0 1BFC38B1#0000000000000000
(1493282357.113413) can0 1BFC38BB#FFFFFFFFFFFFFFFF
(1493282357.113673) can0 1BFC38BA#535553500000001A
(1493282357.114047) can0 1BFC38B9#070296408005A3F4
(1493282357.114256) can0 1BFC38B8#0000000800000000
(1493282357.114642) can0 1BFC38B7#800164842502026C
(1493282357.114912) can0 1BFC38B6#000016340000A216
(1493282357.115290) can0 1BFC38B5#0502FF1202028A12
(1493282357.115516) can0 1BFC38B4#110F01010000A216
(1493282357.115899) can0 1BFC38B3#8001648431003322
(1493282357.116197) can0 1BFC38B2#8001648483838071
(1493282357.121158) can0 6C7#04051101020000
(1493282357.121424) can0 30B#7F00110000000098
(1493282357.121527) can0 5F2#BD00
(1493282357.121798) can0 643#000200
(1493282357.122064) can0 64E#00A2160000000000
(1493282357.122251) can0 65E#8808C518BB050D00
(1493282357.122653) can0 6B8#6D08000000000000
(1493282357.122904) can0 6BC#62822651324C070A
(1493282357.139663) can0 795#7622D427
(1493282357.159548) can0 1FD#0000000000000000
(1493282357.171035) can0 30B#7F00110000000098
(1493282357.189772) can0 744#5919
(1493282357.197646) can0 3C0#6A7E1335
(1493282357.221534) can0 1FD#0000000000000000
(1493282357.221904) can0 30B#7F00110000000098
(1493282357.222015) can0 631#34D400
(1493282357.222144) can0 62D#348F00
(1493282357.229531) can0 6B6#390C1C00091C
(1493282357.229781) can0 6B7#BEB4000008FF80FE
(1493282357.240071) can0 1C1#C218573CB0D684
(1493282357.270196) can0 30B#7F00110000000098
(1493282357.279801) can0 1FD#0000000000000000
(1493282357.290189) can0 68E#AD027710A0667F75
(1493282357.301528) can0 3C0#6A7E1335
(1493282357.321674) can0 6C7#04051101020000
(1493282357.321905) can0 30B#7F00110000000098
(1493282357.322022) can0 5F2#BD00
(1493282357.339527) can0 1FD#0000000000000000
(1493282357.340171) can0 7EE#91EC106970BF8F7D
(1493282357.362157) can0 1BFC38B1#0000000000000000
(1493282357.362405) can0 1BFC38B9#070296408005A3F4
(1493282357.362788) can0 1BFC38BA#535553500000001A
(1493282357.363005) can0 1BFC38B8#0000000800000000
(1493282357.363420) can0 1BFC38B7#800164842502026C
(1493282357.363646) can0 1BFC38B6#00001636000034A8
(1493282357.364048) can0 1BFC38B5#0502FF1202028A12
(1493282357.364265) can0 1BFC38B4#110F01010000A216
(1493282357.364644) can0 1BFC38B3#8001648431003322
(1493282357.365019) can0 1BFC38B2#8001648483838071
(1493282357.365275) can0 1BFC38BB#FFFFFFFFFFFFFFFF
(1493282357.370904) can0 30B#7F00110000000098
(1493282357.390443) can0 1DC#6341
(1493282357.399639) can0 1FD#0000000000000000
(1493282357.405129) can0 3C0#6A7E1335
(1493282357.421281) can0 30B#7F00110000000098
(1493282357.440573) can0 305#CA76EE31A1E74421
(1493282357.459510) can0 1FD#0000000000000000
(1493282357.470264) can0 30B#7F00110000000098
(1493282357.490649) can0 19D#DA
(1493282357.508748) can0 3C0#6A7E1335
(1493282357.520882) can0 6C7#04051101020000
(1493282357.521134) can0 1FD#0000000000000000
(1493282357.521384) can0 30B#7F00110000000098
(1493282357.521634) can0 5F2#BD00
(1493282357.540816) can0 715#D3
(1493282357.570410) can0 30B#7F00110000000098
(1493282357.579891) can0 1FD#0000000000000000
(1493282357.590908) can0 1F3#E9389744B403B153
(1493282357.612253) can0 3C0#6A7E1335
(1493282357.612952) can0 1BFC38B1#0000000000000000
(1493282357.613366) can0 1BFC38BB#FFFFFFFFFFFFFFFF
(1493282357.613627) can0 1BFC38BA#535553500000001A
(1493282357.613960) can0 1BFC38B9#000096408008FC68
(1493282357.614210) can0 1BFC38B8#0000000800000000
(1493282357.614609) can0 1BFC38B7#80016484250202A8
(1493282357.614856) can0 1BFC38B6#0000163900000000
(1493282357.615232) can0 1BFC38B5#0502FF1202028A12
(1493282357.615478) can0 1BFC38B4#110F01010000A216
(1493282357.615857) can0 1BFC38B3#8001648431003322
(1493282357.616159) can0 1BFC38B2#8001648483838071
(1493282357.621531) can0 30B#7F00110000000098
(1493282357.621893) can0 65E#8808CAF68FC40900
(1493282357.639525) can0 1FD#0000000000000000
(1493282357.639987) can0 62F#445100091D
(1493282357.641060) can0 043#64DA3502D28E1068
(1493282357.670375) can0 30B#7F00110000000098
(1493282357.691217) can0 345#72
(1493282357.699505) can0 1FD#0000000000000000
(1493282357.715948) can0 3C0#6A7E1335
(1493282357.720507) can0 6C7#04051101020000
(1493282357.720867) can0 30B#7F00110000000098
(1493282357.720982) can0 5F2#BD00
(1493282357.741382) can0 5EC#A38257
(1493282357.759493) can0 1FD#0000000000000000
(1493282357.770371) can0 30B#7F00110000000098
(1493282357.791598) can0 4E5#968E9B3AEAA7
(1493282357.819349) can0 3C0#6A7E1335
(1493282357.820600) can0 1FD#0000000000000000
(1493282357.820951) can0 30B#7F00110000000098
(1493282357.841754) can0 472#
(1493282357.861871) can0 1BFC38B1#0000000000000000
(1493282357.862122) can0 1BFC38BB#FFFFFFFFFFFFFFFF
(1493282357.862486) can0 1BFC38BA#0000000700000014
(1493282357.862859) can0 1BFC38B9#000096408008FC68
(1493282357.863110) can0 1BFC38B8#0000000800000000
(1493282357.863359) can0 1BFC38B7#80016484250202A8
(1493282357.863737) can0 1BFC38B6#0000163B00000000
(1493282357.863987) can0 1BFC38B5#0502FF1202028A12
(1493282357.864371) can0 1BFC38B4#110F01010000A216
(1493282357.864622) can0 1BFC38B3#8001648431003322
(1493282357.864991) can0 1BFC38B2#8001648483838071
(1493282357.870993) can0 30B#7F00110000000098
(1493282357.879890) can0 1FD#0000000000000000
(1493282357.891885) can0 221#429F0A783661
(1493282357.920513) can0 6C7#04051101020000
(1493282357.920904) can0 30B#7F00110000000098
(1493282357.920907) can0 5F2#BD00
(1493282357.922857) can0 3C0#6A7E1335
(1493282357.939512) can0 1FD#0000000000000000
(1493282357.942039) can0 5B7#90371F31AA
(1493282357.970360) can0 30B#7F00110000000098
(1493282357.992104) can0 242#5F9B0D738572CB65
(1493282357.999524) can0 1FD#0000000000000000
(1493282358.020728) can0 30B#7F00110000000098
(1493282358.026596) can0 3C0#6A7E1335
(1493282358.042222) can0 225#5701DC
(1493282358.059476) can0 1FD#0000000000000000
(1493282358.070395) can0 30B#7F00110000000098
(1493282358.092482) can0 2D5#9E080330C118F003
(1493282358.113009) can0 1BFC38B1#0000000000000000
(1493282358.113337) can0 1BFC38BB#FFFFFFFFFFFFFFFF
(1493282358.113623) can0 1BFC38BA#0000000700000014
(1493282358.114015) can0 1BFC38B9#000096408008FC68
(1493282358.114214) can0 1BFC38B8#0000000800000000
(1493282358.114592) can0 1BFC38B7#80016484250202A8
(1493282358.114841) can0 1BFC38B6#0000163E0000A216
(1493282358.115221) can0 1BFC38B5#0502FF1202028A12
(1493282358.115561) can0 1BFC38B4#110F01010000A216
(1493282358.115809) can0 1BFC38B3#8001648432408877
(1493282358.116075) can0 1BFC38B2#80016484838300F9
(1493282358.121074) can0 6C7#04051101020000
(1493282358.121322) can0 1FD#0000000000000000
(1493282358.121697) can0 30B#7F00110000000098
(1493282358.121794) can0 5F2#BD00
(1493282358.121966) can0 643#000200
(1493282358.122354) can0 64E#00A2160000000000
(1493282358.122590) can0 65E#8808B996A67F0A00
(1493282358.122859) can0 6B8#6D08000000000000
(1493282358.123095) can0 6BC#62822651324C0718
(1493282358.130562) can0 3C0#6A7E1335
(1493282358.142614) can0 0CC#8A
(1493282358.170966) can0 30B#7F00110000000098
(1493282358.179851) can0 1FD#0000000000000000
(1493282358.192847) can0 748#
(1493282358.221597) can0 30B#7F00110000000098
(1493282358.229614) can0 6B6#390C1C00091D
(1493282358.229827) can0 6B7#BEB4000008FF80FE
(1493282358.234329) can0 3C0#6A7E1335
(1493282358.239494) can0 1FD#0000000000000000
(1493282358.242956) can0 480#CAA17459A15E3D2E
(1493282358.270082) can0 30B#7F00110000000098
(1493282358.293083) can0 28F#D8BF747446885B76
(1493282358.299703) can0 1FD#0000000000000000
(1493282358.321452) can0 6C7#04051101020000
(1493282358.321843) can0 30B#7F00110000000098
(1493282358.321846) can0 5F2#BD00
(1493282358.337812) can0 3C0#6A7E1335
(1493282358.343214) can0 122#F11FB815641B242C
(1493282358.359416) can0 1FD#0000000000000000
(1493282358.362112) can0 1BFC38B1#0000000000000000
(1493282358.362490) can0 1BFC38BA#0000000700000014
(1493282358.362823) can0 1BFC38BB#FFFFFFFFFFFFFFFF
(1493282358.363087) can0 1BFC38B9#000096408008FC68
(1493282358.363456) can0 1BFC38B8#0000000800000000
(1493282358.363719) can0 1BFC38B7#80016484250202A8
(1493282358.363946) can0 1BFC38B6#0000164002028A12
(1493282358.364355) can0 1BFC38B5#0502FF1202028A12
(1493282358.364584) can0 1BFC38B4#110F01010000A216
(1493282358.364962) can0 1BFC38B3#8001648432408877
(1493282358.365214) can0 1BFC38B2#80016484838300F9
(1493282358.370840) can0 30B#7F00110000000098
(1493282358.393486) can0 7E2#
(1493282358.421103) can0 1FD#0000000000000000
(1493282358.421323) can0 30B#7F00110000000098
(1493282358.441560) can0 3C0#6A7E1335
(1493282358.443551) can0 113#71
(1493282358.470197) can0 30B#7F00110000000098
(1493282358.479693) can0 1FD#0000000000000000
(1493282358.493862) can0 60B#AA9CE909D75E447D
(1493282358.520563) can0 6C7#04051101020000
(1493282358.520777) can0 30B#7F00110000000098
(1493282358.521065) can0 5F2#BD00
(1493282358.539428) can0 1FD#0000000000000000
(1493282358.543910) can0 351#89AC5956
(1493282358.545689) can0 3C0#6A7E1335
(1493282358.570349) can0 30B#7F00110000000098
(1493282358.594064) can0 455#532EA21AD5B0
(1493282358.599560) can0 1FD#0000000000000000
(1493282358.613056) can0 1BFC38B1#0000000000000000
(1493282358.613309) can0 1BFC38BB#FFFFFFFFFFFFFFFF
(1493282358.613684) can0 1BFC38BA#0000000700000014
(1493282358.613932) can0 1BFC38B9#010296408005A3F4
(1493282358.614301) can0 1BFC38B8#0000000800000000
(1493282358.614556) can0 1BFC38B7#80016484250202E4
(1493282358.614940) can0 1BFC38B6#0000164300000000
(1493282358.615195) can0 1BFC38B5#0502FF1202028A12
(1493282358.615537) can0 1BFC38B4#110F01010000A216
(1493282358.615786) can0 1BFC38B3#8001648432408877
(1493282358.616143) can0 1BFC38B2#80016484838300F9
(1493282358.621181) can0 30B#7F00110000000098
(1493282358.621435) can0 65E#880824E4872B0700
(1493282358.630585) can0 62F#445100091E
(1493282358.644183) can0 74E#770FF63EDDD12362
(1493282358.649306) can0 3C0#6A7E1335
(1493282358.659567) can0 1FD#0000000000000000
(1493282358.670301) can0 30B#7F00110000000098
(1493282358.694468) can0 12B#245A7F584D727C72
(1493282358.720680) can0 6C7#04051101020000
(1493282358.720917) can0 1FD#0000000000000000
(1493282358.721162) can0 30B#7F00110000000098
(1493282358.721409) can0 5F2#BD00
(1493282358.721543) can0 630#33DCFF0F01
(1493282358.744551) can0 6B7#B28DA01E99
(1493282358.753044) can0 3C0#6A7E1335
(1493282358.770304) can0 30B#7F00110000000098
(1493282358.779549) can0 1FD#0000000000000000
(1493282358.794824) can0 565#A058380678660675
(1493282358.820719) can0 30B#7F00110000000098
(1493282358.839554) can0 1FD#0000000000000000
(1493282358.844976) can0 2DD#61EA
(1493282358.857160) can0 3C0#6A7E1335
(1493282358.861785) can0 1BFC38B1#0000000000000000
(1493282358.862186) can0 1BFC38BB#FFFFFFFFFFFFFFFF
(1493282358.862383) can0 1BFC38BA#535553500000001A
(1493282358.862772) can0 1BFC38B9#010296408005A3F4
(1493282358.863019) can0 1BFC38B8#0000000800000000
(1493282358.863395) can0 1BFC38B7#80016484250202E4
(1493282358.863769) can0 1BFC38B6#0000164500000000
(1493282358.864026) can0 1BFC38B5#0502FF1202028A12
(1493282358.864303) can0 1BFC38B4#110F01010000A216
(1493282358.864691) can0 1BFC38B3#8001648432408877
(1493282358.864912) can0 1BFC38B2#80016484838300F9
(1493282358.870946) can0 30B#7F00110000000098
(1493282358.895036) can0 021#C08FD71872431804
(1493282358.899565) can0 1FD#0000000000000000
(1493282358.920549) can0 6C7#04051101020000
(1493282358.920754) can0 30B#7F00110000000098
(1493282358.921041) can0 5F2#BD00
(1493282358.945191) can0 43F#0B96347794406678
(1493282358.959485) can0 1FD#0000000000000000
(1493282358.960776) can0 3C0#6A7E1335
(1493282358.970316) can0 30B#7F00110000000098
(1493282358.995434) can0 66F#6AF11E09BE05005C
(1493282359.020658) can0 1FD#0000000000000000
(1493282359.020891) can0 30B#7F00110000000098
(1493282359.045543) can0 47D#9B
(1493282359.064021) can0 3C0#6A7E1335
(1493282359.070403) can0 30B#7F00110000000098
(1493282359.079912) can0 1FD#0000000000000000
(1493282359.095778) can0 030#F517003EE7967E54
(1493282359.113035) can0 1BFC38B1#0000000000000000
(1493282359.113292) can0 1BFC38BB#FFFFFFFFFFFFFFFF
(1493282359.113643) can0 1BFC38BA#535553500000001A
(1493282359.113863) can0 1BFC38B9#010296408005A3F4
(1493282359.114288) can0 1BFC38B8#0000000800000000
(1493282359.114523) can0 1BFC38B7#80016484250202E4
(1493282359.114903) can0 1BFC38B6#000016480000A216
(1493282359.115143) can0 1BFC38B5#0502FF1202028A12
(1493282359.115536) can0 1BFC38B4#110F01010000A216
(1493282359.115904) can0 1BFC38B3#800164843100DDCC
(1493282359.116164) can0 1BFC38B2#80016484838300FF
(1493282359.121036) can0 6C7#04051101020000
(1493282359.121265) can0 30B#7F00110000000098
(1493282359.121549) can0 5F2#BD00
(1493282359.121768) can0 643#000200
(1493282359.122044) can0 64E#00A2160000000000
(1493282359.122268) can0 65E#880844875FC00900
(1493282359.122546) can0 6B8#6D08000000000000
(1493282359.122773) can0 6BC#62822651324C0721
(1493282359.139534) can0 1FD#0000000000000000
(1493282359.145922) can0 3D4#81C5C74839E1D7
(1493282359.167743) can0 3C0#6A7E1335
(1493282359.170282) can0 30B#7F00110000000098
(1493282359.196023) can0 143#B2
(1493282359.199519) can0 1FD#0000000000000000
(1493282359.220661) can0 30B#7F00110000000098
(1493282359.221029) can0 62D#3490204C00
(1493282359.229802) can0 6B6#390C1C00091E
(1493282359.230019) can0 6B7#BEB4000008FF80FE
(1493282359.230512) can0 631#34D500
(1493282359.246294) can0 633#099D1F
(1493282359.259514) can0 1FD#0000000000000000
(1493282359.270254) can0 30B#7F00110000000098
(1493282359.271512) can0 3C0#6A7E1335
(1493282359.296388) can0 11E#C7690B155D2D4A61
(1493282359.320537) can0 6C7#04051101020000
(1493282359.320759) can0 1FD#0000000000000000
(1493282359.321012) can0 30B#7F00110000000098
(1493282359.321219) can0 5F2#BD00
(1493282359.346511) can0 113#F26DB0
(1493282359.361753) can0 1BFC38B1#0000000000000000
(1493282359.362134) can0 1BFC38BB#FFFFFFFFFFFFFFFF
(1493282359.362363) can0 1BFC38BA#535553500000001A
(1493282359.362742) can0 1BFC38B9#010296408005A3F4
(1493282359.363012) can0 1BFC38B8#0000000800000000
(1493282359.363392) can0 1BFC38B7#80016484250202E4
(1493282359.363740) can0 1BFC38B6#0000164A000034A8
(1493282359.364030) can0 1BFC38B5#0502FF1202028A12
(1493282359.364375) can0 1BFC38B4#110F01010000A216
(1493282359.364624) can0 1BFC38B3#800164843100DDCC
(1493282359.364894) can0 1BFC38B2#80016484838300FF
(1493282359.370963) can0 30B#7F00110000000098
(1493282359.375131) can0 3C0#6A7E1335
(1493282359.379788) can0 1FD#0000000000000000
(1493282359.396776) can0 432#404DAE40AF580424
(1493282359.420753) can0 30B#7F00110000000098
(1493282359.439501) can0 1FD#0000000000000000
(1493282359.446894) can0 03D#57FE876F6D306426
(1493282359.470264) can0 30B#7F00110000000098
(1493282359.478495) can0 3C0#6A7E1335
(1493282359.497051) can0 69B#54C7E27A7002501A
(1493282359.499498) can0 1FD#0000000000000000
(1493282359.520505) can0 6C7#04051101020000
(1493282359.520745) can0 30B#7F00110000000098
(1493282359.520998) can0 5F2#BD00
(1493282359.547134) can0 3F4#A9E3271637
(1493282359.559538) can0 1FD#0000000000000000
(1493282359.570372) can0 30B#7F00110000000098
(1493282359.582203) can0 3C0#6A7E1335
(1493282359.597272) can0 2F7#58E9E5342A910D3F
(1493282359.613006) can0 1BFC38B1#0000000000000000
(1493282359.613391) can0 1BFC38BB#FFFFFFFFFFFFFFFF
(1493282359.613578) can0 1BFC38BA#535553500000001A
(1493282359.613972) can0 1BFC38B9#020096408008FC68
(1493282359.614219) can0 1BFC38B8#0000000800000000
(1493282359.614594) can0 1BFC38B7#8001648425020220
(1493282359.614856) can0 1BFC38B6#0000164D00000000
(1493282359.615250) can0 1BFC38B5#0502FF1202028A12
(1493282359.615472) can0 1BFC38B4#110F01010000A216
(1493282359.615844) can0 1BFC38B3#800164843100DDCC
(1493282359.616139) can0 1BFC38B2#80016484838300FF
(1493282359.621123) can0 1FD#0000000000000000
(1493282359.621515) can0 30B#7F00110000000098
(1493282359.621718) can0 65E#88080137B7E10B00
(1493282359.630779) can0 62F#445100091F
(1493282359.647502) can0 56E#7FB7
(1493282359.670242) can0 30B#7F00110000000098
(1493282359.679616) can0 1FD#0000000000000000
(1493282359.685853) can0 3C0#6A7E1335
(1493282359.697759) can0 32B#EA43F6443E1C25
(1493282359.720609) can0 6C7#04051101020000
(1493282359.720859) can0 30B#7F00110000000098
(1493282359.720967) can0 5F2#BD00
(1493282359.739517) can0 1FD#0000000000000000
(1493282359.747883) can0 11A#C163D3654CE5620F
(1493282359.770230) can0 30B#7F00110000000098
(1493282359.789728) can0 3C0#6A7E1335
(1493282359.798001) can0 138#FB
(1493282359.799489) can0 1FD#0000000000000000
(1493282359.820602) can0 30B#7F00110000000098
(1493282359.848052) can0 5DD#E2A1
(1493282359.859478) can0 1FD#0000000000000000
(1493282359.861875) can0 1BFC38B1#0000000000000000
(1493282359.862089) can0 1BFC38BB#FFFFFFFFFFFFFFFF
(1493282359.862473) can0 1BFC38BA#0000000700000014
(1493282359.862722) can0 1BFC38B9#020096408008FC68
(1493282359.863098) can0 1BFC38B8#0000000800000000
(1493282359.863347) can0 1BFC38B7#8001648425020220
(1493282359.863719) can0 1BFC38B6#0000164F00000000
(1493282359.863975) can0 1BFC38B5#0502FF1202028A12
(1493282359.864363) can0 1BFC38B4#110F01010000A216
(1493282359.864728) can0 1BFC38B3#800164843100DDCC
(1493282359.865000) can0 1BFC38B2#80016484838300FF
(1493282359.870980) can0 30B#7F00110000000098
(1493282359.893431) can0 3C0#6A7E1335
(1493282359.898238) can0 29E#E92E1955920E
(1493282359.920595) can0 6C7#04051101020000
(1493282359.920841) can0 1FD#0000000000000000
(1493282359.921093) can0 30B#7F00110000000098
(1493282359.921376) can0 5F2#BC00
(1493282359.948492) can0 60C#CA8B
(1493282359.970341) can0 30B#7F00110000000098
(1493282359.979596) can0 1FD#0000000000000000
(1493282359.996834) can0 3C0#6A7E1335
(1493282359.998550) can0 5EE#2D32
(1493282360.020588) can0 30B#7F00110000000098
(1493282360.039448) can0 1FD#0000000000000000
(1493282360.048856) can0 384#E9B1D748B0AEE154
(1493282360.070346) can0 30B#7F00110000000098
(1493282360.098922) can0 2F4#EECA06
(1493282360.099541) can0 1FD#0000000000000000
(1493282360.100321) can0 3C0#6A7E1335
(1493282360.113088) can0 1BFC38B1#0000000000000000
(1493282360.113479) can0 1BFC38BB#FFFFFFFFFFFFFFFF
(1493282360.113708) can0 1BFC38BA#0000000700000014
(1493282360.114105) can0 1BFC38B9#020096408008FC68
(1493282360.114298) can0 1BFC38B8#0000000800000000
(1493282360.114689) can0 1BFC38B7#8001648425020220
(1493282360.114938) can0 1BFC38B6#000016520000A216
(1493282360.115310) can0 1BFC38B5#0502FF1202028A12
(1493282360.115686) can0 1BFC38B4#110F01010000A216
(1493282360.115974) can0 1BFC38B3#800164843100FFEE
(1493282360.116206) can0 1BFC38B2#8001648483838053
(1493282360.119486) can0 6C7#04051101020000
(1493282360.119724) can0 30B#7F00110000000098
(1493282360.119952) can0 5F2#BC00
(1493282360.120074) can0 643#000200
(1493282360.120453) can0 64E#00A2160000000000
(1493282360.120732) can0 65E#880819C58E690A00
(1493282360.120971) can0 6B8#6D08000000000000
(1493282360.121174) can0 6BC#62822651324C0734
(1493282360.149080) can0 7AF#5A11C018E7B8EA2D
(1493282360.159444) can0 1FD#0000000000000000
(1493282360.170328) can0 30B#7F00110000000098
(1493282360.199343) can0 7B1#5C2A455A8E
(1493282360.203540) can0 3C0#6A7E1335
(1493282360.220827) can0 1FD#0000000000000000
(1493282360.221074) can0 30B#7F00110000000098
(1493282360.230442) can0 6B6#390C1C00091F
(1493282360.230711) can0 6B7#BEB4000008FF80FE
(1493282360.249502) can0 3A7#07E2784245DE8D3F
(1493282360.270319) can0 30B#7F00110000000098
(1493282360.279573) can0 1FD#0000000000000000
(1493282360.299583) can0 574#
(1493282360.307038) can0 3C0#6A7E1335
(1493282360.320593) can0 6C7#04051101020000
(1493282360.320813) can0 30B#7F00110000000098
(1493282360.321080) can0 5F2#BC00
(1493282360.339447) can0 1FD#0000000000000000
(1493282360.349751) can0 383#83CC
(1493282360.361799) can0 1BFC38B1#0000000000000000
(1493282360.362051) can0 1BFC38BB#FFFFFFFFFFFFFFFF
(1493282360.362431) can0 1BFC38BA#0000000700000014
(1493282360.362652) can0 1BFC38B9#020096408008FC68
(1493282360.363020) can0 1BFC38B8#0000000800000000
(1493282360.363389) can0 1BFC38B7#8001648425020220
(1493282360.363646) can0 1BFC38B6#0000165402028A12
(1493282360.363897) can0 1BFC38B5#0502FF1202028A12
(1493282360.364278) can0 1BFC38B4#110F01010000A216
(1493282360.364699) can0 1BFC38B3#800164843100FFEE
(1493282360.364940) can0 1BFC38B2#8001648483838053
(1493282360.370910) can0 30B#7F00110000000098
(1493282360.399428) can0 1FD#0000000000000000
(1493282360.399808) can0 5C4#CD
(1493282360.410942) can0 3C0#6A7E1335
(1493282360.420714) can0 30B#7F00110000000098
(1493282360.450070) can0 05E#F997CD1C52F3
(1493282360.459444) can0 1FD#0000000000000000
(1493282360.470258) can0 30B#7F00110000000098
(1493282360.500143) can0 489#601F5F67384C60
(1493282360.514896) can0 3C0#6A7E1335
(1493282360.520679) can0 6C7#04051101020000
(1493282360.520919) can0 1FD#0000000000000000
(1493282360.521191) can0 30B#7F00110000000098
(1493282360.521309) can0 5F2#BB00
(1493282360.550303) can0 197#1F054B0B48710A11
(1493282360.570329) can0 30B#7F00110000000098
(1493282360.579704) can0 1FD#0000000000000000
(1493282360.600566) can0 00F#D626BA18B60B5D3B
(1493282360.612924) can0 1BFC38B1#0000000000000000
(1493282360.613294) can0 1BFC38BB#FFFFFFFFFFFFFFFF
(1493282360.613668) can0 1BFC38BA#0000000700000014
(1493282360.613931) can0 1BFC38B9#030296408005A3F4
(1493282360.614310) can0 1BFC38B8#0000000800000000
(1493282360.614541) can0 1BFC38B7#8005AABC5502055B
(1493282360.614928) can0 1BFC38B6#0000165700000000
(1493282360.615197) can0 1BFC38B5#0502FF1202028A12
(1493282360.615553) can0 1BFC38B4#110F01010000A216
(1493282360.615758) can0 1BFC38B3#800164843100FFEE
(1493282360.616165) can0 1BFC38B2#8001648483838053
(1493282360.618388) can0 3C0#6A7E1335
(1493282360.621201) can0 30B#7F00110000000098
(1493282360.621416) can0 65E#88085045AA150A00
(1493282360.630956) can0 62F#4451000920
(1493282360.639426) can0 1FD#0000000000000000
(1493282360.650663) can0 3B9#FBE9EA7A2E31390D
(1493282360.670322) can0 30B#7F00110000000098
(1493282360.699419) can0 1FD#0000000000000000
(1493282360.700804) can0 1CE#AE5C2A
(1493282360.721155) can0 6C7#04051101020000
(1493282360.721404) can0 30B#7F00110000000098
(1493282360.721650) can0 5F2#BB00
(1493282360.721880) can0 3C0#6A7E1335
(1493282360.721883) can0 630#33E601000100
(1493282360.729914) can0 64E#00A2290000000000
(1493282360.750918) can0 775#C29E
(1493282360.759422) can0 1FD#0000000000000000
(1493282360.769536) can0 30B#7F00110000000098
(1493282360.801203) can0 7E3#
(1493282360.821160) can0 1FD#0000000000000000
(1493282360.821570) can0 30B#7F00110000000098
(1493282360.825150) can0 3C0#6A7E1335
(1493282360.851405) can0 246#9303F17FD0EE0119
(1493282360.861790) can0 1BFC38B1#0000000000000000
(1493282360.862212) can0 1BFC38BB#FFFFFFFFFFFFFFFF
(1493282360.862356) can0 1BFC38BA#535553500000001A
(1493282360.862792) can0 1BFC38B9#030296408005A3F4
(1493282360.863022) can0 1BFC38B8#0000000800000000
(1493282360.863416) can0 1BFC38B7#8005AABC5502055B
(1493282360.863679) can0 1BFC38B6#0000165900000000
(1493282360.864017) can0 1BFC38B5#0502FF1202028A12
(1493282360.864300) can0 1BFC38B4#110F01010000A216
(1493282360.864678) can0 1BFC38B3#800164843100FFEE
(1493282360.864902) can0 1BFC38B2#8001648483838053
(1493282360.871062) can0 30B#7F00110000000098
(1493282360.880781) can0 1FD#0000000000000000
(1493282360.901542) can0 163#083B62
(1493282360.920677) can0 6C7#04051101020000
(1493282360.920886) can0 30B#7F00110000000098
(1493282360.921001) can0 5F2#BA00
(1493282360.928600) can0 3C0#6A7E1335
(1493282360.939545) can0 1FD#0000000000000000
(1493282360.951801) can0 3AD#42248E6BBCD3B533
(1493282360.970395) can0 30B#7F00110000000098
(1493282360.999554) can0 1FD#0000000000000000
(1493282361.001909) can0 7A3#72DF126F5D6BD179
(1493282361.020653) can0 30B#7F00110000000098
(1493282361.032288) can0 3C0#6A7E1335
(1493282361.051900) can0 3F7#8B9C0A07C56D4052
(1493282361.059502) can0 1FD#0000000000000000
(1493282361.070418) can0 30B#7F00110000000098
(1493282361.102019) can0 041#17ABD847B6EF5620
(1493282361.113010) can0 1BFC38B1#0000000000000000
(1493282361.113264) can0 1BFC38BB#FFFFFFFFFFFFFFFF
(1493282361.113637) can0 1BFC38BA#535553500000001A
(1493282361.114029) can0 1BFC38B9#030296408005A3F4
(1493282361.114253) can0 1BFC38B8#0000000800000000
(1493282361.114645) can0 1BFC38B7#8005AABC5502055B
(1493282361.114905) can0 1BFC38B6#0000165C0000A229
(1493282361.115276) can0 1BFC38B5#0502FF1202028A12
(1493282361.115648) can0 1BFC38B4#110F01010000A229
(1493282361.115873) can0 1BFC38B3#8001648432404433
(1493282361.116117) can0 1BFC38B2#80016484838300AB
(1493282361.121115) can0 6C7#04051101020000
(1493282361.121520) can0 1FD#0000000000000000
(1493282361.121787) can0 30B#7F00110000000098
(1493282361.122002) can0 5F2#BA00
(1493282361.122103) can0 643#000200
(1493282361.122400) can0 64E#00A2290000000000
(1493282361.122756) can0 65E#8808D336BA890B00
(1493282361.123000) can0 6B8#6D08000000000000
(1493282361.123257) can0 6BC#62822651324C0737
(1493282361.136021) can0 3C0#6A7E1335
(1493282361.152147) can0 26B#F02C9E744E4A4545
(1493282361.169554) can0 30B#7F00110000000098
(1493282361.179756) can0 1FD#0000000000000000
(1493282361.202399) can0 569#8F5A34
(1493282361.221640) can0 30B#7F00110000000098
(1493282361.222255) can0 631#34D602
(1493282361.229418) can0 6B6#390C1C000920
(1493282361.229768) can0 6B7#BEB4000008FF80FE
(1493282361.229866) can0 62D#3491022601
(1493282361.239486) can0 1FD#0000000000000000
(1493282361.239982) can0 3C0#6A7E1335
(1493282361.252494) can0 1EF#801E
(1493282361.270130) can0 30B#7F00110000000098
(1493282361.299624) can0 1FD#0000000000000000
(1493282361.302670) can0 115#4DE62A50C2D4E435
(1493282361.321639) can0 6C7#04051101020000
(1493282361.321873) can0 30B#7F00110000000098
(1493282361.321997) can0 5F2#B900
(1493282361.343711) can0 3C0#6A7E1335
(1493282361.352758) can0 1B0#
(1493282361.359493) can0 1FD#0000000000000000
(1493282361.362123) can0 1BFC38B1#0000000000000000
(1493282361.362371) can0 1BFC38BA#535553500000001A
(1493282361.362762) can0 1BFC38BB#FFFFFFFFFFFFFFFF
(1493282361.362961) can0 1BFC38B9#030296408005A3F4
(1493282361.363378) can0 1BFC38B8#0000000800000000
(1493282361.363759) can0 1BFC38B7#8005AABC5502055B
(1493282361.363948) can0 1BFC38B6#0000165E000034A8
(1493282361.364402) can0 1BFC38B5#0502FF1202028A12
(1493282361.364662) can0 1BFC38B4#110F01010000A229
(1493282361.364997) can0 1BFC38B3#8001648432404433
(1493282361.365204) can0 1BFC38B2#80016484838300AB
(1493282361.370902) can0 30B#7F00110000000098
(1493282361.403033) can0 5A9#
(1493282361.421126) can0 1FD#0000000000000000
(1493282361.421529) can0 30B#7F00110000000098
(1493282361.447201) can0 3C0#6A7E1335
(1493282361.453004) can0 15E#6517BD719FF1C141
(1493282361.470364) can0 30B#7F00110000000098
(1493282361.479864) can0 1FD#0000000000000000
(1493282361.503251) can0 275#55E11862E12C4162
(1493282361.520861) can0 6C7#04051101020000
(1493282361.521098) can0 30B#7F00110000000098
(1493282361.521186) can0 5F2#B800
(1493282361.539487) can0 1FD#0000000000000000
(1493282361.550982) can0 3C0#6A7E1335
(1493282361.553360) can0 456#2F778627BFF1
(1493282361.570384) can0 30B#7F00110000000098
(1493282361.599482) can0 1FD#0000000000000000
(1493282361.603605) can0 1B9#6F213F43A9735A31
(1493282361.613011) can0 1BFC38B1#0000000000000000
(1493282361.613271) can0 1BFC38BB#FFFFFFFFFFFFFFFF
(1493282361.613649) can0 1BFC38BA#535553500000001A
(1493282361.613845) can0 1BFC38B9#040096408008FC68
(1493282361.614237) can0 1BFC38B8#0000000800000000
(1493282361.614615) can0 1BFC38B7#8001648425020296
(1493282361.614850) can0 1BFC38B6#0000166100000000
(1493282361.615247) can0 1BFC38B5#0502FF1202028A12
(1493282361.615468) can0 1BFC38B4#110F01010000A229
(1493282361.615705) can0 1BFC38B3#8001648432404433
(1493282361.616129) can0 1BFC38B2#80016484838300AB
(1493282361.619608) can0 30B#7F00110000000098
(1493282361.619883) can0 65E#88086155748E0800
(1493282361.630736) can0 62F#4451000921
(1493282361.653561) can0 7E1#FCA60127F7B05544
(1493282361.654334) can0 3C0#6A7E1335
(1493282361.659507) can0 1FD#0000000000000000
(1493282361.670379) can0 30B#7F00110000000098
(1493282361.703887) can0 178#B9853A7A2833851B
(1493282361.720610) can0 6C7#04051101020000
(1493282361.720840) can0 1FD#0000000000000000
(1493282361.721215) can0 30B#7F00110000000098
(1493282361.721218) can0 5F2#B800
(1493282361.753870) can0 7D9#7C3C6E7382EDE672
(1493282361.758198) can0 3C0#6A7E1335
(1493282361.770373) can0 30B#7F00110000000098
(1493282361.779869) can0 1FD#0000000000000000
(1493282361.804136) can0 628#2297631286072E7F
(1493282361.820611) can0 30B#7F00110000000098
(1493282361.839476) can0 1FD#0000000000000000
(1493282361.854226) can0 269#25F9EF40DFCCE716
(1493282361.861581) can0 3C0#6A7E1335
(1493282361.861829) can0 1BFC38B1#0000000000000000
(1493282361.862160) can0 1BFC38BB#FFFFFFFFFFFFFFFF
(1493282361.862536) can0 1BFC38BA#0000000700000014
(1493282361.862797) can0 1BFC38B9#040096408008FC68
(1493282361.863175) can0 1BFC38B8#0000000800000000
(1493282361.863566) can0 1BFC38B7#8001648425020296
(1493282361.863830) can0 1BFC38B6#0000166300000000
(1493282361.864091) can0 1BFC38B5#0502FF1202028A12
(1493282361.864478) can0 1BFC38B4#110F01010000A229
(1493282361.864724) can0 1BFC38B3#8001648432404433
(1493282361.865111) can0 1BFC38B2#80016484838300AB
(1493282361.870991) can0 30B#7F00110000000098
(1493282361.899460) can0 1FD#0000000000000000
(1493282361.904499) can0 104#C0F928795A7DD729
(1493282361.920597) can0 6C7#04051101020000
(1493282361.920979) can0 30B#7F00110000000098
(1493282361.921122) can0 5F2#B700
(1493282361.954579) can0 0C1#1A6F7C0D7A4A4861
(1493282361.959460) can0 1FD#0000000000000000
(1493282361.965190) can0 3C0#6A7E1335
(1493282361.970461) can0 30B#7F00110000000098
(1493282362.004739) can0 2AE#23BEA21290724A25
(1493282362.020712) can0 1FD#0000000000000000
(1493282362.020947) can0 30B#7F00110000000098
(1493282362.054941) can0 079#8723A069F1697037
(1493282362.068944) can0 3C0#6A7E1335
(1493282362.070437) can0 30B#7F00110000000098
(1493282362.079821) can0 1FD#0000000000000000
(1493282362.105086) can0 269#
(1493282362.112944) can0 1BFC38B1#0000000000000000
(1493282362.113319) can0 1BFC38BB#FFFFFFFFFFFFFFFF
(1493282362.113549) can0 1BFC38BA#0000000700000014
(1493282362.113971) can0 1BFC38B9#040096408008FC68
(1493282362.114316) can0 1BFC38B8#0000000800000000
(1493282362.114568) can0 1BFC38B7#8001648425020296
(1493282362.114817) can0 1BFC38B6#000016660000A229
(1493282362.115190) can0 1BFC38B5#0502FF1202028A12
(1493282362.115566) can0 1BFC38B4#110F01010000A229
(1493282362.115809) can0 1BFC38B3#8001648431009988
(1493282362.116191) can0 1BFC38B2#80016484838300F1
(1493282362.119443) can0 6C7#04051101020000
(1493282362.119694) can0 30B#7F00110000000098
(1493282362.119929) can0 5F2#B600
(1493282362.120027) can0 643#000200
(1493282362.120427) can0 64E#00A2290000000000
(1493282362.120686) can0 65E#880841D85E400500
(1493282362.120922) can0 6B8#6D08000000000000
(1493282362.121179) can0 6BC#62822651324C077B
(1493282362.139459) can0 1FD#0000000000000000
(1493282362.155218) can0 778#C5779D56A18D
(1493282362.170323) can0 30B#7F00110000000098
(1493282362.173060) can0 3C0#6A7E1335
(1493282362.199449) can0 1FD#0000000000000000
(1493282362.205459) can0 2C3#279560032D4D7A
(1493282362.220689) can0 30B#7F00110000000098
(1493282362.230316) can0 6B6#390C1C000921
(1493282362.230548) can0 6B7#BEB4000008FF80FE
(1493282362.255584) can0 56F#0C1A6240742ED82A
(1493282362.259560) can0 1FD#0000000000000000
(1493282362.270311) can0 30B#7F00110000000098
(1493282362.276666) can0 3C0#6A7E1335
(1493282362.305814) can0 0C8#CEABAF5489511961
(1493282362.320556) can0 6C7#04051101020000
(1493282362.320775) can0 1FD#0000000000000000
(1493282362.321003) can0 30B#7F00110000000098
(1493282362.321318) can0 5F2#B600
(1493282362.355956) can0 4BB#039C61426AC7A409
(1493282362.361802) can0 1BFC38B1#0000000000000000
(1493282362.362044) can0 1BFC38BB#FFFFFFFFFFFFFFFF
(1493282362.362452) can0 1BFC38BA#0000000700000014
(1493282362.362676) can0 1BFC38B9#040096408008FC68
(1493282362.363055) can0 1BFC38B8#0000000800000000
(1493282362.363475) can0 1BFC38B7#8001648425020296
(1493282362.363679) can0 1BFC38B6#0000166802028A12
(1493282362.363923) can0 1BFC38B5#0502FF1202028A12
(1493282362.364284) can0 1BFC38B4#110F01010000A229
(1493282362.364533) can0 1BFC38B3#8001648431009988
(1493282362.364937) can0 1BFC38B2#80016484838300F1
(1493282362.370910) can0 30B#7F00110000000098
(1493282362.379757) can0 1FD#0000000000000000
(1493282362.380293) can0 3C0#6A7E1335
(1493282362.406215) can0 372#FA39EF2EEB7B7E
(1493282362.420558) can0 30B#7F00110000000098
(1493282362.439560) can0 1FD#0000000000000000
(1493282362.456158) can0 746#DC
(1493282362.470319) can0 30B#7F00110000000098
(1493282362.483511) can0 3C0#6A7E1335
(1493282362.499541) can0 1FD#0000000000000000
(1493282362.506444) can0 6C1#F23B30233A
(1493282362.520540) can0 6C7#04051101020000
(1493282362.520790) can0 30B#7F00110000000098
(1493282362.520898) can0 5F2#B500
(1493282362.556554) can0 48B#DB6B4C484FE7D4
(1493282362.559534) can0 1FD#0000000000000000
(1493282362.570326) can0 30B#7F00110000000098
(1493282362.586752) can0 3C0#6A7E1335
(1493282362.606659) can0 29E#7C34
(1493282362.612913) can0 1BFC38B1#0000000000000000
(1493282362.613298) can0 1BFC38BB#FFFFFFFFFFFFFFFF
(1493282362.613681) can0 1BFC38BA#0000000700000014
(1493282362.613901) can0 1BFC38B9#050296408005A3F4
(1493282362.614298) can0 1BFC38B8#0000000800000000
(1493282362.614523) can0 1BFC38B7#80016484250202D2
(1493282362.614890) can0 1BFC38B6#0000166B00000000
(1493282362.615141) can0 1BFC38B5#0502FF1202028A12
(1493282362.615512) can0 1BFC38B4#110F01010000A229
(1493282362.615763) can0 1BFC38B3#8001648431009988
(1493282362.616181) can0 1BFC38B2#80016484838300F1
(1493282362.621172) can0 1FD#0000000000000000
(1493282362.621554) can0 30B#7F00110000000098
(1493282362.621777) can0 65E#88087888A4E60800
(1493282362.630671) can0 62F#4451000922
(1493282362.656810) can0 74F#82AEC87A17F85677
(1493282362.670309) can0 30B#7F00110000000098
(1493282362.679531) can0 1FD#0000000000000000
(1493282362.690016) can0 3C0#6A7E1335
(1493282362.707069) can0 254#
(1493282362.720667) can0 6C7#04051101020000
(1493282362.720899) can0 30B#7F00110000000098
(1493282362.721029) can0 5F2#B500
(1493282362.721416) can0 630#33E90500
(1493282362.739544) can0 1FD#0000000000000000
(1493282362.757191) can0 539#79AE1B23
(1493282362.770278) can0 30B#7F00110000000098
(1493282362.793899) can0 3C0#6A7E1335
(1493282362.799556) can0 1FD#0000000000000000
(1493282362.807268) can0 7CB#969C0A
(1493282362.820646) can0 30B#7F00110000000098
(1493282362.857513) can0 5F4#C1B0
(1493282362.859492) can0 1FD#0000000000000000
(1493282362.861802) can0 1BFC38B1#0000000000000000
(1493282362.862182) can0 1BFC38BB#FFFFFFFFFFFFFFFF
(1493282362.862377) can0 1BFC38BA#535553500000001A
(1493282362.862767) can0 1BFC38B9#050296408005A3F4
(1493282362.863014) can0 1BFC38B8#0000000800000000
(1493282362.863400) can0 1BFC38B7#80016484250202D2
(1493282362.863661) can0 1BFC38B6#0000166D00000000
(1493282362.864028) can0 1BFC38B5#0502FF1202028A12
(1493282362.864277) can0 1BFC38B4#110F01010000A229
(1493282362.864603) can0 1BFC38B3#8001648431009988
(1493282362.864871) can0 1BFC38B2#80016484838300F1
(1493282362.870998) can0 30B#7F00110000000098
(1493282362.897985) can0 3C0#6A7E1335
(1493282362.907674) can0 567#F02A1E
(1493282362.920539) can0 6C7#04051101020000
(1493282362.920768) can0 1FD#0000000000000000
(1493282362.921179) can0 30B#7F00110000000098
(1493282362.921283) can0 5F2#B500
(1493282362.957768) can0 06A#4249FB100863C53D
(1493282362.970289) can0 30B#7F00110000000098
(1493282362.979638) can0 1FD#0000000000000000
(1493282363.001494) can0 3C0#6A7E1335
(1493282363.007995) can0 7CD#16E3B50D1D27154F
(1493282363.020758) can0 30B#7F00110000000098
(1493282363.039503) can0 1FD#0000000000000000
(1493282363.058136) can0 446#341F6C469A2E381B
(1493282363.070258) can0 30B#7F00110000000098
(1493282363.099534) can0 1FD#0000000000000000
(1493282363.104731) can0 3C0#6A7E1335
(1493282363.108251) can0 3E9#A915AF3422
(1493282363.113127) can0 1BFC38B1#0000000000000000
(1493282363.113518) can0 1BFC38BB#FFFFFFFFFFFFFFFF
(1493282363.113727) can0 1BFC38BA#535553500000001A
(1493282363.113968) can0 1BFC38B9#050296408005A3F4
(1493282363.114357) can0 1BFC38B8#0000000800000000
(1493282363.114601) can0 1BFC38B7#80016484250202D2
(1493282363.114976) can0 1BFC38B6#000016700000A229
(1493282363.115229) can0 1BFC38B5#0502FF1202028A12
(1493282363.115610) can0 1BFC38B4#110F01010000A229
(1493282363.115851) can0 1BFC38B3#800164843100BBAA
(1493282363.116278) can0 1BFC38B2#8001648483838075
(1493282363.119479) can0 6C7#04051101020000
(1493282363.119731) can0 30B#7F00110000000098
(1493282363.119842) can0 5F2#B400
(1493282363.120160) can0 643#000200
(1493282363.120370) can0 64E#00A2290000000000
(1493282363.120667) can0 65E#8808B22690F10800
(1493282363.120995) can0 6B8#6D08000000000000
(1493282363.121231) can0 6BC#62822651324C077E
(1493282363.158452) can0 679#CD8127
(1493282363.159496) can0 1FD#0000000000000000
(1493282363.170267) can0 30B#7F00110000000098
(1493282363.208447) can0 496#558D03
(1493282363.208826) can0 3C0#6A7E1335
(1493282363.220775) can0 1FD#0000000000000000
(1493282363.220984) can0 30B#7F00110000000098
(1493282363.221241) can0 631#34C2030013000301
(1493282363.221504) can0 62D#349220C900
(1493282363.229869) can0 6B6#390C1C000922
(1493282363.230130) can0 6B7#BEB4000008FF80FE
(1493282363.258811) can0 0D5#413F747B3CA6
(1493282363.270246) can0 30B#7F00110000000098
(1493282363.279616) can0 1FD#0000000000000000
(1493282363.308863) can0 2C9#2F
(1493282363.312476) can0 3C0#6A7E1335
(1493282363.320490) can0 6C7#04051101020000
(1493282363.320860) can0 30B#7F00110000000098
(1493282363.320977) can0 5F2#B400
(1493282363.339478) can0 1FD#0000000000000000
(1493282363.359040) can0 0FC#3C
(1493282363.361738) can0 1BFC38B1#0000000000000000
(1493282363.362111) can0 1BFC38BB#FFFFFFFFFFFFFFFF
(1493282363.362511) can0 1BFC38BA#535553500000001A
(1493282363.362723) can0 1BFC38B9#050296408005A3F4
(1493282363.362945) can0 1BFC38B8#0000000800000000
(1493282363.363321) can0 1BFC38B7#80016484250202D2
(1493282363.363570) can0 1BFC38B6#00001672000034A8
(1493282363.363941) can0 1BFC38B5#0502FF1202028A12
(1493282363.364239) can0 1BFC38B4#110F01010000A229
(1493282363.364613) can0 1BFC38B3#800164843100BBAA
(1493282363.364820) can0 1BFC38B2#8001648483838075
(1493282363.370991) can0 30B#7F00110000000098
(1493282363.399527) can0 1FD#0000000000000000
(1493282363.409244) can0 72F#E6BF
(1493282363.416240) can0 3C0#6A7E1335
(1493282363.420636) can0 30B#7F00110000000098
(1493282363.459358) can0 2EB#0FCAA965D48E0C4E
(1493282363.459466) can0 1FD#0000000000000000
(1493282363.470363) can0 30B#7F00110000000098
(1493282363.509639) can0 7F0#F6EFA75769962047
(1493282363.520089) can0 3C0#6A7E1335
(1493282363.520560) can0 6C7#04051101020000
(1493282363.520820) can0 1FD#0000000000000000
(1493282363.521063) can0 30B#7F00110000000098
(1493282363.521306) can0 5F2#B300
(1493282363.559739) can0 3DC#AD24A5
(1493282363.570349) can0 30B#7F00110000000098
(1493282363.579730) can0 1FD#0000000000000000
(1493282363.609846) can0 026#FD42
(1493282363.612967) can0 1BFC38B1#0000000000000000
(1493282363.613340) can0 1BFC38BB#FFFFFFFFFFFFFFFF
(1493282363.613600) can0 1BFC38BA#535553500000001A
(1493282363.613836) can0 1BFC38B9#060096408008FC68
(1493282363.614222) can0 1BFC38B8#0000000800000000
(1493282363.614605) can0 1BFC38B7#800164842502020E
(1493282363.614837) can0 1BFC38B6#0000167500000000
(1493282363.615078) can0 1BFC38B5#0502FF1202028A12
(1493282363.615445) can0 1BFC38B4#110F01010000A229
(1493282363.615822) can0 1BFC38B3#800164843100BBAA
(1493282363.616118) can0 1BFC38B2#8001648483838075
(1493282363.621247) can0 30B#7F00110000000098
(1493282363.621477) can0 65E#880835C574240700
(1493282363.624212) can0 3C0#6A7E1335
(1493282363.630998) can0 62F#4451000923
(1493282363.639464) can0 1FD#0000000000000000
(1493282363.660097) can0 019#37D73617E21ACA45
(1493282363.670229) can0 30B#7F00110000000098
(1493282363.699465) can0 1FD#0000000000000000
(1493282363.710375) can0 46F#16E6E5676BED6C
(1493282363.720613) can0 6C7#04051101020000
(1493282363.720998) can0 30B#7F00110000000098
(1493282363.721103) can0 5F2#B200
(1493282363.727938) can0 3C0#6A7E1335
(1493282363.759456) can0 1FD#0000000000000000
(1493282363.760449) can0 0D8#3586
(1493282363.770369) can0 30B#7F00110000000098
(1493282363.810592) can0 5A4#7D9B796F8FC8732B
(1493282363.820577) can0 1FD#0000000000000000
(1493282363.820810) can0 30B#7F00110000000098
(1493282363.831546) can0 3C0#6A7E1335
(1493282363.860734) can0 536#63578079266DB369
(1493282363.861855) can0 1BFC38B1#0000000000000000
(1493282363.862068) can0 1BFC38BB#FFFFFFFFFFFFFFFF
(1493282363.862461) can0 1BFC38BA#0000000700000014
(1493282363.862679) can0 1BFC38B9#060096408008FC68
(1493282363.863053) can0 1BFC38B8#0000000800000000
(1493282363.863429) can0 1BFC38B7#800164842502020E
(1493282363.863676) can0 1BFC38B6#0000167700000000
(1493282363.863954) can0 1BFC38B5#0502FF1202028A12
(1493282363.864355) can0 1BFC38B4#110F01010000A229
(1493282363.864727) can0 1BFC38B3#800164843100BBAA
(1493282363.864993) can0 1BFC38B2#8001648483838075
(1493282363.870982) can0 30B#7F00110000000098
(1493282363.879824) can0 1FD#0000000000000000
(1493282363.910824) can0 546#8F03D43022E99F61
(1493282363.920568) can0 6C7#04051101020000
(1493282363.920821) can0 30B#7F00110000000098
(1493282363.921060) can0 5F2#B200
(1493282363.935282) can0 3C0#6A7E1335
(1493282363.939442) can0 1FD#0000000000000000
(1493282363.960966) can0 11C#9439997D4249F96E
(1493282363.970319) can0 30B#7F00110000000098
(1493282363.999443) can0 1FD#0000000000000000
(1493282364.011067) can0 23F#3D7A
(1493282364.020592) can0 30B#7F00110000000098
(1493282364.039032) can0 3C0#6A7E1335
(1493282364.059436) can0 1FD#0000000000000000
(1493282364.061246) can0 6D0#3AE5907E40
(1493282364.070308) can0 30B#7F00110000000098
(1493282364.111434) can0 0DC#
(1493282364.112932) can0 1BFC38B1#0000000000000000
(1493282364.113306) can0 1BFC38BB#FFFFFFFFFFFFFFFF
(1493282364.113548) can0 1BFC38BA#0000000700000014
(1493282364.113930) can0 1BFC38B9#060096408008FC68
(1493282364.114307) can0 1BFC38B8#0000000800000000
(1493282364.114575) can0 1BFC38B7#800164842502020E
(1493282364.114931) can0 1BFC38B6#0000167A0000A229
(1493282364.115178) can0 1BFC38B5#0502FF1202028A12
(1493282364.115553) can0 1BFC38B4#110F01010000A229
(1493282364.115803) can0 1BFC38B3#80016484324000FF
(1493282364.116192) can0 1BFC38B2#80016484838300BD
(1493282364.119461) can0 6C7#04051101020000
(1493282364.119720) can0 1FD#0000000000000000
(1493282364.119974) can0 30B#7F00110000000098
(1493282364.120178) can0 5F2#B100
(1493282364.120444) can0 643#000200
(1493282364.120691) can0 64E#00A2290000000000
(1493282364.120947) can0 65E#88088DF69F780A00
(1493282364.121175) can0 6B8#6D08000000000000
(1493282364.121397) can0 6BC#62822651324C077F
(1493282364.142519) can0 3C0#6A7E1335
(1493282364.161468) can0 7A2#
(1493282364.170316) can0 30B#7F00110000000098
(1493282364.179681) can0 1FD#0000000000000000
(1493282364.211692) can0 4FC#D6CD0F0F32CA2A28
(1493282364.220563) can0 30B#7F00110000000098
(1493282364.229676) can0 6B6#390C1C000923
(1493282364.229916) can0 6B7#BEB4000008FF80FE
(1493282364.239421) can0 1FD#0000000000000000
(1493282364.246265) can0 3C0#6A7E1335
(1493282364.261801) can0 2C7#5937DE110DA87739
(1493282364.270420) can0 30B#7F00110000000098
(1493282364.299428) can0 1FD#0000000000000000
(1493282364.311922) can0 493#2F91171BB025B070
(1493282364.320546) can0 6C7#04051101020000
(1493282364.320794) can0 30B#7F00110000000098
(1493282364.320906) can0 5F2#B100
(1493282364.349403) can0 3C0#6A7E1335
(1493282364.359418) can0 1FD#0000000000000000
(1493282364.361802) can0 1BFC38B1#0000000000000000
(1493282364.362011) can0 325#F26EA9
(1493282364.362014) can0 1BFC38BB#FFFFFFFFFFFFFFFF
(1493282364.362397) can0 1BFC38BA#0000000700000014
(1493282364.362773) can0 1BFC38B9#060096408008FC68
(1493282364.363142) can0 1BFC38B8#0000000800000000
(1493282364.363395) can0 1BFC38B7#800164842502020E
(1493282364.363767) can0 1BFC38B6#0000167C02028A12
(1493282364.364033) can0 1BFC38B5#0502FF1202028A12
(1493282364.364444) can0 1BFC38B4#110F01010000A229
(1493282364.364712) can0 1BFC38B3#80016484324000FF
(1493282364.365040) can0 1BFC38B2#80016484838300BD
(1493282364.370929) can0 30B#7F00110000000098
(1493282364.412334) can0 755#
(1493282364.420538) can0 1FD#0000000000000000
(1493282364.420914) can0 30B#7F00110000000098
(1493282364.453246) can0 3C0#6A7E1335
(1493282364.462389) can0 2A5#6631E34C816B
(1493282364.470446) can0 30B#7F00110000000098
(1493282364.479661) can0 1FD#0000000000000000
(1493282364.512543) can0 047#35
(1493282364.520531) can0 6C7#04051101020000
(1493282364.520805) can0 30B#7F00110000000098
(1493282364.520908) can0 5F2#B000
(1493282364.539409) can0 1FD#0000000000000000
(1493282364.557053) can0 3C0#6A7E1335
(1493282364.562661) can0 0F2#309D
(1493282364.570400) can0 30B#7F00110000000098
(1493282364.599425) can0 1FD#0000000000000000
(1493282364.612904) can0 42C#20D8F237F38E79
(1493282364.612906) can0 1BFC38B1#0000000000000000
(1493282364.613285) can0 1BFC38BB#FFFFFFFFFFFFFFFF
(1493282364.613773) can0 1BFC38BA#0000000700000014
(1493282364.614012) can0 1BFC38B9#070296408005A3F4
(1493282364.614399) can0 1BFC38B8#0000000800000000
(1493282364.614646) can0 1BFC38B7#800164842502024A
(1493282364.615037) can0 1BFC38B6#0000167F00000000
(1493282364.615408) can0 1BFC38B5#0502FF1202028A12
(1493282364.615683) can0 1BFC38B4#110F01010000A229
(1493282364.615894) can0 1BFC38B3#80016484324000FF
(1493282364.616284) can0 1BFC38B2#80016484838300BD
(1493282364.621180) can0 30B#7F00110000000098
(1493282364.621442) can0 65E#880895E3A2690A00
(1493282364.630524) can0 62F#4451000924
(1493282364.659354) can0 1FD#0000000000000000
(1493282364.660516) can0 3C0#6A7E1335
(1493282364.663018) can0 041#0037F166D4FC4D3F
(1493282364.670427) can0 30B#7F00110000000098
(1493282364.713145) can0 262#8422FE2F87ADAE70
(1493282364.720669) can0 6C7#04051101020000
(1493282364.720891) can0 1FD#0000000000000000
(1493282364.721265) can0 30B#7F00110000000098
(1493282364.721350) can0 5F2#B000
(1493282364.721639) can0 630#33EA010000
(1493282364.763231) can0 2F2#EBEAFB0E48DA6C
(1493282364.763967) can0 3C0#6A7E1335
(1493282364.770386) can0 30B#7F00110000000098
(1493282364.779669) can0 1FD#0000000000000000
(1493282364.813550) can0 2A7#6E2000024CB5A4
(1493282364.820776) can0 30B#7F00110000000098
(1493282364.839386) can0 1FD#0000000000000000
(1493282364.861760) can0 1BFC38B1#0000000000000000
(1493282364.861987) can0 1BFC38BB#FFFFFFFFFFFFFFFF
(1493282364.862385) can0 1BFC38BA#535553500000001A
(1493282364.862594) can0 1BFC38B9#070296408005A3F4
(1493282364.863015) can0 1BFC38B8#0000000800000000
(1493282364.863395) can0 1BFC38B7#800164842502024A
(1493282364.863514) can0 79D#CD20964B
(1493282364.863583) can0 1BFC38B6#0000168100000000
(1493282364.863871) can0 1BFC38B5#0502FF1202028A12
(1493282364.864349) can0 1BFC38B4#110F01010000A229
(1493282364.864598) can0 1BFC38B3#80016484324000FF
(1493282364.864965) can0 1BFC38B2#80016484838300BD
(1493282364.867462) can0 3C0#6A7E1335
(1493282364.870973) can0 30B#7F00110000000098
(1493282364.899377) can0 1FD#0000000000000000
(1493282364.913745) can0 3E5#CE2F
(1493282364.920628) can0 6C7#04051101020000
(1493282364.920880) can0 30B#7F00110000000098
(1493282364.921133) can0 5F2#AF00
(1493282364.959378) can0 1FD#0000000000000000
(1493282364.963925) can0 4F4#C5D2290820490207
(1493282364.970360) can0 30B#7F00110000000098
(1493282364.970951) can0 3C0#6A7E1335
(1493282365.014017) can0 005#13D87B3446C8
(1493282365.020749) can0 1FD#0000000000000000
(1493282365.020994) can0 30B#7F00110000000098
(1493282365.064262) can0 25F#1BC508
(1493282365.070368) can0 30B#7F00110000000098
(1493282365.074481) can0 3C0#6A7E1335
(1493282365.079649) can0 1FD#0000000000000000
(1493282365.112867) can0 1BFC38B1#0000000000000000
(1493282365.113239) can0 1BFC38BB#FFFFFFFFFFFFFFFF
(1493282365.113483) can0 1BFC38BA#535553500000001A
(1493282365.113860) can0 1BFC38B9#070296408005A3F4
(1493282365.114112) can0 1BFC38B8#0000000800000000
(1493282365.114367) can0 742#48B21F07356A2F38
(1493282365.114479) can0 1BFC38B7#800164842502024A
(1493282365.114987) can0 1BFC38B6#000016840000A229
(1493282365.115364) can0 1BFC38B5#0502FF1202028A12
(1493282365.115616) can0 1BFC38B4#110F01010000A229
(1493282365.115991) can0 1BFC38B3#8001648431005544
(1493282365.116241) can0 1BFC38B2#8001648483830033
(1493282365.121112) can0 6C7#04051101020000
(1493282365.121365) can0 30B#7F00110000000098
(1493282365.121482) can0 5F2#AF00
(1493282365.121740) can0 643#000200
(1493282365.121983) can0 64E#00A2290000000000
(1493282365.122377) can0 65E#88083DA8BA390D00
(1493282365.122587) can0 6B8#6D08000000000000
(1493282365.122943) can0 6BC#62822651324C078D
(1493282365.139382) can0 1FD#0000000000000000
(1493282365.164654) can0 116#7D449C
(1493282365.170360) can0 30B#7F00110000000098
(1493282365.177729) can0 3C0#6A7E1335
(1493282365.199399) can0 1FD#0000000000000000
(1493282365.214752) can0 7DA#09A9CA17786FE037
(1493282365.220770) can0 30B#7F00110000000098
(1493282365.221151) can0 631#34C37807FE000000
(1493282365.221521) can0 62D#349302E900
(1493282365.229617) can0 6B6#390C1C000924
(1493282365.230060) can0 6B7#BEB4000008FF80FE
(1493282365.259483) can0 1FD#0000000000000000
(1493282365.264846) can0 6BF#5C07B12FA412
(1493282365.270397) can0 30B#7F00110000000098
(1493282365.281574) can0 3C0#6A7E1335
(1493282365.315007) can0 7D9#7CD76417CDD4C23B
(1493282365.320598) can0 6C7#04051101020000
(1493282365.320894) can0 1FD#0000000000000000
(1493282365.321065) can0 30B#7F00110000000098
(1493282365.321375) can0 5F2#AF00
(1493282365.361746) can0 1BFC38B1#0000000000000000
(1493282365.362112) can0 1BFC38BB#FFFFFFFFFFFFFFFF
(1493282365.362348) can0 1BFC38BA#535553500000001A
(1493282365.362742) can0 1BFC38B9#070296408005A3F4
(1493282365.362970) can0 1BFC38B8#0000000800000000
(1493282365.363346) can0 1BFC38B7#800164842502024A
(1493282365.363610) can0 1BFC38B6#00001686000034A8
(1493282365.363973) can0 1BFC38B5#0502FF1202028A12
(1493282365.364222) can0 1BFC38B4#110F01010000A229
(1493282365.364595) can0 1BFC38B3#8001648431005544
(1493282365.364846) can0 1BFC38B2#8001648483830033
(1493282365.365066) can0 429#EE
(1493282365.370952) can0 30B#7F00110000000098
(1493282365.379700) can0 1FD#0000000000000000
(1493282365.385332) can0 3C0#6A7E1335
(1493282365.415370) can0 527#75
(1493282365.420729) can0 30B#7F00110000000098
(1493282365.439485) can0 1FD#0000000000000000
(1493282365.465332) can0 515#
(1493282365.470341) can0 30B#7F00110000000098
(1493282365.488702) can0 3C0#6A7E1335
(1493282365.499462) can0 1FD#0000000000000000
(1493282365.515617) can0 12F#8C
(1493282365.520582) can0 6C7#04051101020000
(1493282365.520862) can0 30B#7F00110000000098
(1493282365.521082) can0 5F2#AE00
(1493282365.559465) can0 1FD#0000000000000000
(1493282365.565714) can0 3C4#031EBF1C9FF37019
(1493282365.570335) can0 30B#7F00110000000098
(1493282365.592069) can0 3C0#6A7E1335
(1493282365.612956) can0 1BFC38B1#0000000000000000
(1493282365.613207) can0 1BFC38BB#FFFFFFFFFFFFFFFF
(1493282365.613578) can0 1BFC38BA#535553500000001A
(1493282365.613859) can0 1BFC38B9#000096408008FC68
(1493282365.614188) can0 1BFC38B8#0000000800000000
(1493282365.614446) can0 1BFC38B7#8001648425020286
(1493282365.614809) can0 1BFC38B6#0000168900000000
(1493282365.615092) can0 1BFC38B5#0502FF1202028A12
(1493282365.615436) can0 1BFC38B4#110F01010000A229
(1493282365.615683) can0 1BFC38B3#8001648431005544
(1493282365.615927) can0 7F4#17635151B3A60B08
(1493282365.616068) can0 1BFC38B2#8001648483830033
(1493282365.621238) can0 1FD#0000000000000000
(1493282365.621465) can0 30B#7F00110000000098
(1493282365.621682) can0 65E#8808D4D576D00800
(1493282365.630579) can0 62F#4451000925
(1493282365.665967) can0 0E3#58B90E
(1493282365.670330) can0 30B#7F00110000000098
(1493282365.679581) can0 1FD#0000000000000000
(1493282365.695417) can0 3C0#6A7E1335
(1493282365.716212) can0 19E#8A1DEC6B
(1493282365.720572) can0 6C7#04051101020000
(1493282365.720866) can0 30B#7F00110000000098
(1493282365.721058) can0 5F2#AE00
(1493282365.739474) can0 1FD#0000000000000000
(1493282365.766361) can0 315#F5E1F8233D90AD3D
(1493282365.770323) can0 30B#7F00110000000098
(1493282365.798814) can0 3C0#6A7E1335
(1493282365.799402) can0 1FD#0000000000000000
(1493282365.816455) can0 179#C49F46278E36A038
(1493282365.820569) can0 30B#7F00110000000098
(1493282365.859440) can0 1FD#0000000000000000
(1493282365.861697) can0 1BFC38B1#0000000000000000
(1493282365.862065) can0 1BFC38BB#FFFFFFFFFFFFFFFF
(1493282365.862438) can0 1BFC38BA#0000000700000014
(1493282365.862690) can0 1BFC38B9#000096408008FC68
(1493282365.863067) can0 1BFC38B8#0000000800000000
(1493282365.863315) can0 1BFC38B7#8001648425020286
(1493282365.863690) can0 1BFC38B6#0000168B00000000
(1493282365.863950) can0 1BFC38B5#0502FF1202028A12
(1493282365.864341) can0 1BFC38B4#110F01010000A229
(1493282365.864527) can0 1BFC38B3#8001648431005544
(1493282365.864948) can0 1BFC38B2#8001648483830033
(1493282365.866592) can0 7FA#E612C4682A61A22F
(1493282365.870973) can0 30B#7F00110000000098
(1493282365.902332) can0 3C0#6A7E1335
(1493282365.916766) can0 29D#708B
(1493282365.920682) can0 6C7#04051101020000
(1493282365.920942) can0 1FD#0000000000000000
(1493282365.921310) can0 30B#7F00110000000098
(1493282365.921422) can0 5F2#AD00
(1493282365.966808) can0 47C#01D230
(1493282365.970310) can0 30B#7F00110000000098
(1493282365.979554) can0 1FD#0000000000000000
(1493282366.006180) can0 3C0#6A7E1335
(1493282366.016964) can0 080#247B9E7864016F60
(1493282366.020679) can0 30B#7F00110000000098
(1493282366.039460) can0 1FD#0000000000000000
(1493282366.067037) can0 78B#204A98102941624A
(1493282366.070307) can0 30B#7F00110000000098
(1493282366.099476) can0 1FD#0000000000000000
(1493282366.109910) can0 3C0#6A7E1335
(1493282366.112954) can0 1BFC38B1#0000000000000000
(1493282366.113326) can0 1BFC38BB#FFFFFFFFFFFFFFFF
(1493282366.113585) can0 1BFC38BA#0000000700000014
(1493282366.113919) can0 1BFC38B9#000096408008FC68
(1493282366.114278) can0 1BFC38B8#0000000800000000
(1493282366.114542) can0 1BFC38B7#8001648425020286
(1493282366.114776) can0 1BFC38B6#0000168E0000A229
(1493282366.115153) can0 1BFC38B5#0502FF1202028A12
(1493282366.115400) can0 1BFC38B4#110F01010000A229
(1493282366.115771) can0 1BFC38B3#8001648431007766
(1493282366.116058) can0 1BFC38B2#8001648483838077
(1493282366.117320) can0 550#F0E63A1F6500233C
(1493282366.119403) can0 6C7#04051101020000
(1493282366.119650) can0 30B#7F00110000000098
(1493282366.119908) can0 5F2#AD00
(1493282366.120021) can0 643#000200
(1493282366.120340) can0 64E#00A2290000000000
(1493282366.120684) can0 65E#8808C4E993270A00
(1493282366.120923) can0 6B8#6D08000000000000
(1493282366.121277) can0 6BC#62822651324C078E
(1493282366.159419) can0 1FD#0000000000000000
(1493282366.167432) can0 322#A290D0799CD4
(1493282366.170299) can0 30B#7F00110000000098
(1493282366.213786) can0 3C0#6A7E1335
(1493282366.217591) can0 750#2A0BC8094B5F
(1493282366.220543) can0 1FD#0000000000000000
(1493282366.220913) can0 30B#7F00110000000098
(1493282366.229818) can0 6B6#390C1C000925
(1493282366.230079) can0 6B7#BEB4000008FF80FE
(1493282366.267682) can0 473#
(1493282366.270287) can0 30B#7F00110000000098
(1493282366.279666) can0 1FD#0000000000000000
(1493282366.317268) can0 3C0#6A7E1335
(1493282366.317770) can0 783#723DA242FF
(1493282366.320563) can0 6C7#04051101020000
(1493282366.320791) can0 30B#7F00110000000098
(1493282366.321076) can0 5F2#AD00
(1493282366.339410) can0 1FD#0000000000000000
(1493282366.361672) can0 1BFC38B1#0000000000000000
(1493282366.362029) can0 1BFC38BB#FFFFFFFFFFFFFFFF
(1493282366.362443) can0 1BFC38BA#0000000700000014
(1493282366.362644) can0 1BFC38B9#000096408008FC68
(1493282366.363031) can0 1BFC38B8#0000000800000000
(1493282366.363285) can0 1BFC38B7#8001648425020286
(1493282366.363657) can0 1BFC38B6#0000169002028A12
(1493282366.363906) can0 1BFC38B5#0502FF1202028A12
(1493282366.364289) can0 1BFC38B4#110F01010000A229
(1493282366.364544) can0 1BFC38B3#8001648431007766
(1493282366.364915) can0 1BFC38B2#8001648483838077
(1493282366.367919) can0 558#6F303D
(1493282366.370938) can0 30B#7F00110000000098
(1493282366.399408) can0 1FD#0000000000000000
(1493282366.418030) can0 48B#3D678B
(1493282366.420510) can0 30B#7F00110000000098
(1493282366.420875) can0 3C0#6A7E1335
(1493282366.459399) can0 1FD#0000000000000000
(1493282366.468270) can0 00F#40253C605FA5A97D
(1493282366.470267) can0 30B#7F00110000000098
(1493282366.518431) can0 108#C5
(1493282366.520522) can0 6C7#04051101020000
(1493282366.520753) can0 1FD#0000000000000000
(1493282366.521016) can0 30B#7F00110000000098
(1493282366.521284) can0 5F2#AC00
(1493282366.524389) can0 3C0#6A7E1335
(1493282366.568515) can0 517#C69005706784B2
(1493282366.570261) can0 30B#7F00110000000098
(1493282366.579646) can0 1FD#0000000000000000
(1493282366.612920) can0 1BFC38B1#0000000000000000
(1493282366.613266) can0 1BFC38BB#FFFFFFFFFFFFFFFF
(1493282366.613503) can0 1BFC38BA#0000000700000014
(1493282366.613887) can0 1BFC38B9#010296408005A3F4
(1493282366.614274) can0 1BFC38B8#0000000800000000
(1493282366.614525) can0 1BFC38B7#80016484250202C2
(1493282366.614757) can0 1BFC38B6#0000169300000000
(1493282366.615120) can0 1BFC38B5#0502FF1202028A12
(1493282366.615370) can0 1BFC38B4#110F01010000A229
(1493282366.615743) can0 1BFC38B3#8001648431007766
(1493282366.615970) can0 1BFC38B2#8001648483838077
(1493282366.618757) can0 6CE#B2
(1493282366.621150) can0 30B#7F00110000000098
(1493282366.621389) can0 65E#880833848E630600
(1493282366.628000) can0 3C0#6A7E1335
(1493282366.630918) can0 62F#4451000926
(1493282366.639420) can0 1FD#0000000000000000
(1493282366.668756) can0 201#51AAFE138431FD
(1493282366.670288) can0 30B#7F00110000000098
(1493282366.699411) can0 1FD#0000000000000000
(1493282366.718845) can0 00C#838DA746
(1493282366.720997) can0 6C7#04051101020000
(1493282366.721372) can0 30B#7F00110000000098
(1493282366.721494) can0 5F2#AC00
(1493282366.721869) can0 630#33EB0102010000
(1493282366.729840) can0 64E#00A32D0000000000
(1493282366.731982) can0 3C0#6A7E1335
(1493282366.759382) can0 1FD#0000000000000000
(1493282366.769014) can0 737#3E4B25
(1493282366.771032) can0 30B#7F00110000000098
(1493282366.819270) can0 186#DA1FA3729649496D
(1493282366.821501) can0 1FD#0000000000000000
(1493282366.821914) can0 30B#7F00110000000098
(1493282366.835962) can0 3C0#6A7E1335
(1493282366.861874) can0 1BFC38B1#0000000000000000
(1493282366.862244) can0 1BFC38BA#535553500000001A
(1493282366.862498) can0 1BFC38BB#FFFFFFFFFFFFFFFF
(1493282366.862869) can0 1BFC38B9#010296408005A3F4
(1493282366.863261) can0 1BFC38B8#0000000800000000
(1493282366.863499) can0 1BFC38B7#80016484250202C2
(1493282366.863755) can0 1BFC38B6#0000169500000000
(1493282366.864200) can0 1BFC38B5#0502FF1202028A12
(1493282366.864366) can0 1BFC38B4#110F01010000A229
(1493282366.864746) can0 1BFC38B3#8001648431007766
(1493282366.864995) can0 1BFC38B2#8001648483838077
(1493282366.869361) can0 3D8#F5EEF26AE07C7C5F
(1493282366.870966) can0 30B#7F00110000000098
(1493282366.880745) can0 1FD#0000000000000000
(1493282366.919495) can0 14B#0B395A7E62260115
(1493282366.920867) can0 6C7#04051101020000
(1493282366.921107) can0 30B#7F00110000000098
(1493282366.921218) can0 5F2#AC00
(1493282366.939339) can0 1FD#0000000000000000
(1493282366.939975) can0 3C0#6A7E1335
(1493282366.969617) can0 322#CA
(1493282366.970363) can0 30B#7F00110000000098
(1493282366.999368) can0 1FD#0000000000000000
(1493282367.019878) can0 5C2#317D2D4AC41F8754
(1493282367.020609) can0 30B#7F00110000000098
(1493282367.043696) can0 3C0#6A7E1335
(1493282367.059357) can0 1FD#0000000000000000
(1493282367.069983) can0 2A4#4851
(1493282367.070186) can0 30B#7F00110000000098
(1493282367.112885) can0 1BFC38B1#0000000000000000
(1493282367.113226) can0 1BFC38BB#FFFFFFFFFFFFFFFF
(1493282367.113468) can0 1BFC38BA#535553500000001A
(1493282367.113854) can0 1BFC38B9#010296408005A3F4
(1493282367.114226) can0 1BFC38B8#0000000800000000
(1493282367.114493) can0 1BFC38B7#80016484250202C2
(1493282367.114728) can0 1BFC38B6#000016980000A32D
(1493282367.115107) can0 1BFC38B5#0502FF1202028A12
(1493282367.115477) can0 1BFC38B4#110F01010000A32D
(1493282367.115757) can0 1BFC38B3#800164843240CCBB
(1493282367.116088) can0 1BFC38B2#80016484838300EF
(1493282367.119335) can0 6C7#04051101020000
(1493282367.119583) can0 1FD#0000000000000000
(1493282367.119960) can0 30B#7F00110000000098
(1493282367.120103) can0 746#150873627E064133
(1493282367.120106) can0 5F2#AB00
(1493282367.120322) can0 643#000200
(1493282367.120743) can0 64E#00A32D0000000000
(1493282367.121116) can0 65E#8808F8F65AB90900
(1493282367.121351) can0 6B8#6D08000000000000
(1493282367.121613) can0 6BC#62822651324C0790
(1493282367.147446) can0 3C0#6A7E1335
(1493282367.170192) can0 4BF#41420A
(1493282367.170196) can0 30B#7F00110000000098
(1493282367.179851) can0 1FD#0000000000000000
(1493282367.220488) can0 5CE#DB4F1A54A7691D51
(1493282367.220492) can0 30B#7F00110000000098
(1493282367.221349) can0 631#34C414
(1493282367.221721) can0 62D#3482030012000300
(1493282367.229723) can0 6B6#390C1C000926
(1493282367.229969) can0 6B7#BEB4000008FF80FE
(1493282367.239498) can0 1FD#0000000000000000
(1493282367.251054) can0 3C0#6A7E1335
(1493282367.270234) can0 30B#7F00110000000098
(1493282367.270542) can0 735#87
(1493282367.299340) can0 1FD#0000000000000000
(1493282367.320473) can0 6C7#04051101020000
(1493282367.320718) can0 38B#E31E
(1493282367.320721) can0 30B#7F00110000000098
(1493282367.320957) can0 5F2#AB00
(1493282367.354327) can0 3C0#6A7E1335
(1493282367.359374) can0 1FD#0000000000000000
(1493282367.361699) can0 1BFC38B1#0000000000000000
(1493282367.362115) can0 1BFC38BB#FFFFFFFFFFFFFFFF
(1493282367.362322) can0 1BFC38BA#535553500000001A
(1493282367.362573) can0 1BFC38B9#010296408005A3F4
(1493282367.362943) can0 1BFC38B8#0000000800000000
(1493282367.363322) can0 1BFC38B7#80016484250202C2
(1493282367.363575) can0 1BFC38B6#0000169A000034A8
(1493282367.363990) can0 1BFC38B5#0502FF1202028A12
(1493282367.364239) can0 1BFC38B4#110F01010000A32D
(1493282367.364647) can0 1BFC38B3#800164843240CCBB
(1493282367.364839) can0 1BFC38B2#80016484838300EF
(1493282367.370829) can0 164#9DD03A69264F8105
(1493282367.370943) can0 30B#7F00110000000098
(1493282367.420581) can0 1FD#0000000000000000
(1493282367.420785) can0 30B#7F00110000000098
(1493282367.420911) can0 02A#EA6E085ACE8AB63C
(1493282367.458563) can0 3C0#6A7E1335
(1493282367.470363) can0 30B#7F00110000000098
(1493282367.471173) can0 551#7EAD20
(1493282367.479573) can0 1FD#0000000000000000
(1493282367.520469) can0 6C7#04051101020000
(1493282367.520679) can0 30B#7F00110000000098
(1493282367.520955) can0 5F2#AB00
(1493282367.521219) can0 6FF#158BA279
(1493282367.539477) can0 1FD#0000000000000000
(1493282367.563155) can0 3C0#6A7E1335
(1493282367.570325) can0 30B#7F00110000000098
(1493282367.571305) can0 0E7#03429A29B60E
(1493282367.599428) can0 1FD#0000000000000000
(1493282367.613067) can0 1BFC38B1#0000000000000000
(1493282367.613280) can0 1BFC38BB#FFFFFFFFFFFFFFFF
(1493282367.613703) can0 1BFC38BA#535553500000001A
(1493282367.613952) can0 1BFC38B9#020096408008FC68
(1493282367.614339) can0 1BFC38B8#0000000800000000
(1493282367.614573) can0 1BFC38B7#80016484250202FD
(1493282367.614931) can0 1BFC38B6#0000169D00000000
(1493282367.615308) can0 1BFC38B5#0502FF1202028A12
(1493282367.615556) can0 1BFC38B4#110F01010000A32D
(1493282367.615931) can0 1BFC38B3#800164843240CCBB
(1493282367.616184) can0 1BFC38B2#80016484838300EF
(1493282367.619449) can0 30B#7F00110000000098
(1493282367.619812) can0 65E#8808C756A9870500
(1493282367.621592) can0 771#5D789220A7D6E661
(1493282367.630724) can0 62F#4451000927
(1493282367.659469) can0 1FD#0000000000000000
(1493282367.666913) can0 3C0#6A7E1335
(1493282367.669476) can0 30B#7F00110000000098
(1493282367.671640) can0 0B0#28CFC909
(1493282367.721449) can0 6C7#04051101020000
(1493282367.721831) can0 677#E942B85CDB67741D
(1493282367.721834) can0 1FD#0000000000000000
(1493282367.722055) can0 30B#7F00110000000098
(1493282367.722439) can0 5F2#AB00
(1493282367.770148) can0 30B#7F00110000000098
(1493282367.770403) can0 3C0#6A7E1335
(1493282367.771960) can0 7B9#01B7F522E30F
(1493282367.780064) can0 1FD#0000000000000000
(1493282367.821560) can0 30B#7F00110000000098
(1493282367.822206) can0 155#B19AB96DA6D6EF0A
(1493282367.839436) can0 1FD#0000000000000000
(1493282367.861931) can0 1BFC38B1#0000000000000000
(1493282367.862307) can0 1BFC38BA#0000000700000014
(1493282367.862695) can0 1BFC38BB#FFFFFFFFFFFFFFFF
(1493282367.862920) can0 1BFC38B9#020096408008FC68
(1493282367.863331) can0 1BFC38B8#0000000800000000
(1493282367.863557) can0 1BFC38B7#80016484250202FD
(1493282367.863930) can0 1BFC38B6#0000169F00000000
(1493282367.864176) can0 1BFC38B5#0502FF1202028A12
(1493282367.864553) can0 1BFC38B4#110F01010000A32D
(1493282367.864827) can0 1BFC38B3#800164843240CCBB
(1493282367.865202) can0 1BFC38B2#80016484838300EF
(1493282367.870821) can0 30B#7F00110000000098
(1493282367.872171) can0 61F#3D5B51511E854305
(1493282367.874146) can0 3C0#6A7E1335
(1493282367.899579) can0 1FD#0000000000000000
(1493282367.920846) can0 6C7#04051101020000
(1493282367.921164) can0 30B#7F00110000000098
(1493282367.921293) can0 5F2#AB00
(1493282367.922351) can0 5C3#DCC00C
(1493282367.959424) can0 1FD#0000000000000000
(1493282367.970301) can0 30B#7F00110000000098
(1493282367.972562) can0 3A9#61150F381BE3FA60
(1493282367.977917) can0 3C0#6A7E1335
(1493282368.020799) can0 1FD#0000000000000000
(1493282368.021160) can0 30B#7F00110000000098
(1493282368.022670) can0 4BE#C2B9E1426E651D2C
(1493282368.070339) can0 30B#7F00110000000098
(1493282368.072806) can0 4A2#AA09AC4C196BEE29
(1493282368.079576) can0 1FD#0000000000000000
(1493282368.082171) can0 3C0#6A7E1335
(1493282368.112948) can0 1BFC38B1#0000000000000000
(1493282368.113124) can0 1BFC38BB#FFFFFFFFFFFFFFFF
(1493282368.113558) can0 1BFC38BA#0000000700000014
(1493282368.113804) can0 1BFC38B9#020096408008FC68
(1493282368.114197) can0 1BFC38B8#0000000800000000
(1493282368.114430) can0 1BFC38B7#80016484250202FD
(1493282368.114799) can0 1BFC38B6#000016A20000A32D
(1493282368.115143) can0 1BFC38B5#0502FF1202028A12
(1493282368.115404) can0 1BFC38B4#110F01010000A32D
(1493282368.115639) can0 1BFC38B3#8001648431001100
(1493282368.115989) can0 1BFC38B2#8001648483830035
(1493282368.121052) can0 6C7#04051101020000
(1493282368.121251) can0 30B#7F00110000000098
(1493282368.121592) can0 5F2#AB00
(1493282368.121773) can0 643#000200
(1493282368.121913) can0 64E#00A32D0000000000
(1493282368.122265) can0 65E#8808DEB68AA40800
(1493282368.122530) can0 6B8#6D08000000000000
(1493282368.122771) can0 6BC#62822651324C0792
(1493282368.122880) can0 6F5#F4D262
(1493282368.139411) can0 1FD#0000000000000000
(1493282368.170297) can0 30B#7F00110000000098
(1493282368.173113) can0 019#913EA2486EC1
(1493282368.185616) can0 3C0#6A7E1335
(1493282368.199438) can0 1FD#0000000000000000
(1493282368.220659) can0 30B#7F00110000000098
(1493282368.223287) can0 7E2#1498
(1493282368.230150) can0 6B6#390C1C000927
(1493282368.230400) can0 6B7#BEB4000008FF80FE
(1493282368.259404) can0 1FD#0000000000000000
(1493282368.270281) can0 30B#7F00110000000098
(1493282368.273406) can0 172#1F1B
(1493282368.288778) can0 3C0#6A7E1335
(1493282368.320540) can0 6C7#04051101020000
(1493282368.320722) can0 1FD#0000000000000000
(1493282368.321174) can0 30B#7F00110000000098
(1493282368.321271) can0 5F2#AB00
(1493282368.323516) can0 1A5#E0253E224E8D8864
(1493282368.361659) can0 1BFC38B1#0000000000000000
(1493282368.362021) can0 1BFC38BB#FFFFFFFFFFFFFFFF
(1493282368.362447) can0 1BFC38BA#0000000700000014
(1493282368.362632) can0 1BFC38B9#020096408008FC68
(1493282368.363016) can0 1BFC38B8#0000000800000000
(1493282368.363269) can0 1BFC38B7#80016484250202FD
(1493282368.363644) can0 1BFC38B6#000016A402028A12
(1493282368.363896) can0 1BFC38B5#0502FF1202028A12
(1493282368.364266) can0 1BFC38B4#110F01010000A32D
(1493282368.364544) can0 1BFC38B3#8001648431001100
(1493282368.364922) can0 1BFC38B2#8001648483830035
(1493282368.370874) can0 30B#7F00110000000098
(1493282368.373680) can0 6DA#69
(1493282368.379678) can0 1FD#0000000000000000
(1493282368.392642) can0 3C0#6A7E1335
(1493282368.420676) can0 30B#7F00110000000098
(1493282368.423764) can0 0FF#07D9511DA2B5BC5C
(1493282368.439415) can0 1FD#0000000000000000
(1493282368.470309) can0 30B#7F00110000000098
(1493282368.473843) can0 315#BB
(1493282368.496513) can0 3C0#6A7E1335
(1493282368.499416) can0 1FD#0000000000000000
(1493282368.520507) can0 6C7#04051101020000
(1493282368.520784) can0 30B#7F00110000000098
(1493282368.521010) can0 5F2#AB00
(1493282368.524148) can0 744#
(1493282368.559385) can0 1FD#0000000000000000
(1493282368.570253) can0 30B#7F00110000000098
(1493282368.574219) can0 5A6#CC506C6B882DBD1F
(1493282368.599720) can0 3C0#6A7E1335
(1493282368.613173) can0 1BFC38B1#0000000000000000
(1493282368.613380) can0 1BFC38BB#FFFFFFFFFFFFFFFF
(1493282368.613781) can0 1BFC38BA#0000000700000014
(1493282368.614024) can0 1BFC38B9#030296408005A3F4
(1493282368.614385) can0 1BFC38B8#0000000800000000
(1493282368.614646) can0 1BFC38B7#8001648425020239
(1493282368.615014) can0 1BFC38B6#000016A700000000
(1493282368.615318) can0 1BFC38B5#0502FF1202028A12
(1493282368.615620) can0 1BFC38B4#110F01010000A32D
(1493282368.615868) can0 1BFC38B3#8001648431001100
(1493282368.616205) can0 1BFC38B2#8001648483830035
(1493282368.619520) can0 1FD#0000000000000000
(1493282368.619721) can0 30B#7F00110000000098
(1493282368.620168) can0 65E#88086EB489AF0800
(1493282368.624513) can0 08D#89
(1493282368.630750) can0 62F#4451000928
(1493282368.671029) can0 30B#7F00110000000098
(1493282368.674643) can0 433#35B1E173D8B5EA33
(1493282368.679623) can0 1FD#0000000000000000
(1493282368.702836) can0 3C0#6A7E1335
(1493282368.721583) can0 6C7#04051101020000
(1493282368.721822) can0 30B#7F00110000000098
(1493282368.722071) can0 5F2#AA00
(1493282368.722342) can0 630#33C203000F000403
(1493282368.724745) can0 2A3#264373187D
(1493282368.739369) can0 1FD#0000000000000000
(1493282368.770141) can0 30B#7F00110000000098
(1493282368.774876) can0 257#
(1493282368.799500) can0 1FD#0000000000000000
(1493282368.806617) can0 3C0#6A7E1335
(1493282368.821616) can0 30B#7F00110000000098
(1493282368.825048) can0 5BB#F8901800D1906C3B
(1493282368.859373) can0 1FD#0000000000000000
(1493282368.861987) can0 1BFC38B1#0000000000000000
(1493282368.862187) can0 1BFC38BA#535553500000001A
(1493282368.862609) can0 1BFC38BB#FFFFFFFFFFFFFFFF
(1493282368.862983) can0 1BFC38B9#030296408005A3F4
(1493282368.863225) can0 1BFC38B8#0000000800000000
(1493282368.863576) can0 1BFC38B7#8001648425020239
(1493282368.863825) can0 1BFC38B6#000016A900000000
(1493282368.864193) can0 1BFC38B5#0502FF1202028A12
(1493282368.864451) can0 1BFC38B4#110F01010000A32D
(1493282368.864827) can0 1BFC38B3#8001648431001100
(1493282368.865095) can0 1BFC38B2#8001648483830035
(1493282368.870629) can0 30B#7F00110000000098
(1493282368.875107) can0 0CF#DCBAD623
(1493282368.910322) can0 3C0#6A7E1335
(1493282368.921400) can0 6C7#04051101020000
(1493282368.921777) can0 1FD#0000000000000000
(1493282368.921958) can0 30B#7F00110000000098
(1493282368.922126) can0 5F2#AB00
(1493282368.925257) can0 564#72876E4B0A
(1493282368.970230) can0 30B#7F00110000000098
(1493282368.975355) can0 2E0#9250F52C6E1B936B
(1493282368.979856) can0 1FD#0000000000000000
(1493282369.014057) can0 3C0#6A7E1335
(1493282369.021527) can0 30B#7F00110000000098
(1493282369.025653) can0 11F#6DADD025529DEC39
(1493282369.039351) can0 1FD#0000000000000000
(1493282369.070100) can0 30B#7F00110000000098
(1493282369.075740) can0 2C3#2A53
(1493282369.099600) can0 1FD#0000000000000000
(1493282369.113223) can0 1BFC38B1#0000000000000000
(1493282369.113612) can0 1BFC38BA#535553500000001A
(1493282369.113832) can0 1BFC38BB#FFFFFFFFFFFFFFFF
(1493282369.114218) can0 1BFC38B9#030296408005A3F4
(1493282369.114621) can0 1BFC38B8#0000000800000000
(1493282369.114872) can0 1BFC38B7#8001648425020239
(1493282369.115212) can0 1BFC38B6#000016AC0000A32D
(1493282369.115469) can0 1BFC38B5#0502FF1202028A12
(1493282369.115837) can0 1BFC38B4#110F01010000A32D
(1493282369.116051) can0 1BFC38B3#8001648431003322
(1493282369.116459) can0 1BFC38B2#80016484838380B9
(1493282369.118222) can0 3C0#6A7E1335
(1493282369.122005) can0 6C7#04051101020000
(1493282369.122223) can0 30B#7F00110000000098
(1493282369.122485) can0 5F2#AB00
(1493282369.122554) can0 643#000200
(1493282369.122821) can0 64E#00A32D0000000000
(1493282369.123086) can0 65E#88085DE88D1C0A00
(1493282369.123446) can0 6B8#6D08000000000000
(1493282369.123705) can0 6BC#62822651324C0798
(1493282369.125768) can0 5B8#E3
(1493282369.159352) can0 1FD#0000000000000000
(1493282369.170097) can0 30B#7F00110000000098
(1493282369.176027) can0 1E1#65239B439C279D4A
(1493282369.221471) can0 1FD#0000000000000000
(1493282369.221661) can0 30B#7F00110000000098
(1493282369.221967) can0 3C0#6A7E1335
(1493282369.221970) can0 631#34CD00
(1493282369.222173) can0 62D#34837801F8000000
(1493282369.226112) can0 218#6DB80906E702C760
(1493282369.229377) can0 6B6#390C1C000928
(1493282369.229740) can0 6B7#BEB4000008FF80FE
(1493282369.270082) can0 30B#7F00110000000098
(1493282369.276075) can0 612#FBFA7B29760B491F
(1493282369.279872) can0 1FD#0000000000000000
(1493282369.321349) can0 6C7#04051101020000
(1493282369.321784) can0 30B#7F00110000000098
(1493282369.321906) can0 5F2#AB00
(1493282369.325708) can0 3C0#6A7E1335
(1493282369.326163) can0 6DF#802E812CBF314C3A
(1493282369.339374) can0 1FD#0000000000000000
(1493282369.362076) can0 1BFC38B1#0000000000000000
(1493282369.362317) can0 1BFC38B9#030296408005A3F4
(1493282369.362576) can0 1BFC38BA#535553500000001A
(1493282369.362952) can0 1BFC38B8#0000000800000000
(1493282369.363199) can0 1BFC38B7#8001648425020239
(1493282369.363591) can0 1BFC38B6#000016AE000034A8
(1493282369.363824) can0 1BFC38B5#0502FF1202028A12
(1493282369.364225) can0 1BFC38B4#110F01010000A32D
(1493282369.364454) can0 1BFC38B3#8001648431003322
(1493282369.364840) can0 1BFC38B2#80016484838380B9
(1493282369.365076) can0 1BFC38BB#FFFFFFFFFFFFFFFF
(1493282369.370683) can0 30B#7F00110000000098
(1493282369.376296) can0 2AC#2D4D
(1493282369.399486) can0 1FD#0000000000000000
(1493282369.421060) can0 30B#7F00110000000098
(1493282369.426613) can0 32D#1EB99B7BF0856223
(1493282369.429574) can0 3C0#6A7E1335
(1493282369.459325) can0 1FD#0000000000000000
(1493282369.470224) can0 30B#7F00110000000098
(1493282369.476860) can0 13D#5633B018F58E3415
(1493282369.520696) can0 6C7#04051101020000
(1493282369.521084) can0 1FD#0000000000000000
(1493282369.521304) can0 30B#7F00110000000098
(1493282369.521418) can0 5F2#AB00
(1493282369.527067) can0 299#04D773357AECFE53
(1493282369.533054) can0 3C0#6A7E1335
(1493282369.570217) can0 30B#7F00110000000098
(1493282369.577076) can0 633#17149C1E4B086056
(1493282369.579809) can0 1FD#0000000000000000
(1493282369.612846) can0 1BFC38B1#0000000000000000
(1493282369.613235) can0 1BFC38BB#FFFFFFFFFFFFFFFF
(1493282369.613426) can0 1BFC38BA#535553500000001A
(1493282369.613806) can0 1BFC38B9#040096408008FC68
(1493282369.614061) can0 1BFC38B8#0000000800000000
(1493282369.614433) can0 1BFC38B7#8001648425020275
(1493282369.614680) can0 1BFC38B6#000016B100000000
(1493282369.615075) can0 1BFC38B5#0502FF1202028A12
(1493282369.615299) can0 1BFC38B4#110F01010000A32D
(1493282369.615667) can0 1BFC38B3#8001648431003322
(1493282369.616054) can0 1BFC38B2#80016484838380B9
(1493282369.621447) can0 30B#7F00110000000098
(1493282369.621705) can0 65E#8808CBB97A660500
(1493282369.627180) can0 6C8#330B2737
(1493282369.636808) can0 3C0#6A7E1335
(1493282369.639338) can0 1FD#0000000000000000
(1493282369.640048) can0 62F#4451000929
(1493282369.670181) can0 30B#7F00110000000098
(1493282369.677300) can0 7CE#50208326ADC6461C
(1493282369.699312) can0 1FD#0000000000000000
(1493282369.720432) can0 6C7#04051101020000
(1493282369.720662) can0 30B#7F00110000000098
(1493282369.720934) can0 5F2#AB00
(1493282369.727431) can0 09C#
(1493282369.740795) can0 3C0#6A7E1335
(1493282369.759438) can0 1FD#0000000000000000
(1493282369.770178) can0 30B#7F00110000000098
(1493282369.777609) can0 5E2#13FF01430F618515
(1493282369.820549) can0 1FD#0000000000000000
(1493282369.820787) can0 30B#7F00110000000098
(1493282369.827686) can0 035#FF
(1493282369.844282) can0 3C0#6A7E1335
(1493282369.861704) can0 1BFC38B1#0000000000000000
(1493282369.862075) can0 1BFC38BB#FFFFFFFFFFFFFFFF
(1493282369.862296) can0 1BFC38BA#0000000700000014
(1493282369.862648) can0 1BFC38B9#040096408008FC68
(1493282369.863022) can0 1BFC38B8#0000000800000000
(1493282369.863286) can0 1BFC38B7#8001648425020275
(1493282369.863525) can0 1BFC38B6#000016B300000000
(1493282369.863904) can0 1BFC38B5#0502FF1202028A12
(1493282369.864193) can0 1BFC38B4#110F01010000A32D
(1493282369.864565) can0 1BFC38B3#8001648431003322
(1493282369.864793) can0 1BFC38B2#80016484838380B9
(1493282369.870945) can0 30B#7F00110000000098
(1493282369.877872) can0 47A#6828B94213
(1493282369.879681) can0 1FD#0000000000000000
(1493282369.920546) can0 6C7#04051101020000
(1493282369.920785) can0 30B#7F00110000000098
(1493282369.921023) can0 5F2#AB00
(1493282369.928042) can0 48E#8E53CD6BC2625047
(1493282369.939419) can0 1FD#0000000000000000
