(1493280097.924100) can0 1FD#0000000000000000
(1493280097.952372) can0 3C0#6A7E1335
(1493280097.954976) can0 30B#5F00110000000098
(1493280097.984110) can0 1FD#0000000000000000
(1493280097.997624) can0 1BFC38B1#0000000000000000
(1493280097.997864) can0 1BFC38BB#FFFFFFFFFFFFFFFF
(1493280097.998220) can0 1BFC38BA#535553500000001A
(1493280097.998468) can0 1BFC38B9#050296408005A3F4
(1493280097.998843) can0 1BFC38B8#0000000800000000
(1493280097.999090) can0 1BFC38B7#80016484250202C3
(1493280097.999468) can0 1BFC38B6#000003B0001F0003
(1493280097.999718) can0 1BFC38B5#0502FF9202028292
(1493280098.000121) can0 1BFC38B4#00010101001F0003
(1493280098.000486) can0 1BFC38B3#800164843100BBAA
(1493280098.000731) can0 1BFC38B2#8001648483838076
(1493280098.005593) can0 6C7#04051101020000
(1493280098.005971) can0 30B#5F00110000000098
(1493280098.006069) can0 5F2#CC00
(1493280098.006388) can0 643#000200
(1493280098.006597) can0 64E#00B1040000000000
(1493280098.006892) can0 65E#88087B96A3E10B00
(1493280098.007104) can0 6B8#6D08000000000000
(1493280098.007471) can0 6BC#9A823851324C079D
(1493280098.044126) can0 1FD#0000000000000000
(1493280098.054734) can0 30B#5F00110000000098
(1493280098.056240) can0 3C0#6A7E1335
(1493280098.105255) can0 1FD#0000000000000000
(1493280098.105445) can0 30B#5F00110000000098
(1493280098.105786) can0 630#33EA010000
(1493280098.105889) can0 62D#349220C900
(1493280098.106108) can0 631#34D100
(1493280098.114638) can0 6B6#390C1C000723
(1493280098.115010) can0 6B7#BEB4000008FF80FE
(1493280098.154632) can0 30B#5F00110000000098
(1493280098.159845) can0 3C0#6A7E1335
(1493280098.164504) can0 1FD#0000000000000000
(1493280098.205149) can0 6C7#04051101020000
(1493280098.205527) can0 30B#5F00110000000098
(1493280098.205529) can0 5F2#CC00
(1493280098.224139) can0 1FD#0000000000000000
(1493280098.246389) can0 1BFC38B1#0000000000000000
(1493280098.246619) can0 1BFC38BB#FFFFFFFFFFFFFFFF
(1493280098.247012) can0 1BFC38BA#535553500000001A
(1493280098.247261) can0 1BFC38B9#050296408005A3F4
(1493280098.247630) can0 1BFC38B8#0000000800000000
(1493280098.247886) can0 1BFC38B7#80016484250202C3
(1493280098.248258) can0 1BFC38B6#000003B2001F34A8
(1493280098.248527) can0 1BFC38B5#0502FF9202028292
(1493280098.248896) can0 1BFC38B4#00010101001F0003
(1493280098.249141) can0 1BFC38B3#800164843100BBAA
(1493280098.249489) can0 1BFC38B2#8001648483838076
(1493280098.255523) can0 30B#5F00110000000098
(1493280098.263758) can0 3C0#6A7E1335
(1493280098.284191) can0 1FD#0000000000000000
(1493280098.305269) can0 30B#5F00110000000098
(1493280098.344177) can0 1FD#0000000000000000
(1493280098.354770) can0 30B#5F00110000000098
(1493280098.367863) can0 3C0#6A7E1335
(1493280098.405166) can0 6C7#04051101020000
(1493280098.405575) can0 1FD#0000000000000000
(1493280098.405776) can0 30B#5F00110000000098
(1493280098.405900) can0 5F2#CC00
(1493280098.454791) can0 30B#5F00110000000098
(1493280098.464560) can0 1FD#0000000000000000
(1493280098.471613) can0 3C0#6A7E1335
(1493280098.497655) can0 1BFC38B1#0000000000000000
(1493280098.498069) can0 1BFC38BB#FFFFFFFFFFFFFFFF
(1493280098.498282) can0 1BFC38BA#535553500000001A
(1493280098.498627) can0 1BFC38B9#060096408008FC68
(1493280098.498890) can0 1BFC38B8#0000000800000000
(1493280098.499259) can0 1BFC38B7#80016484250202FF
(1493280098.499512) can0 1BFC38B6#000003B500000000
(1493280098.499894) can0 1BFC38B5#0502FF9202028292
(1493280098.500192) can0 1BFC38B4#00010101001F0003
(1493280098.500610) can0 1BFC38B3#800164843100BBAA
(1493280098.500780) can0 1BFC38B2#8001648483838076
(1493280098.505939) can0 30B#5F00110000000098
(1493280098.506151) can0 65E#8808E2F36E1C0800
(1493280098.515536) can0 62F#4451000724
(1493280098.524166) can0 1FD#0000000000000000
(1493280098.554820) can0 30B#5F00110000000098
(1493280098.575264) can0 3C0#6A7E1335
(1493280098.584205) can0 1FD#0000000000000000
(1493280098.605168) can0 6C7#04051101020000
(1493280098.605538) can0 30B#5F00110000000098
(1493280098.605652) can0 5F2#CC00
(1493280098.644187) can0 1FD#0000000000000000
(1493280098.654828) can0 30B#5F00110000000098
(1493280098.678758) can0 3C0#6A7E1335
(1493280098.705183) can0 1FD#0000000000000000
(1493280098.705549) can0 30B#5F00110000000098
(1493280098.746438) can0 1BFC38B1#0000000000000000
(1493280098.746817) can0 1BFC38BB#FFFFFFFFFFFFFFFF
(1493280098.747040) can0 1BFC38BA#0000000700000014
(1493280098.747455) can0 1BFC38B9#060096408008FC68
(1493280098.747679) can0 1BFC38B8#0000000800000000
(1493280098.748037) can0 1BFC38B7#80016484250202FF
(1493280098.748310) can0 1BFC38B6#000003B700000000
(1493280098.748678) can0 1BFC38B5#0502FF9202028292
(1493280098.749041) can0 1BFC38B4#00010101001F0003
(1493280098.749314) can0 1BFC38B3#800164843100BBAA
(1493280098.749678) can0 1BFC38B2#8001648483838076
(1493280098.755519) can0 30B#5F00110000000098
(1493280098.764199) can0 1FD#0000000000000000
(1493280098.782673) can0 3C0#6A7E1335
(1493280098.805308) can0 6C7#04051101020000
(1493280098.805555) can0 30B#5F00110000000098
(1493280098.805668) can0 5F2#CC00
(1493280098.824188) can0 1FD#0000000000000000
(1493280098.854816) can0 30B#5F00110000000098
(1493280098.884194) can0 1FD#0000000000000000
(1493280098.886564) can0 3C0#6A7E1335
(1493280098.905443) can0 30B#5F00110000000098
(1493280098.944199) can0 1FD#0000000000000000
(1493280098.954818) can0 30B#5F00110000000098
(1493280098.990330) can0 3C0#6A7E1335
(1493280098.997836) can0 1BFC38B1#0000000000000000
(1493280098.998212) can0 1BFC38BB#FFFFFFFFFFFFFFFF
(1493280098.998557) can0 1BFC38BA#0000000700000014
(1493280098.998819) can0 1BFC38B9#060096408008FC68
(1493280098.999179) can0 1BFC38B8#0000000800000000
(1493280098.999429) can0 1BFC38B7#80016484250202FF
(1493280098.999807) can0 1BFC38B6#000003BA001F0003
(1493280099.000079) can0 1BFC38B5#0502FF9202028292
(1493280099.000475) can0 1BFC38B4#00010101001F0003
(1493280099.000705) can0 1BFC38B3#80016484324000FF
(1493280099.001098) can0 1BFC38B2#80016484838300FE
(1493280099.004234) can0 6C7#04051101020000
(1493280099.004614) can0 1FD#0000000000000000
(1493280099.004788) can0 30B#5F00110000000098
(1493280099.004916) can0 5F2#CC00
(1493280099.005195) can0 643#000200
(1493280099.005445) can0 64E#00B1040000000000
(1493280099.005691) can0 65E#8808D76055270A00
(1493280099.006056) can0 6B8#6D08000000000000
(1493280099.006322) can0 6BC#9A823851324C07BA
(1493280099.054838) can0 30B#5F00110000000098
(1493280099.064709) can0 1FD#0000000000000000
(1493280099.093823) can0 3C0#6A7E1335
(1493280099.105337) can0 30B#5F00110000000098
(1493280099.114585) can0 6B6#390C1C000724
(1493280099.114863) can0 6B7#BEB4000008FF80FE
(1493280099.124243) can0 1FD#0000000000000000
(1493280099.154845) can0 30B#5F00110000000098
(1493280099.184220) can0 1FD#0000000000000000
(1493280099.197090) can0 3C0#6A7E1335
(1493280099.205372) can0 6C7#04051101020000
(1493280099.205591) can0 30B#5F00110000000098
(1493280099.205712) can0 5F2#CC00
(1493280099.244376) can0 1FD#0000000000000000
(1493280099.246469) can0 1BFC38B1#0000000000000000
(1493280099.246844) can0 1BFC38BB#FFFFFFFFFFFFFFFF
(1493280099.247102) can0 1BFC38BA#0000000700000014
(1493280099.247472) can0 1BFC38B9#060096408008FC68
(1493280099.247724) can0 1BFC38B8#0000000800000000
(1493280099.248085) can0 1BFC38B7#80016484250202FF
(1493280099.248343) can0 1BFC38B6#000003BC02028292
(1493280099.248734) can0 1BFC38B5#0502FF9202028292
(1493280099.248978) can0 1BFC38B4#00010101001F0003
(1493280099.249356) can0 1BFC38B3#80016484324000FF
(1493280099.249613) can0 1BFC38B2#80016484838300FE
(1493280099.255553) can0 30B#5F00110000000098
(1493280099.300743) can0 3C0#6A7E1335
(1493280099.305514) can0 1FD#0000000000000000
(1493280099.305750) can0 30B#5F00110000000098
(1493280099.354953) can0 30B#5F00110000000098
(1493280099.364597) can0 1FD#0000000000000000
(1493280099.404729) can0 3C0#6A7E1335
(1493280099.405312) can0 6C7#04051101020000
(1493280099.405602) can0 30B#5F00110000000098
(1493280099.405720) can0 5F2#CC00
(1493280099.424288) can0 1FD#0000000000000000
(1493280099.454873) can0 30B#5F00110000000098
(1493280099.484256) can0 1FD#0000000000000000
(1493280099.497894) can0 1BFC38B1#0000000000000000
(1493280099.498142) can0 1BFC38BB#FFFFFFFFFFFFFFFF
(1493280099.498496) can0 1BFC38BA#0000000700000014
(1493280099.498730) can0 1BFC38B9#070296408005A3F4
(1493280099.499112) can0 1BFC38B8#0000000800000000
(1493280099.499316) can0 1BFC38B7#800164842502023B
(1493280099.499733) can0 1BFC38B6#000003BF00000000
(1493280099.500069) can0 1BFC38B5#0502FF9202028292
(1493280099.500317) can0 1BFC38B4#00010101001F0003
(1493280099.500707) can0 1BFC38B3#80016484324000FF
(1493280099.500942) can0 1BFC38B2#80016484838300FE
(1493280099.506005) can0 30B#5F00110000000098
(1493280099.506207) can0 65E#880891868FC80600
(1493280099.508707) can0 3C0#6A7E1335
(1493280099.515590) can0 62F#4451000725
(1493280099.544375) can0 1FD#0000000000000000
(1493280099.554876) can0 30B#5F00110000000098
(1493280099.605396) can0 6C7#04051101020000
(1493280099.605583) can0 1FD#0000000000000000
(1493280099.606025) can0 30B#5F00110000000098
(1493280099.606134) can0 5F2#CC00
(1493280099.612628) can0 3C0#6A7E1335
(1493280099.654881) can0 30B#5F00110000000098
(1493280099.664919) can0 1FD#0000000000000000
(1493280099.705389) can0 30B#5F00110000000098
(1493280099.716376) can0 3C0#6A7E1335
(1493280099.724420) can0 1FD#0000000000000000
(1493280099.746639) can0 1BFC38B1#0000000000000000
(1493280099.746890) can0 1BFC38BB#FFFFFFFFFFFFFFFF
(1493280099.747142) can0 1BFC38BA#535553500000001A
(1493280099.747511) can0 1BFC38B9#070296408005A3F4
(1493280099.747767) can0 1BFC38B8#0000000800000000
(1493280099.748123) can0 1BFC38B7#800164842502023B
(1493280099.748514) can0 1BFC38B6#000003C100000000
(1493280099.748789) can0 1BFC38B5#0502FF9202028292
(1493280099.749149) can0 1BFC38B4#00010101001F0003
(1493280099.749416) can0 1BFC38B3#80016484324000FF
(1493280099.749770) can0 1BFC38B2#80016484838300FE
(1493280099.755775) can0 30B#5F00110000000098
(1493280099.784412) can0 1FD#0000000000000000
(1493280099.805389) can0 6C7#04051101020000
(1493280099.805646) can0 30B#5F00110000000098
(1493280099.805895) can0 5F2#CC00
(1493280099.819896) can0 3C0#6A7E1335
(1493280099.844427) can0 1FD#0000000000000000
(1493280099.854927) can0 30B#5F00110000000098
(1493280099.905533) can0 1FD#0000000000000000
(1493280099.905731) can0 30B#5F00110000000098
(1493280099.923736) can0 3C0#6A7E1335
(1493280099.954921) can0 30B#5F00110000000098
(1493280099.964830) can0 1FD#0000000000000000
(1493280099.997915) can0 1BFC38B1#0000000000000000
(1493280099.998152) can0 1BFC38BB#FFFFFFFFFFFFFFFF
(1493280099.998540) can0 1BFC38BA#535553500000001A
(1493280099.998786) can0 1BFC38B9#070296408005A3F4
(1493280099.999148) can0 1BFC38B8#0000000800000000
(1493280099.999404) can0 1BFC38B7#800164842502023B
(1493280099.999783) can0 1BFC38B6#000003C4001F0003
(1493280100.000026) can0 1BFC38B5#0502FF9202028292
(1493280100.000379) can0 1BFC38B4#00010101001F0003
(1493280100.000660) can0 1BFC38B3#8001648431005544
(1493280100.000996) can0 1BFC38B2#8001648483830074
(1493280100.006053) can0 6C7#04051101020000
(1493280100.006252) can0 30B#5F00110000000098
(1493280100.006412) can0 5F2#CC00
(1493280100.006630) can0 643#000200
(1493280100.006900) can0 64E#00B1040000000000
(1493280100.007287) can0 65E#8808490458310B00
(1493280100.007519) can0 6B8#6D08000000000000
(1493280100.007770) can0 6BC#9A823851324C0701
(1493280100.024398) can0 1FD#0000000000000000
(1493280100.027752) can0 3C0#6A7E1335
(1493280100.054932) can0 30B#5F00110000000098
(1493280100.084426) can0 1FD#0000000000000000
(1493280100.105550) can0 30B#5F00110000000098
(1493280100.105960) can0 630#33EB0102010000
(1493280100.106056) can0 631#34D200
(1493280100.106291) can0 62D#349302E900
(1493280100.114835) can0 6B6#390C1C000725
(1493280100.115009) can0 6B7#BEB4000008FF80FE
(1493280100.131531) can0 3C0#6A7E1335
(1493280100.144452) can0 1FD#0000000000000000
(1493280100.154929) can0 30B#5F00110000000098
(1493280100.205446) can0 6C7#04051101020000
(1493280100.205667) can0 1FD#0000000000000000
(1493280100.205993) can0 30B#5F00110000000098
(1493280100.206154) can0 5F2#CC00
(1493280100.235293) can0 3C0#6A7E1335
(1493280100.246714) can0 1BFC38B1#0000000000000000
(1493280100.246934) can0 1BFC38BB#FFFFFFFFFFFFFFFF
(1493280100.247287) can0 1BFC38BA#535553500000001A
(1493280100.247556) can0 1BFC38B9#070296408005A3F4
(1493280100.247917) can0 1BFC38B8#0000000800000000
(1493280100.248194) can0 1BFC38B7#800164842502023B
(1493280100.248572) can0 1BFC38B6#000003C6001F34A8
(1493280100.248800) can0 1BFC38B5#0502FF9202028292
(1493280100.249181) can0 1BFC38B4#00010101001F0003
(1493280100.249410) can0 1BFC38B3#8001648431005544
(1493280100.249768) can0 1BFC38B2#8001648483830074
(1493280100.255791) can0 30B#5F00110000000098
(1493280100.264462) can0 1FD#0000000000000000
(1493280100.305569) can0 30B#5F00110000000098
(1493280100.324484) can0 1FD#0000000000000000
(1493280100.339040) can0 3C0#6A7E1335
(1493280100.355105) can0 30B#5F00110000000098
(1493280100.384446) can0 1FD#0000000000000000
(1493280100.405575) can0 6C7#04051101020000
(1493280100.405811) can0 30B#5F00110000000098
(1493280100.405925) can0 5F2#CC00
(1493280100.443047) can0 3C0#6A7E1335
(1493280100.444453) can0 1FD#0000000000000000
(1493280100.455114) can0 30B#5F00110000000098
(1493280100.497969) can0 1BFC38B1#0000000000000000
(1493280100.498201) can0 1BFC38BB#FFFFFFFFFFFFFFFF
(1493280100.498588) can0 1BFC38BA#535553500000001A
(1493280100.498840) can0 1BFC38B9#000096408008FC68
(1493280100.499204) can0 1BFC38B8#0000000800000000
(1493280100.499457) can0 1BFC38B7#8001648425020277
(1493280100.499831) can0 1BFC38B6#000003C900000000
(1493280100.500206) can0 1BFC38B5#0502FF9202028292
(1493280100.500456) can0 1BFC38B4#00010101001F0003
(1493280100.500827) can0 1BFC38B3#8001648431005544
(1493280100.501096) can0 1BFC38B2#8001648483830074
(1493280100.506094) can0 1FD#0000000000000000
(1493280100.506481) can0 30B#5F00110000000098
(1493280100.506663) can0 65E#88082F85A4780700
(1493280100.515596) can0 62F#4451000726
(1493280100.546967) can0 3C0#6A7E1335
(1493280100.555101) can0 30B#5F00110000000098
(1493280100.564788) can0 1FD#0000000000000000
(1493280100.605464) can0 6C7#04051101020000
(1493280100.605703) can0 30B#5F00110000000098
(1493280100.605960) can0 5F2#CC00
(1493280100.624475) can0 1FD#0000000000000000
(1493280100.650822) can0 3C0#6A7E1335
(1493280100.655125) can0 30B#5F00110000000098
(1493280100.684471) can0 1FD#0000000000000000
(1493280100.705614) can0 30B#5F00110000000098
(1493280100.744474) can0 1FD#0000000000000000
(1493280100.746725) can0 1BFC38B1#0000000000000000
(1493280100.746965) can0 1BFC38BB#FFFFFFFFFFFFFFFF
(1493280100.747352) can0 1BFC38BA#0000000700000014
(1493280100.747728) can0 1BFC38B9#000096408008FC68
(1493280100.747979) can0 1BFC38B8#0000000800000000
(1493280100.748353) can0 1BFC38B7#8001648425020277
(1493280100.748727) can0 1BFC38B6#000003CB00000000
(1493280100.748980) can0 1BFC38B5#0502FF9202028292
(1493280100.749226) can0 1BFC38B4#00010101001F0003
(1493280100.749613) can0 1BFC38B3#8001648431005544
(1493280100.749848) can0 1BFC38B2#8001648483830074
(1493280100.754691) can0 3C0#6A7E1335
(1493280100.755821) can0 30B#5F00110000000098
(1493280100.805500) can0 6C7#04051101020000
(1493280100.805871) can0 1FD#0000000000000000
(1493280100.806097) can0 30B#5F00110000000098
(1493280100.806210) can0 5F2#CC00
(1493280100.855105) can0 30B#5F00110000000098
(1493280100.858334) can0 3C0#6A7E1335
(1493280100.865002) can0 1FD#0000000000000000
(1493280100.905651) can0 30B#5F00110000000098
(1493280100.924499) can0 1FD#0000000000000000
(1493280100.955122) can0 30B#5F00110000000098
(1493280100.962116) can0 3C0#6A7E1335
(1493280100.984498) can0 1FD#0000000000000000
(1493280100.997997) can0 1BFC38B1#0000000000000000
(1493280100.998386) can0 1BFC38BB#FFFFFFFFFFFFFFFF
(1493280100.998748) can0 1BFC38BA#0000000700000014
(1493280100.998993) can0 1BFC38B9#000096408008FC68
(1493280100.999216) can0 1BFC38B8#0000000800000000
(1493280100.999584) can0 1BFC38B7#8001648425020277
(1493280100.999834) can0 1BFC38B6#000003CE001F0003
(1493280101.000258) can0 1BFC38B5#0502FF9202028292
(1493280101.000510) can0 1BFC38B4#00010101001F0003
(1493280101.000885) can0 1BFC38B3#8001648431007766
(1493280101.001144) can0 1BFC38B2#8001648483838078
(1493280101.006141) can0 6C7#04051101020000
(1493280101.006388) can0 30B#5F00110000000098
(1493280101.006504) can0 5F2#CC00
(1493280101.006714) can0 643#000200
(1493280101.007013) can0 64E#00B1040000000000
(1493280101.007336) can0 65E#8808B30587B60800
(1493280101.007588) can0 6B8#6D08000000000000
(1493280101.007839) can0 6BC#9A823851324C0702
(1493280101.044515) can0 1FD#0000000000000000
(1493280101.055138) can0 30B#5F00110000000098
(1493280101.066210) can0 3C0#6A7E1335
(1493280101.105764) can0 1FD#0000000000000000
(1493280101.106009) can0 30B#5F00110000000098
(1493280101.114772) can0 6B6#390C1C000726
(1493280101.114974) can0 6B7#BEB4000008FF80FE
(1493280101.155178) can0 30B#5F00110000000098
(1493280101.164919) can0 1FD#0000000000000000
(1493280101.169903) can0 3C0#6A7E1335
(1493280101.205515) can0 6C7#04051101020000
(1493280101.205753) can0 30B#5F00110000000098
(1493280101.206030) can0 5F2#CC00
(1493280101.224557) can0 1FD#0000000000000000
(1493280101.246772) can0 1BFC38B1#0000000000000000
(1493280101.247011) can0 1BFC38BB#FFFFFFFFFFFFFFFF
(1493280101.247396) can0 1BFC38BA#0000000700000014
(1493280101.247771) can0 1BFC38B9#000096408008FC68
(1493280101.248021) can0 1BFC38B8#0000000800000000
(1493280101.248396) can0 1BFC38B7#8001648425020277
(1493280101.248643) can0 1BFC38B6#000003D002028292
(1493280101.249018) can0 1BFC38B5#0502FF9202028292
(1493280101.249271) can0 1BFC38B4#00010101001F0003
(1493280101.249643) can0 1BFC38B3#8001648431007766
(1493280101.249903) can0 1BFC38B2#8001648483838078
(1493280101.255907) can0 30B#5F00110000000098
(1493280101.274024) can0 3C0#6A7E1335
(1493280101.284534) can0 1FD#0000000000000000
(1493280101.305773) can0 30B#5F00110000000098
(1493280101.344529) can0 1FD#0000000000000000
(1493280101.355287) can0 30B#5F00110000000098
(1493280101.377392) can0 3C0#6A7E1335
(1493280101.405545) can0 6C7#04051101020000
(1493280101.405909) can0 1FD#0000000000000000
(1493280101.406171) can0 30B#5F00110000000098
(1493280101.406274) can0 5F2#CC00
(1493280101.455160) can0 30B#5F00110000000098
(1493280101.465043) can0 1FD#0000000000000000
(1493280101.481510) can0 3C0#6A7E1335
(1493280101.498067) can0 1BFC38B1#0000000000000000
(1493280101.498412) can0 1BFC38BB#FFFFFFFFFFFFFFFF
(1493280101.498774) can0 1BFC38BA#0000000700000014
(1493280101.499022) can0 1BFC38B9#010296408005A3F4
(1493280101.499290) can0 1BFC38B8#0000000800000000
(1493280101.499647) can0 1BFC38B7#80016484250202B3
(1493280101.499999) can0 1BFC38B6#000003D300000000
(1493280101.500247) can0 1BFC38B5#0502FF9202028292
(1493280101.500665) can0 1BFC38B4#00010101001F0003
(1493280101.500923) can0 1BFC38B3#8001648431007766
(1493280101.501266) can0 1BFC38B2#8001648483838078
(1493280101.506181) can0 30B#5F00110000000098
(1493280101.506525) can0 65E#8808DD049F490600
(1493280101.515762) can0 62F#4451000727
(1493280101.524624) can0 1FD#0000000000000000
(1493280101.555187) can0 30B#5F00110000000098
(1493280101.584680) can0 1FD#0000000000000000
(1493280101.585766) can0 3C0#6A7E1335
(1493280101.605839) can0 6C7#04051101020000
(1493280101.606043) can0 30B#5F00110000000098
(1493280101.606142) can0 5F2#CC00
(1493280101.644576) can0 1FD#0000000000000000
(1493280101.655209) can0 30B#5F00110000000098
(1493280101.689694) can0 3C0#6A7E1335
(1493280101.705826) can0 1FD#0000000000000000
(1493280101.706072) can0 30B#5F00110000000098
(1493280101.746838) can0 1BFC38B1#0000000000000000
(1493280101.747208) can0 1BFC38BB#FFFFFFFFFFFFFFFF
(1493280101.747403) can0 1BFC38BA#535553500000001A
(1493280101.747825) can0 1BFC38B9#010296408005A3F4
(1493280101.748049) can0 1BFC38B8#0000000800000000
(1493280101.748468) can0 1BFC38B7#80016484250202B3
(1493280101.748844) can0 1BFC38B6#000003D500000000
(1493280101.749072) can0 1BFC38B5#0502FF9202028292
(1493280101.749343) can0 1BFC38B4#00010101001F0003
(1493280101.749703) can0 1BFC38B3#8001648431007766
(1493280101.749939) can0 1BFC38B2#8001648483838078
(1493280101.755974) can0 30B#5F00110000000098
(1493280101.764830) can0 1FD#0000000000000000
(1493280101.793668) can0 3C0#6A7E1335
(1493280101.805856) can0 6C7#04051101020000
(1493280101.806069) can0 30B#5F00110000000098
(1493280101.806202) can0 5F2#CC00
(1493280101.824709) can0 1FD#0000000000000000
(1493280101.855242) can0 30B#5F00110000000098
(1493280101.884654) can0 1FD#0000000000000000
(1493280101.897539) can0 3C0#6A7E1335
(1493280101.905826) can0 30B#5F00110000000098
(1493280101.944728) can0 1FD#0000000000000000
(1493280101.955220) can0 30B#5F00110000000098
(1493280101.998092) can0 1BFC38B1#0000000000000000
(1493280101.998410) can0 1BFC38BB#FFFFFFFFFFFFFFFF
(1493280101.998839) can0 1BFC38BA#535553500000001A
(1493280101.999036) can0 1BFC38B9#010296408005A3F4
(1493280101.999409) can0 1BFC38B8#0000000800000000
(1493280101.999661) can0 1BFC38B7#80016484250202B3
(1493280102.000038) can0 1BFC38B6#000003D8001F0003
(1493280102.000338) can0 1BFC38B5#0502FF9202028292
(1493280102.000686) can0 1BFC38B4#00010101001F0003
(1493280102.000944) can0 1BFC38B3#800164843240CCBB
(1493280102.001307) can0 1BFC38B2#80016484838300F0
(1493280102.001545) can0 3C0#6A7E1335
(1493280102.006369) can0 6C7#04051101020000
(1493280102.006581) can0 1FD#0000000000000000
(1493280102.006857) can0 30B#5F00110000000098
(1493280102.007064) can0 5F2#CC00
(1493280102.007165) can0 643#000200
(1493280102.007564) can0 64E#00B1040000000000
(1493280102.007829) can0 65E#88088AC577F40600
(1493280102.008111) can0 6B8#6D08000000000000
(1493280102.008315) can0 6BC#9A823851324C0718
(1493280102.055221) can0 30B#5F00110000000098
(1493280102.064872) can0 1FD#0000000000000000
(1493280102.105571) can0 3C0#6A7E1335
(1493280102.105863) can0 30B#5F00110000000098
(1493280102.106432) can0 630#33C203000F000403
(1493280102.106544) can0 631#34D300
(1493280102.106811) can0 62D#3482030012000300
(1493280102.115094) can0 6B6#390C1C000727
(1493280102.115333) can0 6B7#BEB4000008FF80FE
(1493280102.124751) can0 1FD#0000000000000000
(1493280102.155227) can0 30B#5F00110000000098
(1493280102.184760) can0 1FD#0000000000000000
(1493280102.205736) can0 6C7#04051101020000
(1493280102.205961) can0 30B#5F00110000000098
(1493280102.206091) can0 5F2#CC00
(1493280102.209438) can0 3C0#6A7E1335
(1493280102.244764) can0 1FD#0000000000000000
(1493280102.246857) can0 1BFC38B1#0000000000000000
(1493280102.247232) can0 1BFC38BB#FFFFFFFFFFFFFFFF
(1493280102.247482) can0 1BFC38BA#535553500000001A
(1493280102.247867) can0 1BFC38B9#010296408005A3F4
(1493280102.248254) can0 1BFC38B8#0000000800000000
(1493280102.248507) can0 1BFC38B7#80016484250202B3
(1493280102.248838) can0 1BFC38B6#000003DA001F34A8
(1493280102.249066) can0 1BFC38B5#0502FF9202028292
(1493280102.249490) can0 1BFC38B4#00010101001F0003
(1493280102.249756) can0 1BFC38B3#800164843240CCBB
(1493280102.250132) can0 1BFC38B2#80016484838300F0
(1493280102.256100) can0 30B#5F00110000000098
(1493280102.305860) can0 1FD#0000000000000000
(1493280102.306079) can0 30B#5F00110000000098
(1493280102.313870) can0 3C0#6A7E1335
(1493280102.355368) can0 30B#5F00110000000098
(1493280102.365134) can0 1FD#0000000000000000
(1493280102.405751) can0 6C7#04051101020000
(1493280102.405970) can0 30B#5F00110000000098
(1493280102.406083) can0 5F2#CC00
(1493280102.417621) can0 3C0#6A7E1335
(1493280102.424782) can0 1FD#0000000000000000
(1493280102.455264) can0 30B#5F00110000000098
(1493280102.484789) can0 1FD#0000000000000000
(1493280102.498258) can0 1BFC38B1#0000000000000000
(1493280102.498498) can0 1BFC38BB#FFFFFFFFFFFFFFFF
(1493280102.498882) can0 1BFC38BA#535553500000001A
(1493280102.499114) can0 1BFC38B9#020096408008FC68
(1493280102.499492) can0 1BFC38B8#0000000800000000
(1493280102.499745) can0 1BFC38B7#80016484250202EF
(1493280102.500125) can0 1BFC38B6#000003DD00000000
(1493280102.500367) can0 1BFC38B5#0502FF9202028292
(1493280102.500787) can0 1BFC38B4#00010101001F0003
(1493280102.501048) can0 1BFC38B3#800164843240CCBB
(1493280102.501384) can0 1BFC38B2#80016484838300F0
(1493280102.506393) can0 30B#5F00110000000098
(1493280102.506635) can0 65E#88086A5261360800
(1493280102.516014) can0 62F#4451000728
(1493280102.521865) can0 3C0#6A7E1335
(1493280102.544759) can0 1FD#0000000000000000
(1493280102.555264) can0 30B#5F00110000000098
(1493280102.605785) can0 6C7#04051101020000
(1493280102.606025) can0 1FD#0000000000000000
(1493280102.606399) can0 30B#5F00110000000098
(1493280102.606474) can0 5F2#CC00
(1493280102.625987) can0 3C0#6A7E1335
(1493280102.655270) can0 30B#5F00110000000098
(1493280102.665270) can0 1FD#0000000000000000
(1493280102.705897) can0 30B#5F00110000000098
(1493280102.724807) can0 1FD#0000000000000000
(1493280102.729525) can0 3C0#6A7E1335
(1493280102.747031) can0 1BFC38B1#0000000000000000
(1493280102.747224) can0 1BFC38BB#FFFFFFFFFFFFFFFF
(1493280102.747600) can0 1BFC38BA#0000000700000014
(1493280102.747848) can0 1BFC38B9#020096408008FC68
(1493280102.748227) can0 1BFC38B8#0000000800000000
(1493280102.748488) can0 1BFC38B7#80016484250202EF
(1493280102.748891) can0 1BFC38B6#000003DF00000000
(1493280102.749229) can0 1BFC38B5#0502FF9202028292
(1493280102.749477) can0 1BFC38B4#00010101001F0003
(1493280102.749849) can0 1BFC38B3#800164843240CCBB
(1493280102.750102) can0 1BFC38B2#80016484838300F0
(1493280102.756184) can0 30B#5F00110000000098
(1493280102.784783) can0 1FD#0000000000000000
(1493280102.805943) can0 6C7#04051101020000
(1493280102.806152) can0 30B#5F00110000000098
(1493280102.806263) can0 5F2#CC00
(1493280102.833489) can0 3C0#6A7E1335
(1493280102.844787) can0 1FD#0000000000000000
(1493280102.855440) can0 30B#5F00110000000098
(1493280102.905914) can0 1FD#0000000000000000
(1493280102.906152) can0 30B#5F00110000000098
(1493280102.937393) can0 3C0#6A7E1335
(1493280102.955433) can0 30B#5F00110000000098
(1493280102.965184) can0 1FD#0000000000000000
(1493280102.998296) can0 1BFC38B1#0000000000000000
(1493280102.998505) can0 1BFC38BB#FFFFFFFFFFFFFFFF
(1493280102.998914) can0 1BFC38BA#0000000700000014
(1493280102.999278) can0 1BFC38B9#020096408008FC68
(1493280102.999542) can0 1BFC38B8#0000000800000000
(1493280102.999901) can0 1BFC38B7#80016484250202EF
(1493280103.000136) can0 1BFC38B6#000003E2001F0003
(1493280103.000511) can0 1BFC38B5#0502FF9202028292
(1493280103.000902) can0 1BFC38B4#00010101001F0003
(1493280103.001165) can0 1BFC38B3#8001648431001100
(1493280103.001442) can0 1BFC38B2#8001648483830076
(1493280103.006453) can0 6C7#04051101020000
(1493280103.006674) can0 30B#5F00110000000098
(1493280103.006938) can0 5F2#CC00
(1493280103.007022) can0 643#000200
(1493280103.007437) can0 64E#00B1040000000000
(1493280103.007629) can0 65E#880815A563F40800
(1493280103.007907) can0 6B8#6D08000000000000
(1493280103.008155) can0 6BC#9A823851324C077E
(1493280103.025053) can0 1FD#0000000000000000
(1493280103.041258) can0 3C0#6A7E1335
(1493280103.055415) can0 30B#5F00110000000098
(1493280103.084815) can0 1FD#0000000000000000
(1493280103.106092) can0 30B#5F00110000000098
(1493280103.115070) can0 6B6#390C1C000728
(1493280103.115470) can0 6B7#BEB4000008FF80FE
(1493280103.144922) can0 1FD#0000000000000000
(1493280103.145321) can0 3C0#6A7E1335
(1493280103.155433) can0 30B#5F00110000000098
(1493280103.205831) can0 6C7#04051101020000
(1493280103.206050) can0 1FD#0000000000000000
(1493280103.206455) can0 30B#5F00110000000098
(1493280103.206543) can0 5F2#CB00
(1493280103.247049) can0 1BFC38B1#0000000000000000
(1493280103.247289) can0 1BFC38BB#FFFFFFFFFFFFFFFF
(1493280103.247666) can0 1BFC38BA#0000000700000014
(1493280103.248018) can0 1BFC38B9#020096408008FC68
(1493280103.248270) can0 1BFC38B8#0000000800000000
(1493280103.248677) can0 1BFC38B7#80016484250202EF
(1493280103.248934) can0 1BFC38B6#000003E402028292
(1493280103.249307) can0 1BFC38B5#0502FF9202028292
(1493280103.249528) can0 3C0#6A7E1335
(1493280103.249530) can0 1BFC38B4#00010101001F0003
(1493280103.249901) can0 1BFC38B3#8001648431001100
(1493280103.250285) can0 1BFC38B2#8001648483830076
(1493280103.256182) can0 30B#5F00110000000098
(1493280103.265097) can0 1FD#0000000000000000
(1493280103.305976) can0 30B#5F00110000000098
(1493280103.324905) can0 1FD#0000000000000000
(1493280103.353301) can0 3C0#6A7E1335
(1493280103.355540) can0 30B#5F00110000000098
(1493280103.384954) can0 1FD#0000000000000000
(1493280103.405954) can0 6C7#04051101020000
(1493280103.406228) can0 30B#5F00110000000098
(1493280103.406306) can0 5F2#CB00
(1493280103.444970) can0 1FD#0000000000000000
(1493280103.455464) can0 30B#5F00110000000098
(1493280103.456971) can0 3C0#6A7E1335
(1493280103.498341) can0 1BFC38B1#0000000000000000
(1493280103.498732) can0 1BFC38BB#FFFFFFFFFFFFFFFF
(1493280103.498946) can0 1BFC38BA#0000000700000014
(1493280103.499336) can0 1BFC38B9#030296408005A3F4
(1493280103.499582) can0 1BFC38B8#0000000800000000
(1493280103.500007) can0 1BFC38B7#800164842502022B
(1493280103.500229) can0 1BFC38B6#000003E700000000
(1493280103.500620) can0 1BFC38B5#0502FF9202028292
(1493280103.500997) can0 1BFC38B4#00010101001F0003
(1493280103.501221) can0 1BFC38B3#8001648431001100
(1493280103.501617) can0 1BFC38B2#8001648483830076
(1493280103.506619) can0 1FD#0000000000000000
(1493280103.506852) can0 30B#5F00110000000098
(1493280103.507158) can0 65E#88087BF6B9330800
(1493280103.516065) can0 62F#4451000729
(1493280103.555494) can0 30B#5F00110000000098
(1493280103.561223) can0 3C0#6A7E1335
(1493280103.565377) can0 1FD#0000000000000000
(1493280103.606008) can0 6C7#04051101020000
(1493280103.606211) can0 30B#5F00110000000098
(1493280103.606340) can0 5F2#CB00
(1493280103.625018) can0 1FD#0000000000000000
(1493280103.655481) can0 30B#5F00110000000098
(1493280103.664972) can0 3C0#6A7E1335
(1493280103.685012) can0 1FD#0000000000000000
(1493280103.705981) can0 30B#5F00110000000098
(1493280103.745018) can0 1FD#0000000000000000
(1493280103.747112) can0 1BFC38B1#0000000000000000
(1493280103.747504) can0 1BFC38BB#FFFFFFFFFFFFFFFF
(1493280103.747723) can0 1BFC38BA#535553500000001A
(1493280103.748117) can0 1BFC38B9#030296408005A3F4
(1493280103.748364) can0 1BFC38B8#0000000800000000
(1493280103.748745) can0 1BFC38B7#800164842502022B
(1493280103.749002) can0 1BFC38B6#000003E900000000
(1493280103.749374) can0 1BFC38B5#0502FF9202028292
(1493280103.749612) can0 1BFC38B4#00010101001F0003
(1493280103.749993) can0 1BFC38B3#8001648431001100
(1493280103.750246) can0 1BFC38B2#8001648483830076
(1493280103.756248) can0 30B#5F00110000000098
(1493280103.768739) can0 3C0#6A7E1335
(1493280103.805990) can0 6C7#04051101020000
(1493280103.806243) can0 1FD#0000000000000000
(1493280103.806618) can0 30B#5F00110000000098
(1493280103.806731) can0 5F2#CB00
(1493280103.855531) can0 30B#5F00110000000098
(1493280103.865371) can0 1FD#0000000000000000
(1493280103.872115) can0 3C0#6A7E1335
(1493280103.905994) can0 30B#5F00110000000098
(1493280103.924999) can0 1FD#0000000000000000
(1493280103.955510) can0 30B#5F00110000000098
(1493280103.975348) can0 3C0#6A7E1335
(1493280103.985038) can0 1FD#0000000000000000
(1493280103.998416) can0 1BFC38B1#0000000000000000
(1493280103.998758) can0 1BFC38BB#FFFFFFFFFFFFFFFF
(1493280103.999148) can0 1BFC38BA#535553500000001A
(1493280103.999349) can0 1BFC38B9#030296408005A3F4
(1493280103.999739) can0 1BFC38B8#0000000800000000
(1493280103.999968) can0 1BFC38B7#800164842502022B
(1493280104.000411) can0 1BFC38B6#000003EC001F0003
(1493280104.000665) can0 1BFC38B5#0502FF9202028292
(1493280104.001039) can0 1BFC38B4#00010101001F0003
(1493280104.001268) can0 1BFC38B3#8001648431003322
(1493280104.001633) can0 1BFC38B2#80016484838380FA
(1493280104.006666) can0 6C7#04051101020000
(1493280104.006892) can0 30B#5F00110000000098
(1493280104.006978) can0 5F2#CB00
(1493280104.007256) can0 643#000200
(1493280104.007501) can0 64E#00B1040000000000
(1493280104.007742) can0 65E#88082B188C3A0500
(1493280104.008158) can0 6B8#6D08000000000000
(1493280104.008380) can0 6BC#9A823851324C078E
(1493280104.045014) can0 1FD#0000000000000000
(1493280104.055517) can0 30B#5F00110000000098
(1493280104.078624) can0 3C0#6A7E1335
(1493280104.106019) can0 1FD#0000000000000000
(1493280104.106249) can0 30B#5F00110000000098
(1493280104.106670) can0 630#33C37803E0080272
(1493280104.106854) can0 62D#34837801F8000000
(1493280104.107003) can0 631#34D400
(1493280104.115267) can0 6B6#390C1C000729
(1493280104.115470) can0 6B7#BEB4000008FF80FE
(1493280104.155523) can0 30B#5F00110000000098
(1493280104.165552) can0 1FD#0000000000000000
(1493280104.182358) can0 3C0#6A7E1335
(1493280104.206026) can0 6C7#04051101020000
(1493280104.206268) can0 30B#5F00110000000098
(1493280104.206379) can0 5F2#CB00
(1493280104.225026) can0 1FD#0000000000000000
(1493280104.247186) can0 1BFC38B1#0000000000000000
(1493280104.247578) can0 1BFC38BB#FFFFFFFFFFFFFFFF
(1493280104.247741) can0 1BFC38BA#535553500000001A
(1493280104.248162) can0 1BFC38B9#030296408005A3F4
(1493280104.248415) can0 1BFC38B8#0000000800000000
(1493280104.248790) can0 1BFC38B7#800164842502022B
(1493280104.249233) can0 1BFC38B6#000003EE001F34A8
(1493280104.249407) can0 1BFC38B5#0502FF9202028292
(1493280104.249782) can0 1BFC38B4#00010101001F0003
(1493280104.250030) can0 1BFC38B3#8001648431003322
(1493280104.250403) can0 1BFC38B2#80016484838380FA
(1493280104.256299) can0 30B#5F00110000000098
(1493280104.285036) can0 1FD#0000000000000000
(1493280104.286127) can0 3C0#6A7E1335
(1493280104.306168) can0 30B#5F00110000000098
(1493280104.345082) can0 1FD#0000000000000000
(1493280104.355575) can0 30B#5F00110000000098
(1493280104.389952) can0 3C0#6A7E1335
(1493280104.406171) can0 6C7#04051101020000
(1493280104.406412) can0 1FD#0000000000000000
(1493280104.406669) can0 30B#5F00110000000098
(1493280104.406918) can0 5F2#CB00
(1493280104.455580) can0 30B#5F00110000000098
(1493280104.465454) can0 1FD#0000000000000000
(1493280104.493677) can0 3C0#6A7E1335
(1493280104.498705) can0 1BFC38B1#0000000000000000
(1493280104.499062) can0 1BFC38BB#FFFFFFFFFFFFFFFF
(1493280104.499281) can0 1BFC38BA#535553500000001A
(1493280104.499544) can0 1BFC38B9#040096408008FC68
(1493280104.499913) can0 1BFC38B8#0000000800000000
(1493280104.500166) can0 1BFC38B7#8001648425020267
(1493280104.500582) can0 1BFC38B6#000003F100000000
(1493280104.500833) can0 1BFC38B5#0502FF9202028292
(1493280104.501174) can0 1BFC38B4#00010101001F0003
(1493280104.501442) can0 1BFC38B3#8001648431003322
(1493280104.501817) can0 1BFC38B2#80016484838380FA
(1493280104.505085) can0 30B#5F00110000000098
(1493280104.505343) can0 65E#8808A7583ECC0400
(1493280104.516305) can0 62F#445100072A
(1493280104.525051) can0 1FD#0000000000000000
(1493280104.555681) can0 30B#5F00110000000098
(1493280104.585059) can0 1FD#0000000000000000
(1493280104.597052) can0 3C0#6A7E1335
(1493280104.606059) can0 6C7#04051101020000
(1493280104.606437) can0 30B#5F00110000000098
(1493280104.606522) can0 5F2#CA00
(1493280104.645061) can0 1FD#0000000000000000
(1493280104.655695) can0 30B#5F00110000000098
(1493280104.700312) can0 3C0#6A7E1335
(1493280104.706194) can0 1FD#0000000000000000
(1493280104.706447) can0 30B#5F00110000000098
(1493280104.747220) can0 1BFC38B1#0000000000000000
(1493280104.747586) can0 1BFC38BB#FFFFFFFFFFFFFFFF
(1493280104.748033) can0 1BFC38BA#0000000700000014
(1493280104.748187) can0 1BFC38B9#040096408008FC68
(1493280104.748569) can0 1BFC38B8#0000000800000000
(1493280104.748820) can0 1BFC38B7#8001648425020267
(1493280104.749213) can0 1BFC38B6#000003F300000000
(1493280104.749567) can0 1BFC38B5#0502FF9202028292
(1493280104.749812) can0 1BFC38B4#00010101001F0003
(1493280104.750178) can0 1BFC38B3#8001648431003322
(1493280104.750429) can0 1BFC38B2#80016484838380FA
(1493280104.756485) can0 30B#5F00110000000098
(1493280104.765072) can0 1FD#0000000000000000
(1493280104.804034) can0 3C0#6A7E1335
(1493280104.806059) can0 6C7#04051101020000
(1493280104.806435) can0 30B#5F00110000000098
(1493280104.806531) can0 5F2#CA00
(1493280104.825079) can0 1FD#0000000000000000
(1493280104.855709) can0 30B#5F00110000000098
(1493280104.885119) can0 1FD#0000000000000000
(1493280104.906078) can0 30B#5F00110000000098
(1493280104.907315) can0 3C0#6A7E1335
(1493280104.945099) can0 1FD#0000000000000000
(1493280104.955710) can0 30B#5F00110000000098
(1493280104.998606) can0 1BFC38B1#0000000000000000
(1493280104.998844) can0 1BFC38BB#FFFFFFFFFFFFFFFF
(1493280104.999255) can0 1BFC38BA#0000000700000014
(1493280104.999468) can0 1BFC38B9#040096408008FC68
(1493280104.999845) can0 1BFC38B8#0000000800000000
(1493280105.000083) can0 1BFC38B7#8001648425020267
(1493280105.000483) can0 1BFC38B6#000003F6001F0003
(1493280105.000865) can0 1BFC38B5#0502FF9202028292
(1493280105.001116) can0 1BFC38B4#00010101001F0003
(1493280105.001478) can0 1BFC38B3#8001648432408877
(1493280105.001706) can0 1BFC38B2#80016484838300D2
(1493280105.006738) can0 6C7#04051101020000
(1493280105.007109) can0 1FD#0000000000000000
(1493280105.007183) can0 30B#5F00110000000098
(1493280105.007496) can0 5F2#CA00
(1493280105.007605) can0 643#000200
(1493280105.007996) can0 64E#00B1040000000000
(1493280105.008193) can0 65E#88081CE875BA0800
(1493280105.008477) can0 6B8#6D08000000000000
(1493280105.008735) can0 6BC#9A823851324C0792
(1493280105.011093) can0 3C0#6A7E1335
(1493280105.055727) can0 30B#5F00110000000098
(1493280105.065257) can0 1FD#0000000000000000
(1493280105.106356) can0 30B#5F00110000000098
(1493280105.114593) can0 3C0#6A7E1335
(1493280105.115318) can0 6B6#390C1C00072A
(1493280105.115568) can0 6B7#BEB4000008FF80FE
(1493280105.125102) can0 1FD#0000000000000000
(1493280105.155758) can0 30B#5F00110000000098
(1493280105.185122) can0 1FD#0000000000000000
(1493280105.206240) can0 6C7#04051101020000
(1493280105.206466) can0 30B#5F00110000000098
(1493280105.206573) can0 5F2#CA00
(1493280105.218500) can0 3C0#6A7E1335
(1493280105.245120) can0 1FD#0000000000000000
(1493280105.247393) can0 1BFC38B1#0000000000000000
(1493280105.247612) can0 1BFC38BB#FFFFFFFFFFFFFFFF
(1493280105.248006) can0 1BFC38BA#0000000700000014
(1493280105.248246) can0 1BFC38B9#040096408008FC68
(1493280105.248646) can0 1BFC38B8#0000000800000000
(1493280105.248903) can0 1BFC38B7#8001648425020267
(1493280105.249241) can0 1BFC38B6#000003F802028292
(1493280105.249490) can0 1BFC38B5#0502FF9202028292
(1493280105.249882) can0 1BFC38B4#00010101001F0003
(1493280105.250262) can0 1BFC38B3#8001648432408877
(1493280105.250504) can0 1BFC38B2#80016484838300D2
(1493280105.256491) can0 30B#5F00110000000098
(1493280105.306246) can0 1FD#0000000000000000
(1493280105.306485) can0 30B#5F00110000000098
(1493280105.322113) can0 3C0#6A7E1335
(1493280105.355755) can0 30B#5F00110000000098
(1493280105.365504) can0 1FD#0000000000000000
(1493280105.406254) can0 6C7#04051101020000
(1493280105.406477) can0 30B#5F00110000000098
(1493280105.406755) can0 5F2#CA00
(1493280105.425121) can0 1FD#0000000000000000
(1493280105.425714) can0 3C0#6A7E1335
(1493280105.455759) can0 30B#5F00110000000098
(1493280105.485140) can0 1FD#0000000000000000
(1493280105.498641) can0 1BFC38B1#0000000000000000
(1493280105.499023) can0 1BFC38BB#FFFFFFFFFFFFFFFF
(1493280105.499250) can0 1BFC38BA#0000000700000014
(1493280105.499640) can0 1BFC38B9#050296408005A3F4
(1493280105.499887) can0 1BFC38B8#0000000800000000
(1493280105.500261) can0 1BFC38B7#80016484250202A3
(1493280105.500511) can0 1BFC38B6#000003FB00000000
(1493280105.500884) can0 1BFC38B5#0502FF9202028292
(1493280105.501165) can0 1BFC38B4#00010101001F0003
(1493280105.501544) can0 1BFC38B3#8001648432408877
(1493280105.501760) can0 1BFC38B2#80016484838300D2
(1493280105.506749) can0 30B#5F00110000000098
(1493280105.507152) can0 65E#88081D4442ED0400
(1493280105.516405) can0 62F#445100072B
(1493280105.529351) can0 3C0#6A7E1335
(1493280105.545157) can0 1FD#0000000000000000
(1493280105.555777) can0 30B#5F00110000000098
(1493280105.606164) can0 6C7#04051101020000
(1493280105.606580) can0 1FD#0000000000000000
(1493280105.606766) can0 30B#5F00110000000098
(1493280105.606888) can0 5F2#CA00
(1493280105.632763) can0 3C0#6A7E1335
(1493280105.655788) can0 30B#5F00110000000098
(1493280105.665527) can0 1FD#0000000000000000
(1493280105.695625) can0 0F8#D3
(1493280105.706252) can0 30B#5F00110000000098
(1493280105.725116) can0 1FD#0000000000000000
(1493280105.736749) can0 3C0#6A7E1335
(1493280105.745797) can0 379#
(1493280105.747421) can0 1BFC38B1#0000000000000000
(1493280105.747765) can0 1BFC38BB#FFFFFFFFFFFFFFFF
(1493280105.748012) can0 1BFC38BA#535553500000001A
(1493280105.748323) can0 1BFC38B9#050296408005A3F4
(1493280105.748677) can0 1BFC38B8#0000000800000000
(1493280105.749060) can0 1BFC38B7#80016484250202A3
(1493280105.749259) can0 1BFC38B6#000003FD00000000
(1493280105.749636) can0 1BFC38B5#0502FF9202028292
(1493280105.749887) can0 1BFC38B4#00010101001F0003
(1493280105.750264) can0 1BFC38B3#8001648432408877
(1493280105.750513) can0 1BFC38B2#80016484838300D2
(1493280105.756562) can0 30B#5F00110000000098
(1493280105.785182) can0 1FD#0000000000000000
(1493280105.796052) can0 31F#A389032B
(1493280105.806303) can0 6C7#04051101020000
(1493280105.806546) can0 30B#5F00110000000098
(1493280105.806787) can0 5F2#CA00
(1493280105.840790) can0 3C0#6A7E1335
(1493280105.845179) can0 1FD#0000000000000000
(1493280105.846189) can0 252#
(1493280105.855775) can0 30B#5F00110000000098
(1493280105.896184) can0 008#C9
(1493280105.906309) can0 1FD#0000000000000000
(1493280105.906546) can0 30B#5F00110000000098
(1493280105.944180) can0 3C0#6A7E1335
(1493280105.946324) can0 4E1#0A
(1493280105.955838) can0 30B#5F00110000000098
(1493280105.965679) can0 1FD#0000000000000000
(1493280105.996459) can0 321#
(1493280105.998804) can0 1BFC38B1#0000000000000000
(1493280105.999059) can0 1BFC38BB#FFFFFFFFFFFFFFFF
(1493280105.999428) can0 1BFC38BA#535553500000001A
(1493280105.999632) can0 1BFC38B9#050296408005A3F4
(1493280106.000093) can0 1BFC38B8#0000000800000000
(1493280106.000307) can0 1BFC38B7#80016484250202A3
(1493280106.000680) can0 1BFC38B6#00000400001F0003
(1493280106.000930) can0 1BFC38B5#0502FF9202028292
(1493280106.001303) can0 1BFC38B4#00010101001F0003
(1493280106.001552) can0 1BFC38B3#800164843100DDCC
(1493280106.001942) can0 1BFC38B2#8001648483830038
(1493280106.006836) can0 6C7#04051101020000
(1493280106.007211) can0 30B#5F00110000000098
(1493280106.007368) can0 5F2#CA00
(1493280106.007419) can0 643#000200
(1493280106.007837) can0 64E#00B1040000000000
(1493280106.008054) can0 65E#88088A4572470B00
(1493280106.008312) can0 6B8#6D08000000000000
(1493280106.008569) can0 6BC#9A823851324C0798
(1493280106.025208) can0 1FD#0000000000000000
(1493280106.046553) can0 52B#46312F66
(1493280106.047891) can0 3C0#6A7E1335
(1493280106.055866) can0 30B#5F00110000000098
(1493280106.085312) can0 1FD#0000000000000000
(1493280106.096829) can0 146#04BA4B27BF940670
(1493280106.106470) can0 30B#5F00110000000098
(1493280106.106691) can0 630#33C414
(1493280106.106935) can0 62D#348414
(1493280106.115555) can0 6B6#390C1C00072B
(1493280106.115815) can0 6B7#BEB4000008FF80FE
(1493280106.116437) can0 631#34D500
(1493280106.145185) can0 1FD#0000000000000000
(1493280106.146942) can0 24A#DAD00E5B69
(1493280106.151545) can0 3C0#6A7E1335
(1493280106.156037) can0 30B#5F00110000000098
(1493280106.197194) can0 179#13D34801CCC3EC27
(1493280106.206328) can0 6C7#04051101020000
(1493280106.206695) can0 1FD#0000000000000000
(1493280106.206916) can0 30B#5F00110000000098
(1493280106.207194) can0 5F2#CA00
(1493280106.247412) can0 5FD#BAD90C5F059E3350
(1493280106.247577) can0 1BFC38B1#0000000000000000
(1493280106.247972) can0 1BFC38BB#FFFFFFFFFFFFFFFF
(1493280106.248365) can0 1BFC38BA#535553500000001A
(1493280106.248577) can0 1BFC38B9#050296408005A3F4
(1493280106.248950) can0 1BFC38B8#0000000800000000
(1493280106.249200) can0 1BFC38B7#80016484250202A3
(1493280106.249589) can0 1BFC38B6#00000402001F34A8
(1493280106.249932) can0 1BFC38B5#0502FF9202028292
(1493280106.250182) can0 1BFC38B4#00010101001F0003
(1493280106.250557) can0 1BFC38B3#800164843100DDCC
(1493280106.250801) can0 1BFC38B2#8001648483830038
(1493280106.255290) can0 3C0#6A7E1335
(1493280106.256576) can0 30B#5F00110000000098
(1493280106.265363) can0 1FD#0000000000000000
(1493280106.297328) can0 4AB#2BE01A
(1493280106.306457) can0 30B#5F00110000000098
(1493280106.325335) can0 1FD#0000000000000000
(1493280106.347600) can0 535#5900A64B56
(1493280106.355973) can0 30B#5F00110000000098
(1493280106.359191) can0 3C0#6A7E1335
(1493280106.385337) can0 1FD#0000000000000000
(1493280106.397756) can0 665#A23DF475913B460F
(1493280106.406352) can0 6C7#04051101020000
(1493280106.406590) can0 30B#5F00110000000098
(1493280106.406847) can0 5F2#CA00
(1493280106.445388) can0 1FD#0000000000000000
(1493280106.447841) can0 732#B5010B2E78C05212
(1493280106.455951) can0 30B#5F00110000000098
(1493280106.462722) can0 3C0#6A7E1335
(1493280106.497992) can0 602#375559024CD8E56C
(1493280106.498848) can0 1BFC38B1#0000000000000000
(1493280106.499083) can0 1BFC38BB#FFFFFFFFFFFFFFFF
(1493280106.499467) can0 1BFC38BA#535553500000001A
(1493280106.499724) can0 1BFC38B9#060096408008FC68
(1493280106.500098) can0 1BFC38B8#0000000800000000
(1493280106.500347) can0 1BFC38B7#80016484250202DF
(1493280106.500723) can0 1BFC38B6#0000040500000000
(1493280106.500960) can0 1BFC38B5#0502FF9202028292
(1493280106.501348) can0 1BFC38B4#00010101001F0003
(1493280106.501615) can0 1BFC38B3#800164843100DDCC
(1493280106.501981) can0 1BFC38B2#8001648483830038
(1493280106.507007) can0 1FD#0000000000000000
(1493280106.507236) can0 30B#5F00110000000098
(1493280106.507596) can0 65E#88080A17A1060A00
(1493280106.516491) can0 62F#445100072C
(1493280106.548241) can0 72F#B5
(1493280106.556009) can0 30B#5F00110000000098
(1493280106.565589) can0 1FD#0000000000000000
(1493280106.566441) can0 3C0#6A7E1335
(1493280106.598371) can0 08E#74E4A6338BDE513C
(1493280106.606390) can0 6C7#04051101020000
(1493280106.606573) can0 30B#5F00110000000098
(1493280106.606874) can0 5F2#CA00
(1493280106.625370) can0 1FD#0000000000000000
(1493280106.648567) can0 4F3#917C850C9EB9887E
(1493280106.655873) can0 30B#5F00110000000098
(1493280106.670062) can0 3C0#6A7E1335
(1493280106.685363) can0 1FD#0000000000000000
(1493280106.698631) can0 6B2#2B2B6247E7139138
(1493280106.706493) can0 30B#5F00110000000098
(1493280106.745369) can0 1FD#0000000000000000
(1493280106.747499) can0 1BFC38B1#0000000000000000
(1493280106.747871) can0 1BFC38BB#FFFFFFFFFFFFFFFF
(1493280106.748284) can0 1BFC38BA#0000000700000014
(1493280106.748491) can0 1BFC38B9#060096408008FC68
(1493280106.748733) can0 5F1#3D14F545
(1493280106.748860) can0 1BFC38B8#0000000800000000
(1493280106.749109) can0 1BFC38B7#80016484250202DF
(1493280106.749605) can0 1BFC38B6#0000040700000000
(1493280106.749860) can0 1BFC38B5#0502FF9202028292
(1493280106.750244) can0 1BFC38B4#00010101001F0003
(1493280106.750486) can0 1BFC38B3#800164843100DDCC
(1493280106.750868) can0 1BFC38B2#8001648483830038
(1493280106.756759) can0 30B#5F00110000000098
(1493280106.773887) can0 3C0#6A7E1335
(1493280106.798877) can0 002#E8EF0D29342F8A24
(1493280106.806529) can0 6C7#04051101020000
(1493280106.806737) can0 1FD#0000000000000000
(1493280106.806995) can0 30B#5F00110000000098
(1493280106.807227) can0 5F2#CA00
(1493280106.849150) can0 0C8#ACEFDC36CB86266B
(1493280106.856029) can0 30B#5F00110000000098
(1493280106.865886) can0 1FD#0000000000000000
(1493280106.877750) can0 3C0#6A7E1335
(1493280106.899277) can0 556#175F0C
(1493280106.906515) can0 30B#5F00110000000098
(1493280106.925412) can0 1FD#0000000000000000
(1493280106.949400) can0 2F5#2E1DA63783EB187A
(1493280106.956024) can0 30B#5F00110000000098
(1493280106.981609) can0 3C0#6A7E1335
(1493280106.985423) can0 1FD#0000000000000000
(1493280106.998892) can0 1BFC38B1#0000000000000000
(1493280106.999255) can0 1BFC38BB#FFFFFFFFFFFFFFFF
(1493280106.999520) can0 595#0FCA
(1493280106.999523) can0 1BFC38BA#0000000700000014
(1493280106.999893) can0 1BFC38B9#060096408008FC68
(1493280107.000300) can0 1BFC38B8#0000000800000000
(1493280107.000558) can0 1BFC38B7#80016484250202DF
(1493280107.000904) can0 1BFC38B6#0000040A001F0003
(1493280107.001278) can0 1BFC38B5#0502FF9202028292
(1493280107.001533) can0 1BFC38B4#00010101001F0003
(1493280107.001903) can0 1BFC38B3#800164843100FFEE
(1493280107.002123) can0 1BFC38B2#800164848383809C
(1493280107.006906) can0 6C7#04051101020000
(1493280107.007243) can0 30B#5F00110000000098
(1493280107.007358) can0 5F2#CA00
(1493280107.007635) can0 643#000200
(1493280107.007875) can0 64E#00B1040000000000
(1493280107.008298) can0 65E#8808F50360890B00
(1493280107.008555) can0 6B8#6D08000000000000
(1493280107.008810) can0 6BC#9A823851324C079D
(1493280107.045431) can0 1FD#0000000000000000
(1493280107.049688) can0 7D1#
(1493280107.056024) can0 30B#5F00110000000098
(1493280107.084975) can0 3C0#6A7E1335
(1493280107.099771) can0 35C#6AE2
(1493280107.106775) can0 1FD#0000000000000000
(1493280107.106990) can0 30B#5F00110000000098
(1493280107.115651) can0 6B6#390C1C00072C
(1493280107.115867) can0 6B7#BEB4000008FF80FE
(1493280107.149903) can0 2D7#A47D260DD9EAD2
(1493280107.156018) can0 30B#5F00110000000098
(1493280107.165661) can0 1FD#0000000000000000
(1493280107.188401) can0 3C0#6A7E1335
(1493280107.200200) can0 086#0D1A5D344F09EB70
(1493280107.206535) can0 6C7#04051101020000
(1493280107.206921) can0 30B#5F00110000000098
(1493280107.206995) can0 5F2#CA00
(1493280107.225413) can0 1FD#0000000000000000
(1493280107.247679) can0 1BFC38B1#0000000000000000
(1493280107.247911) can0 1BFC38BB#FFFFFFFFFFFFFFFF
(1493280107.248326) can0 1BFC38BA#0000000700000014
(1493280107.248545) can0 1BFC38B9#060096408008FC68
(1493280107.248922) can0 1BFC38B8#0000000800000000
(1493280107.249295) can0 1BFC38B7#80016484250202DF
(1493280107.249548) can0 1BFC38B6#0000040C02028292
(1493280107.249782) can0 1BFC38B5#0502FF9202028292
(1493280107.250162) can0 1BFC38B4#00010101001F0003
(1493280107.250298) can0 729#1A90115C800CBD39
(1493280107.250524) can0 1BFC38B3#800164843100FFEE
(1493280107.251026) can0 1BFC38B2#800164848383809C
(1493280107.256798) can0 30B#5F00110000000098
(1493280107.285434) can0 1FD#0000000000000000
(1493280107.291884) can0 3C0#6A7E1335
(1493280107.300295) can0 69C#05
(1493280107.306823) can0 30B#5F00110000000098
(1493280107.345425) can0 1FD#0000000000000000
(1493280107.350561) can0 3FE#15A527
(1493280107.356175) can0 30B#5F00110000000098
(1493280107.395525) can0 3C0#6A7E1335
(1493280107.400733) can0 7D6#1C2CCD65
(1493280107.406453) can0 6C7#04051101020000
(1493280107.406830) can0 1FD#0000000000000000
(1493280107.407010) can0 30B#5F00110000000098
(1493280107.407138) can0 5F2#CA00
(1493280107.450817) can0 5C4#2AB60B
(1493280107.456058) can0 30B#5F00110000000098
(1493280107.465807) can0 1FD#0000000000000000
(1493280107.498917) can0 1BFC38B1#0000000000000000
(1493280107.499287) can0 1BFC38BB#FFFFFFFFFFFFFFFF
(1493280107.499404) can0 3C0#6A7E1335
(1493280107.499510) can0 1BFC38BA#0000000700000014
(1493280107.500048) can0 1BFC38B9#070296408005A3F4
(1493280107.500274) can0 1BFC38B8#0000000000000000
(1493280107.500653) can0 1BFC38B7#800164842502021B
(1493280107.500921) can0 796#6D227273
(1493280107.500924) can0 1BFC38B6#0000040F00000000
(1493280107.501311) can0 1BFC38B5#0502FF9202028292
(1493280107.501734) can0 1BFC38B4#00010101001F0003
(1493280107.502059) can0 1BFC38B3#800164843100FFEE
(1493280107.502286) can0 1BFC38B2#800164848383809C
(1493280107.507048) can0 30B#5F00110000000098
(1493280107.507415) can0 65E#8808FBC6A1AE0900
(1493280107.516811) can0 62F#445100072D
(1493280107.525459) can0 1FD#0000000000000000
(1493280107.551054) can0 73B#46B5
(1493280107.556106) can0 30B#5F00110000000098
(1493280107.585445) can0 1FD#0000000000000000
(1493280107.601343) can0 59E#10E1C9
(1493280107.603307) can0 3C0#6A7E1335
(1493280107.606603) can0 6C7#04051101020000
(1493280107.606815) can0 30B#5F00110000000098
(1493280107.606919) can0 5F2#CA00
(1493280107.645453) can0 1FD#0000000000000000
(1493280107.651461) can0 10C#4879D77DA8272B0D
(1493280107.656075) can0 30B#5F00110000000098
(1493280107.701574) can0 05C#3AE139485A94C85C
(1493280107.706542) can0 1FD#0000000000000000
(1493280107.706789) can0 30B#5F00110000000098
(1493280107.707193) can0 3C0#6A7E1335
(1493280107.747709) can0 1BFC38B1#0000000000000000
(1493280107.748095) can0 1BFC38BB#FFFFFFFFFFFFFFFF
(1493280107.748315) can0 1BFC38BA#535553500000001A
(1493280107.748580) can0 1BFC38B9#070296408005A3F4
(1493280107.748947) can0 1BFC38B8#0000000000000000
(1493280107.749321) can0 1BFC38B7#800164842502021B
(1493280107.749537) can0 1BFC38B6#0000041100000000
(1493280107.749920) can0 1BFC38B5#0502FF9202028292
(1493280107.750170) can0 1BFC38B4#00010101001F0003
(1493280107.750540) can0 1BFC38B3#800164843100FFEE
(1493280107.750793) can0 1BFC38B2#800164848383809C
(1493280107.751671) can0 081#EEC5365B57D06B09
(1493280107.756819) can0 30B#5F00110000000098
(1493280107.765448) can0 1FD#0000000000000000
(1493280107.801839) can0 573#FEB7081037AB7617
(1493280107.806585) can0 6C7#04051101020000
(1493280107.806805) can0 30B#5F00110000000098
(1493280107.807081) can0 5F2#CA00
(1493280107.810941) can0 3C0#6A7E1335
(1493280107.825463) can0 1FD#0000000000000000
(1493280107.851950) can0 24E#57048A17E491B705
(1493280107.856092) can0 30B#5F00110000000098
(1493280107.885483) can0 1FD#0000000000000000
(1493280107.902234) can0 6BC#515C083F
(1493280107.906848) can0 30B#5F00110000000098
(1493280107.914328) can0 3C0#6A7E1335
(1493280107.945501) can0 1FD#0000000000000000
(1493280107.952352) can0 6D6#B86DFF3B75D461
(1493280107.956065) can0 30B#5F00110000000098
(1493280107.998988) can0 1BFC38B1#0000000000000000
(1493280107.999353) can0 1BFC38BB#FFFFFFFFFFFFFFFF
(1493280107.999744) can0 1BFC38BA#535553500000001A
(1493280107.999941) can0 1BFC38B9#070296408005A3F4
(1493280108.000363) can0 1BFC38B8#0000000000000000
(1493280108.000613) can0 1BFC38B7#800164842502021B
(1493280108.000983) can0 1BFC38B6#00000414001F0003
(1493280108.001222) can0 1BFC38B5#0502FF9202028292
(1493280108.001585) can0 1BFC38B4#00010101001F0003
(1493280108.001842) can0 1BFC38B3#8001648432404433
(1493280108.002210) can0 1BFC38B2#80016484838300F4
(1493280108.002502) can0 0EA#3D417C06F6B9676E
(1493280108.005477) can0 6C7#04051101020000
(1493280108.005851) can0 1FD#0000000000000000
(1493280108.006103) can0 30B#5F00110000000098
(1493280108.006216) can0 5F2#CA00
(1493280108.006490) can0 643#000200
(1493280108.006727) can0 64E#00B1040000000000
(1493280108.006977) can0 65E#8808C1E56FFF0700
(1493280108.007351) can0 6B8#6D08000000000000
(1493280108.007616) can0 6BC#9A823851324C07BA
(1493280108.017823) can0 3C0#6A7E1335
(1493280108.052510) can0 7F3#9FE1927B4F
(1493280108.056136) can0 30B#5F00110000000098
(1493280108.065736) can0 1FD#0000000000000000
(1493280108.102598) can0 4D2#AAB4662D53E5A368
(1493280108.106736) can0 30B#5F00110000000098
(1493280108.107267) can0 630#33CE1300
(1493280108.107493) can0 631#34D602
(1493280108.115872) can0 6B6#390C1C00072D
(1493280108.116101) can0 6B7#BEB4000008FF80FE
(1493280108.116769) can0 62D#348F00
(1493280108.121477) can0 3C0#6A7E1335
(1493280108.125522) can0 1FD#0000000000000000
(1493280108.152755) can0 128#AAB50F729B3E222A
(1493280108.156064) can0 30B#5F00110000000098
(1493280108.185640) can0 1FD#0000000000000000
(1493280108.203018) can0 4A3#D2E99841F23E5A56
(1493280108.206655) can0 6C7#04051101020000
(1493280108.207026) can0 30B#5F00110000000098
(1493280108.207141) can0 5F2#CA00
(1493280108.225367) can0 3C0#6A7E1335
(1493280108.245527) can0 1FD#0000000000000000
(1493280108.247761) can0 1BFC38B1#0000000000000000
(1493280108.248146) can0 1BFC38BB#FFFFFFFFFFFFFFFF
(1493280108.248344) can0 1BFC38BA#535553500000001A
(1493280108.248779) can0 1BFC38B9#070296408005A3F4
(1493280108.249040) can0 1BFC38B8#0000000000000000
(1493280108.249387) can0 1BFC38B7#800164842502021B
(1493280108.249614) can0 1BFC38B6#00000416001F34A8
(1493280108.250005) can0 1BFC38B5#0502FF9202028292
(1493280108.250386) can0 1BFC38B4#00010101001F0003
(1493280108.250588) can0 1BFC38B3#8001648432404433
(1493280108.250882) can0 1BFC38B2#80016484838300F4
(1493280108.253202) can0 3D0#D6D0115C8CE24C68
(1493280108.257029) can0 30B#5F00110000000098
(1493280108.303390) can0 4ED#83786D32C4DBB36F
(1493280108.306781) can0 1FD#0000000000000000
(1493280108.306995) can0 30B#5F00110000000098
(1493280108.328622) can0 3C0#6A7E1335
(1493280108.353375) can0 6BF#39B01532AA1FF328
(1493280108.356285) can0 30B#5F00110000000098
(1493280108.365785) can0 1FD#0000000000000000
(1493280108.403655) can0 505#A0D95A17F8F4
(1493280108.406639) can0 6C7#04051101020000
(1493280108.406880) can0 30B#5F00110000000098
(1493280108.407138) can0 5F2#CA00
(1493280108.425548) can0 1FD#0000000000000000
(1493280108.432399) can0 3C0#6A7E1335
(1493280108.453813) can0 3FB#4815793BCDE8B924
(1493280108.456252) can0 30B#5F00110000000098
(1493280108.485533) can0 1FD#0000000000000000
(1493280108.499023) can0 1BFC38B1#0000000000000000
(1493280108.499391) can0 1BFC38BB#FFFFFFFFFFFFFFFF
(1493280108.499633) can0 1BFC38BA#535553500000001A
(1493280108.500018) can0 1BFC38B9#000096408008FC68
(1493280108.500391) can0 1BFC38B8#0000000800000000
(1493280108.500645) can0 1BFC38B7#8001648425020257
(1493280108.500900) can0 1BFC38B6#0000041900000000
(1493280108.501301) can0 1BFC38B5#0502FF9202028292
(1493280108.501677) can0 1BFC38B4#00010101001F0003
(1493280108.501903) can0 1BFC38B3#8001648432404433
(1493280108.502282) can0 1BFC38B2#80016484838300F4
(1493280108.503958) can0 618#21CE
(1493280108.507296) can0 30B#5F00110000000098
(1493280108.507521) can0 65E#88080A978E830800
(1493280108.516646) can0 62F#445100072E
(1493280108.535861) can0 3C0#6A7E1335
(1493280108.545682) can0 1FD#0000000000000000
(1493280108.554021) can0 48A#DB050B422EB11E3B
(1493280108.556274) can0 30B#5F00110000000098
(1493280108.604168) can0 174#20F0781144CDB238
(1493280108.606652) can0 6C7#04051101020000
(1493280108.607030) can0 1FD#0000000000000000
(1493280108.607267) can0 30B#5F00110000000098
(1493280108.607395) can0 5F2#CA00
(1493280108.639358) can0 3C0#6A7E1335
(1493280108.654278) can0 5D6#D1AFFF20C4F2
(1493280108.656313) can0 30B#5F00110000000098
(1493280108.665910) can0 1FD#0000000000000000
(1493280108.704415) can0 61E#88CE9930
(1493280108.706776) can0 30B#5F00110000000098
(1493280108.725676) can0 1FD#0000000000000000
(1493280108.743383) can0 3C0#6A7E1335
(1493280108.747820) can0 1BFC38B1#0000000000000000
(1493280108.748197) can0 1BFC38BB#FFFFFFFFFFFFFFFF
(1493280108.748582) can0 1BFC38BA#0000000700000014
(1493280108.748791) can0 1BFC38B9#000096408008FC68
(1493280108.749165) can0 1BFC38B8#0000000800000000
(1493280108.749382) can0 1BFC38B7#8001648425020257
(1493280108.749772) can0 1BFC38B6#0000041B00000000
(1493280108.750036) can0 1BFC38B5#0502FF9202028292
(1493280108.750397) can0 1BFC38B4#00010101001F0003
(1493280108.750660) can0 1BFC38B3#8001648432404433
(1493280108.751020) can0 1BFC38B2#80016484838300F4
(1493280108.754563) can0 690#88
(1493280108.757070) can0 30B#5F00110000000098
(1493280108.785672) can0 1FD#0000000000000000
(1493280108.804810) can0 037#8E38EB39321C2758
(1493280108.806677) can0 6C7#04051101020000
(1493280108.807043) can0 30B#5F00110000000098
(1493280108.807156) can0 5F2#CA00
(1493280108.845664) can0 1FD#0000000000000000
(1493280108.847034) can0 3C0#6A7E1335
(1493280108.854891) can0 168#FF04E17C805F
(1493280108.856331) can0 30B#5F00110000000098
(1493280108.905040) can0 7C8#
(1493280108.906682) can0 1FD#0000000000000000
(1493280108.907095) can0 30B#5F00110000000098
(1493280108.950647) can0 3C0#6A7E1335
(1493280108.955026) can0 6EC#800DE00A6048320B
(1493280108.956323) can0 30B#5F00110000000098
(1493280108.966060) can0 1FD#0000000000000000
(1493280108.999212) can0 1BFC38B1#0000000000000000
(1493280108.999425) can0 1BFC38BB#FFFFFFFFFFFFFFFF
(1493280108.999814) can0 1BFC38BA#0000000700000014
(1493280109.000062) can0 1BFC38B9#000096408008FC68
(1493280109.000435) can0 1BFC38B8#0000000800000000
(1493280109.000797) can0 1BFC38B7#8001648425020257
(1493280109.001052) can0 1BFC38B6#0000041E001F0003
(1493280109.001452) can0 1BFC38B5#0502FF9202028292
(1493280109.001698) can0 1BFC38B4#00010101001F0003
(1493280109.002073) can0 1BFC38B3#8001648431009988
(1493280109.002459) can0 1BFC38B2#800164848383003A
(1493280109.005328) can0 44A#
(1493280109.007325) can0 6C7#04051101020000
(1493280109.007528) can0 30B#5F00110000000098
(1493280109.007781) can0 5F2#CB00
(1493280109.007926) can0 643#000200
(1493280109.008327) can0 64E#00B1040000000000
(1493280109.008571) can0 65E#88086C7877520800
(1493280109.008828) can0 6B8#6D08000000000000
(1493280109.009077) can0 6BC#9A823851324C0701
(1493280109.025825) can0 1FD#0000000000000000
(1493280109.053903) can0 3C0#6A7E1335
(1493280109.055401) can0 697#E4EC2551B5
(1493280109.056348) can0 30B#5F00110000000098
(1493280109.085695) can0 1FD#0000000000000000
(1493280109.105594) can0 5CA#93D9733E5AFC2B7A
(1493280109.106854) can0 30B#5F00110000000098
(1493280109.115959) can0 6B6#390C1C00072E
(1493280109.116157) can0 6B7#BEB4000008FF80FE
(1493280109.145715) can0 1FD#0000000000000000
(1493280109.155704) can0 22D#F03F3C4964AAB07F
(1493280109.156277) can0 30B#5F00110000000098
(1493280109.157529) can0 3C0#6A7E1335
(1493280109.205998) can0 444#96C6D757AC2DB27E
(1493280109.206703) can0 6C7#04051101020000
(1493280109.206942) can0 1FD#0000000000000000
(1493280109.207329) can0 30B#5F00110000000098
(1493280109.207412) can0 5F2#CB00
(1493280109.247839) can0 1BFC38B1#0000000000000000
(1493280109.248210) can0 1BFC38BB#FFFFFFFFFFFFFFFF
(1493280109.248585) can0 1BFC38BA#0000000700000014
(1493280109.248835) can0 1BFC38B9#000096408008FC68
(1493280109.249205) can0 1BFC38B8#0000000800000000
(1493280109.249457) can0 1BFC38B7#8001648425020257
(1493280109.249834) can0 1BFC38B6#0000042002028292
(1493280109.250084) can0 1BFC38B5#0502FF9202028292
(1493280109.250487) can0 1BFC38B4#00010101001F0003
(1493280109.250707) can0 1BFC38B3#8001648431009988
(1493280109.251096) can0 1BFC38B2#800164848383003A
(1493280109.256087) can0 654#2C8D93541CDE
(1493280109.257055) can0 30B#5F00110000000098
(1493280109.261965) can0 3C0#6A7E1335
(1493280109.265868) can0 1FD#0000000000000000
(1493280109.306273) can0 6B6#6E3A9126A2F5A368
(1493280109.306836) can0 30B#5F00110000000098
(1493280109.325715) can0 1FD#0000000000000000
(1493280109.356461) can0 08A#023ED673D4FCAB25
(1493280109.356464) can0 30B#5F00110000000098
(1493280109.365593) can0 3C0#6A7E1335
(1493280109.385754) can0 1FD#0000000000000000
(1493280109.406616) can0 58F#F4F6EB352604AE
(1493280109.406716) can0 6C7#04051101020000
(1493280109.407232) can0 30B#5F00110000000098
(1493280109.407309) can0 5F2#CB00
(1493280109.445760) can0 1FD#0000000000000000
(1493280109.456367) can0 30B#5F00110000000098
(1493280109.456574) can0 11C#DCB0366AE606F254
(1493280109.469090) can0 3C0#6A7E1335
(1493280109.499232) can0 1BFC38B1#0000000000000000
(1493280109.499632) can0 1BFC38BB#FFFFFFFFFFFFFFFF
(1493280109.499845) can0 1BFC38BA#0000000700000014
(1493280109.500232) can0 1BFC38B9#010296408005A3F4
(1493280109.500504) can0 1BFC38B8#0000000000000000
(1493280109.500854) can0 1BFC38B7#8006DE6025020592
(1493280109.501106) can0 1BFC38B6#0000042300000000
(1493280109.501479) can0 1BFC38B5#0502FF9202028292
(1493280109.501719) can0 1BFC38B4#00010101001F0003
(1493280109.502088) can0 1BFC38B3#8001648431009988
(1493280109.502462) can0 1BFC38B2#800164848383003A
(1493280109.506743) can0 745#41031E4F73D9406D
(1493280109.507492) can0 1FD#0000000000000000
(1493280109.507729) can0 30B#5F00110000000098
(1493280109.507962) can0 65E#880819C55F620800
(1493280109.516864) can0 62F#445100072F
(1493280109.556365) can0 30B#5F00110000000098
(1493280109.556950) can0 08B#D7
(1493280109.566115) can0 1FD#0000000000000000
(1493280109.572596) can0 3C0#6A7E1335
(1493280109.606741) can0 6C7#04051101020000
(1493280109.606980) can0 3AF#7B2A3A3A03820D14
(1493280109.606982) can0 30B#5F00110000000098
(1493280109.607233) can0 5F2#CB00
(1493280109.625744) can0 1FD#0000000000000000
(1493280109.656376) can0 30B#5F00110000000098
(1493280109.657281) can0 604#1F60DD6ABAB479
(1493280109.675965) can0 3C0#6A7E1335
(1493280109.685782) can0 1FD#0000000000000000
(1493280109.706749) can0 30B#5F00110000000098
(1493280109.707372) can0 395#5DAA1D611F4C5E43
(1493280109.745754) can0 1FD#0000000000000000
(1493280109.748005) can0 1BFC38B1#0000000000000000
(1493280109.748235) can0 1BFC38BB#FFFFFFFFFFFFFFFF
(1493280109.748629) can0 1BFC38BA#535553500000001A
(1493280109.748878) can0 1BFC38B9#010296408005A3F4
(1493280109.749251) can0 1BFC38B8#0000000000000000
(1493280109.749502) can0 1BFC38B7#8006DE6025020592
(1493280109.749872) can0 1BFC38B6#0000042500000000
(1493280109.750127) can0 1BFC38B5#0502FF9202028292
(1493280109.750503) can0 1BFC38B4#00010101001F0003
(1493280109.750752) can0 1BFC38B3#8001648431009988
(1493280109.751138) can0 1BFC38B2#800164848383003A
(1493280109.757276) can0 30B#5F00110000000098
(1493280109.757501) can0 27C#F3480A690C28AA10
(1493280109.767501) can0 64E#00A46C0000000000
(1493280109.779587) can0 3C0#6A7E1335
(1493280109.807021) can0 6C7#04051101020000
(1493280109.807226) can0 1FD#0000000000000000
(1493280109.807537) can0 406#322C586823554F
(1493280109.807540) can0 30B#5F00110000000098
(1493280109.807720) can0 5F2#CB00
(1493280109.856515) can0 30B#5F00110000000098
(1493280109.857776) can0 3C0#095C417E06C3D92E
(1493280109.866011) can0 1FD#0000000000000000
(1493280109.882883) can0 3C0#6A7E1335
(1493280109.906027) can0 30B#5F00110000000098
(1493280109.907851) can0 77E#799C1A1C09183637
(1493280109.926151) can0 1FD#0000000000000000
(1493280109.958038) can0 27B#
(1493280109.958529) can0 30B#0000110000000098
(1493280109.985767) can0 1FD#0000000000000000
(1493280109.986745) can0 3C0#6A7E1335
(1493280110.000648) can0 1BFC38B1#0000000000000000
(1493280110.000894) can0 1BFC38BB#FFFFFFFFFFFFFFFF
(1493280110.001273) can0 1BFC38BA#535553500000001A
(1493280110.001529) can0 1BFC38B9#010296408005A3F4
(1493280110.001879) can0 1BFC38B8#0000000000000000
(1493280110.002126) can0 1BFC38B7#8006DE6025020592
(1493280110.002504) can0 1BFC38B6#000004280000A46C
(1493280110.002751) can0 1BFC38B5#0502FF9202028292
(1493280110.003128) can0 1BFC38B4#110F01010000A46C
(1493280110.003502) can0 1BFC38B3#800164843100BBAA
(1493280110.003766) can0 1BFC38B2#80016484838380BE
(1493280110.006804) can0 6C7#04051101060000
(1493280110.007065) can0 30B#0F00110000000098
(1493280110.007246) can0 5F2#CB00
(1493280110.007519) can0 643#000200
(1493280110.007619) can0 64E#00A46C0000000000
(1493280110.007996) can0 65E#8808A873581C0A00
(1493280110.008178) can0 2BE#2DE048
(1493280110.008271) can0 6B8#6D08000000000000
(1493280110.008678) can0 6BC#9A823851324C0702
(1493280110.026275) can0 62D#4490205200
(1493280110.045941) can0 1FD#0000000000000000
(1493280110.056408) can0 30B#0F00110000000098
(1493280110.058280) can0 6FA#7D35D15F8F62F10C
(1493280110.076163) can0 62D#4491023601
(1493280110.090621) can0 3C0#6A7E1335
(1493280110.106787) can0 1FD#0000000000000000
(1493280110.107156) can0 30B#0F00110000000098
(1493280110.107246) can0 630#33CF00
(1493280110.107523) can0 631#34C2030013000301
(1493280110.108557) can0 2DA#AEAE4F5056BD7454
(1493280110.117066) can0 6B6#390C1C00072F
(1493280110.117294) can0 6B7#BEB4000008FF80FE
(1493280110.156288) can0 30B#0F00110000000098
(1493280110.158691) can0 039#62
(1493280110.165934) can0 1FD#0000000000000000
(1493280110.193994) can0 3C0#6A7E1335
(1493280110.207542) can0 6C7#04051101060000
(1493280110.207793) can0 30B#0F00110000000098
(1493280110.207887) can0 5F2#CB00
(1493280110.208788) can0 789#6359E14B49
(1493280110.225794) can0 1FD#0000000000000000
(1493280110.248048) can0 1BFC38B1#0000000000000000
(1493280110.248458) can0 1BFC38BB#FFFFFFFFFFFFFFFF
(1493280110.248660) can0 1BFC38BA#535553500000001A
(1493280110.248920) can0 1BFC38B9#010296408005A3F4
(1493280110.249294) can0 1BFC38B8#0000000000000000
(1493280110.249674) can0 1BFC38B7#8006DE6025020592
(1493280110.249920) can0 1BFC38B6#0000042A000034A8
(1493280110.250293) can0 1BFC38B5#0502FF9202028292
(1493280110.250558) can0 1BFC38B4#110F01010000A46C
(1493280110.250812) can0 1BFC38B3#800164843100BBAA
(1493280110.251149) can0 1BFC38B2#80016484838380BE
(1493280110.257076) can0 30B#0F00110000000098
(1493280110.258920) can0 6A3#4F1E322D21563F1B
(1493280110.285938) can0 1FD#0000000000000000
(1493280110.297545) can0 3C0#6A7E1335
(1493280110.307052) can0 30B#0F00110000000098
(1493280110.309106) can0 4B7#2A6E755232B73B7D
(1493280110.345932) can0 1FD#0000000000000000
(1493280110.356554) can0 30B#0F00110000000098
(1493280110.359147) can0 319#5D15
(1493280110.400756) can0 3C0#6A7E1335
(1493280110.407058) can0 6C7#04051101060000
(1493280110.407258) can0 1FD#0000000000000000
(1493280110.407554) can0 30B#0F00110000000098
(1493280110.407762) can0 5F2#CB00
(1493280110.409308) can0 255#9AC6850750B9F12D
(1493280110.456320) can0 30B#0F00110000000098
(1493280110.459606) can0 5D7#DF1BE33AB1107B
(1493280110.465937) can0 1FD#0000000000000000
(1493280110.499479) can0 1BFC38B1#0000000000000000
(1493280110.499686) can0 1BFC38BB#FFFFFFFFFFFFFFFF
(1493280110.500073) can0 1BFC38BA#535553500000001A
(1493280110.500313) can0 1BFC38B9#020096408008FC68
(1493280110.500684) can0 1BFC38B8#0000000800000000
(1493280110.500942) can0 1BFC38B7#80016484250202C5
(1493280110.501318) can0 1BFC38B6#0000042D00000000
(1493280110.501555) can0 1BFC38B5#0502FF9202028292
(1493280110.501923) can0 1BFC38B4#110F01010000A46C
(1493280110.502186) can0 1BFC38B3#800164843100BBAA
(1493280110.502528) can0 1BFC38B2#80016484838380BE
(1493280110.504811) can0 3C0#6A7E1335
(1493280110.507547) can0 30B#0F00110000000098
(1493280110.507809) can0 65E#880879B26FC80600
(1493280110.509589) can0 3F1#07CEEF792AA4283E
(1493280110.517192) can0 62F#4451000730
(1493280110.525814) can0 1FD#0000000000000000
(1493280110.556338) can0 30B#0F00110000000098
(1493280110.559858) can0 22F#6AA8BA60B8F9DC1C
(1493280110.585837) can0 1FD#0000000000000000
(1493280110.606815) can0 6C7#04051101060000
(1493280110.607038) can0 30B#0F00110000000098
(1493280110.607290) can0 5F2#CC00
(1493280110.608439) can0 3C0#6A7E1335
(1493280110.609956) can0 4FF#0255351BA2B38B4C
(1493280110.645955) can0 1FD#0000000000000000
(1493280110.656454) can0 30B#0F00110000000098
(1493280110.660083) can0 73A#C4
(1493280110.706834) can0 1FD#0000000000000000
(1493280110.707073) can0 30B#0F00110000000098
(1493280110.710192) can0 61A#23837C0B33090D64
(1493280110.711791) can0 3C0#6A7E1335
(1493280110.748038) can0 1BFC38B1#0000000000000000
(1493280110.748458) can0 1BFC38BB#FFFFFFFFFFFFFFFF
(1493280110.748701) can0 1BFC38BA#0000000700000014
(1493280110.749088) can0 1BFC38B9#020096408008FC68
(1493280110.749463) can0 1BFC38B8#0000000800000000
(1493280110.749711) can0 1BFC38B7#80016484250202C5
(1493280110.750073) can0 1BFC38B6#0000042F00000000
(1493280110.750319) can0 1BFC38B5#0502FF9202028292
(1493280110.750691) can0 1BFC38B4#110F01010000A46C
(1493280110.750942) can0 1BFC38B3#800164843100BBAA
(1493280110.751315) can0 1BFC38B2#80016484838380BE
(1493280110.757224) can0 30B#0F00110000000098
(1493280110.760370) can0 2F1#
(1493280110.765954) can0 1FD#0000000000000000
(1493280110.806594) can0 6C7#04051101060000
(1493280110.806980) can0 30B#0F00110000000098
(1493280110.807077) can0 5F2#CC00
(1493280110.810592) can0 60B#9676911F
(1493280110.815711) can0 3C0#6A7E1335
(1493280110.825969) can0 1FD#0000000000000000
(1493280110.856477) can0 30B#0F00110000000098
(1493280110.860580) can0 1BB#93D41457ACED
(1493280110.885981) can0 1FD#0000000000000000
(1493280110.909754) can0 30B#0F00110000000098
(1493280110.910787) can0 504#D7918659331F342A
(1493280110.916229) can0 64E#00A1000000000000
(1493280110.919601) can0 3C0#6A7E1335
(1493280110.945980) can0 1FD#0000000000000000
(1493280110.956980) can0 30B#0F00110000000098
(1493280110.960883) can0 604#EC
(1493280110.999608) can0 1BFC38B1#0000000000000000
(1493280111.000008) can0 1BFC38BB#FFFFFFFFFFFFFFFF
(1493280111.000371) can0 1BFC38BA#0000000700000014
(1493280111.000594) can0 1BFC38B9#020096408008FC68
(1493280111.001011) can0 1BFC38B8#0000000800000000
(1493280111.001258) can0 1BFC38B7#80016484250202C5
(1493280111.001614) can0 1BFC38B6#000004320000A46C
(1493280111.001860) can0 1BFC38B5#0502FF9202028292
(1493280111.002232) can0 1BFC38B4#110F01010000A46C
(1493280111.002484) can0 1BFC38B3#80016484324000FF
(1493280111.002865) can0 1BFC38B2#80016484838300F6
(1493280111.006143) can0 6C7#04051101060000
(1493280111.006354) can0 1FD#0000000000000000
(1493280111.006632) can0 30B#0F00110000000098
(1493280111.006839) can0 5F2#CC00
(1493280111.006952) can0 643#000200
(1493280111.007338) can0 64E#00A1000000000000
(1493280111.007602) can0 65E#88080AD7A3CF0900
(1493280111.007852) can0 6B8#6D08000000000000
(1493280111.008075) can0 6BC#92823651324C0700
(1493280111.010979) can0 40F#A6CE242949F39B5D
(1493280111.023201) can0 3C0#6A7E1335
(1493280111.056872) can0 30B#0F00110000000098
(1493280111.061138) can0 13F#3ABFDC6B590F623C
(1493280111.066625) can0 1FD#0000000000000000
(1493280111.107762) can0 30B#0F00110000000098
(1493280111.111276) can0 058#8C186F20494BA44A
(1493280111.116253) can0 6B6#390C1C000730
(1493280111.116489) can0 6B7#BEB4000008FF80FE
(1493280111.125944) can0 1FD#0000000000000000
(1493280111.127090) can0 3C0#6A7E1335
(1493280111.156997) can0 30B#0F00110000000098
(1493280111.161379) can0 2DE#9008443CE96800
(1493280111.186034) can0 1FD#0000000000000000
(1493280111.207628) can0 6C7#04051101060000
(1493280111.207741) can0 30B#0F00110000000098
(1493280111.208030) can0 5F2#CC00
(1493280111.211651) can0 53B#CB2C9A50F78E
(1493280111.230739) can0 3C0#6A7E1335
(1493280111.246005) can0 1FD#0000000000000000
(1493280111.248178) can0 1BFC38B1#0000000000000000
(1493280111.248533) can0 1BFC38BB#FFFFFFFFFFFFFFFF
(1493280111.248880) can0 1BFC38BA#0000000700000014
(1493280111.249163) can0 1BFC38B9#020096408008FC68
(1493280111.249515) can0 1BFC38B8#0000000800000000
(1493280111.249735) can0 1BFC38B7#80016484250202C5
(1493280111.250110) can0 1BFC38B6#0000043402028292
(1493280111.250374) can0 1BFC38B5#0502FF9202028292
(1493280111.250746) can0 1BFC38B4#110F01010000A46C
(1493280111.250984) can0 1BFC38B3#80016484324000FF
(1493280111.251359) can0 1BFC38B2#80016484838300F6
(1493280111.257632) can0 30B#0F00110000000098
(1493280111.261686) can0 19C#A37CE13EA06EF11B
(1493280111.307668) can0 1FD#0000000000000000
(1493280111.307775) can0 30B#0F00110000000098
(1493280111.311776) can0 3F8#D48D2546FDF9C628
(1493280111.334256) can0 3C0#6A7E1335
(1493280111.357015) can0 30B#0F00110000000098
(1493280111.361905) can0 0BC#
(1493280111.366264) can0 1FD#0000000000000000
(1493280111.407409) can0 6C7#04051101060000
(1493280111.407792) can0 30B#0F00110000000098
(1493280111.407895) can0 5F2#CC00
(1493280111.412162) can0 4AE#14782217EDF5
(1493280111.426022) can0 1FD#0000000000000000
(1493280111.437497) can0 3C0#6A7E1335
(1493280111.456887) can0 30B#0F00110000000098
(1493280111.462271) can0 410#47058D56690CA50A
(1493280111.486026) can0 1FD#0000000000000000
(1493280111.499651) can0 1BFC38B1#0000000000000000
(1493280111.499891) can0 1BFC38BB#FFFFFFFFFFFFFFFF
(1493280111.500277) can0 1BFC38BA#0000000700000014
(1493280111.500647) can0 1BFC38B9#030296408005A3F4
(1493280111.500913) can0 1BFC38B8#0000000800000000
(1493280111.501151) can0 1BFC38B7#80016484250202FD
(1493280111.501528) can0 1BFC38B6#0000043700000000
(1493280111.501801) can0 1BFC38B5#0502FF9202028292
(1493280111.502161) can0 1BFC38B4#110F01010000A46C
(1493280111.502534) can0 1BFC38B3#80016484324000FF
(1493280111.502759) can0 1BFC38B2#80016484838300F6
(1493280111.506132) can0 30B#0F00110000000098
(1493280111.506396) can0 65E#8808F3165CD30600
(1493280111.512419) can0 1AB#B25749
(1493280111.517142) can0 62F#4451000731
(1493280111.541367) can0 3C0#6A7E1335
(1493280111.546026) can0 1FD#0000000000000000
(1493280111.557030) can0 30B#0F00110000000098
(1493280111.562493) can0 56A#72BD
(1493280111.607277) can0 6C7#04051101060000
(1493280111.607659) can0 1FD#0000000000000000
(1493280111.607914) can0 30B#0F00110000000098
(1493280111.608132) can0 5F2#CC00
(1493280111.612661) can0 769#9D91956F05F1AC23
(1493280111.645279) can0 3C0#6A7E1335
(1493280111.657042) can0 30B#0F00110000000098
(1493280111.662755) can0 39B#
(1493280111.667074) can0 1FD#0000000000000000
(1493280111.707299) can0 30B#0F00110000000098
(1493280111.712965) can0 4BB#9189693477658819
(1493280111.726048) can0 1FD#0000000000000000
(1493280111.748291) can0 1BFC38B1#0000000000000000
(1493280111.748668) can0 1BFC38BB#FFFFFFFFFFFFFFFF
(1493280111.748916) can0 1BFC38BA#535553500000001A
(1493280111.749147) can0 1BFC38B9#030296408005A3F4
(1493280111.749545) can0 1BFC38B8#0000000800000000
(1493280111.749665) can0 3C0#6A7E1335
(1493280111.749749) can0 1BFC38B7#80016484250202FD
(1493280111.750260) can0 1BFC38B6#0000043900000000
(1493280111.750630) can0 1BFC38B5#0502FF9202028292
(1493280111.750889) can0 1BFC38B4#110F01010000A46C
(1493280111.751257) can0 1BFC38B3#80016484324000FF
(1493280111.751504) can0 1BFC38B2#80016484838300F6
(1493280111.757691) can0 30B#0F00110000000098
(1493280111.763075) can0 43A#42
(1493280111.786051) can0 1FD#0000000000000000
(1493280111.807297) can0 6C7#04051101060000
(1493280111.807685) can0 30B#0F00110000000098
(1493280111.807798) can0 5F2#CC00
(1493280111.813237) can0 238#D59EA21C483E
(1493280111.846060) can0 1FD#0000000000000000
(1493280111.853513) can0 3C0#6A7E1335
(1493280111.857086) can0 30B#0F00110000000098
(1493280111.863411) can0 1A4#B14A68324F138967
(1493280111.907392) can0 1FD#0000000000000000
(1493280111.907643) can0 30B#0F00110000000098
(1493280111.913560) can0 1F0#D9672E63
(1493280111.957077) can0 30B#0F00110000000098
(1493280111.957273) can0 3C0#6A7E1335
(1493280111.963721) can0 2A6#004AE4510FE2A106
(1493280111.966567) can0 1FD#0000000000000000
(1493280111.999570) can0 1BFC38B1#0000000000000000
(1493280111.999999) can0 1BFC38BB#FFFFFFFFFFFFFFFF
(1493280112.000183) can0 1BFC38BA#535553500000001A
(1493280112.000581) can0 1BFC38B9#030296408005A3F4
(1493280112.000815) can0 1BFC38B8#0000000800000000
(1493280112.001220) can0 1BFC38B7#80016484250202FD
(1493280112.001445) can0 1BFC38B6#0000043C0000A100
(1493280112.001846) can0 1BFC38B5#0502FF9202028292
(1493280112.002221) can0 1BFC38B4#110F01010000A100
(1493280112.002401) can0 1BFC38B3#8001648431005544
(1493280112.002797) can0 1BFC38B2#800164848383007C
(1493280112.007953) can0 6C7#04051101060000
(1493280112.008201) can0 30B#0F00110000000098
(1493280112.008469) can0 5F2#CC00
(1493280112.008722) can0 643#000200
(1493280112.008926) can0 64E#00A1000000000000
(1493280112.009214) can0 65E#880833F46C310B00
(1493280112.009529) can0 6B8#6D08000000000000
(1493280112.009779) can0 6BC#92823651324C0701
(1493280112.013900) can0 789#15D34E2A24FB027C
(1493280112.018597) can0 62D#3490205200
(1493280112.026100) can0 1FD#0000000000000000
(1493280112.057077) can0 30B#0F00110000000098
(1493280112.060683) can0 3C0#6A7E1335
(1493280112.063837) can0 1DE#B88AA5079906D036
(1493280112.086061) can0 1FD#0000000000000000
(1493280112.107579) can0 30B#0F00110000000098
(1493280112.107814) can0 630#33D03F0102
(1493280112.108065) can0 631#34C37807FE000000
(1493280112.113954) can0 035#106C58506FB4AB02
(1493280112.116450) can0 6B6#390C1C000731
(1493280112.116745) can0 6B7#BEB4000008FF80FE
(1493280112.146085) can0 1FD#0000000000000000
(1493280112.157085) can0 30B#0F00110000000098
(1493280112.164071) can0 3C0#6A7E1335
(1493280112.164073) can0 2DB#575D
(1493280112.207337) can0 6C7#04051101060000
(1493280112.207722) can0 1FD#0000000000000000
(1493280112.207930) can0 30B#0F00110000000098
(1493280112.208038) can0 5F2#CC00
(1493280112.214232) can0 0A8#5B73EA054C52C97A
(1493280112.248343) can0 1BFC38B1#0000000000000000
(1493280112.248753) can0 1BFC38BB#FFFFFFFFFFFFFFFF
(1493280112.248950) can0 1BFC38BA#535553500000001A
(1493280112.249211) can0 1BFC38B9#030296408005A3F4
(1493280112.249618) can0 1BFC38B8#0000000800000000
(1493280112.249865) can0 1BFC38B7#80016484250202FD
(1493280112.250212) can0 1BFC38B6#0000043E000034A8
(1493280112.250586) can0 1BFC38B5#0502FF9202028292
(1493280112.250855) can0 1BFC38B4#110F01010000A100
(1493280112.251106) can0 1BFC38B3#8001648431005544
(1493280112.251474) can0 1BFC38B2#800164848383007C
(1493280112.257698) can0 30B#0F00110000000098
(1493280112.264421) can0 049#9B6552623962217F
(1493280112.266175) can0 1FD#0000000000000000
(1493280112.267934) can0 3C0#6A7E1335
(1493280112.307513) can0 30B#0F00110000000098
(1493280112.314614) can0 071#93A9F304
(1493280112.326114) can0 1FD#0000000000000000
(1493280112.357110) can0 30B#0F00110000000098
(1493280112.364718) can0 2C0#2745E55F
(1493280112.371687) can0 3C0#6A7E1335
(1493280112.386135) can0 1FD#0000000000000000
(1493280112.407353) can0 6C7#04051101060000
(1493280112.407724) can0 30B#0F00110000000098
(1493280112.407726) can0 5F2#CC00
(1493280112.414991) can0 731#6DFD6B280FB94208
(1493280112.446127) can0 1FD#0000000000000000
(1493280112.457120) can0 30B#0F00110000000098
(1493280112.464976) can0 2F7#A8BF123F2C6B
(1493280112.476356) can0 3C0#6A7E1335
(1493280112.499651) can0 1BFC38B1#0000000000000000
(1493280112.500058) can0 1BFC38BB#FFFFFFFFFFFFFFFF
(1493280112.500221) can0 1BFC38BA#535553500000001A
(1493280112.500512) can0 1BFC38B9#040096408008FC68
(1493280112.500861) can0 1BFC38B8#0000000800000000
(1493280112.501238) can0 1BFC38B7#8001648425020239
(1493280112.501499) can0 1BFC38B6#0000044100000000
(1493280112.501873) can0 1BFC38B5#0502FF9202028292
(1493280112.502091) can0 1BFC38B4#110F01010000A100
(1493280112.502467) can0 1BFC38B3#8001648431005544
(1493280112.502720) can0 1BFC38B2#800164848383007C
(1493280112.508269) can0 1FD#0000000000000000
(1493280112.508498) can0 30B#0F00110000000098
(1493280112.508745) can0 65E#8808C5A58B2B0800
(1493280112.515220) can0 46F#9B1F7E664A4FF961
(1493280112.517374) can0 62F#4451000732
(1493280112.557130) can0 30B#0F00110000000098
(1493280112.565385) can0 20A#5D84
(1493280112.567649) can0 1FD#0000000000000000
(1493280112.579704) can0 3C0#6A7E1335
(1493280112.607399) can0 6C7#04051101060000
(1493280112.607785) can0 30B#0F00110000000098
(1493280112.607787) can0 5F2#CC00
(1493280112.615497) can0 11E#FE8C343B67195D22
(1493280112.626151) can0 1FD#0000000000000000
(1493280112.657127) can0 30B#0F00110000000098
(1493280112.665750) can0 5C6#A07B7E213716623E
(1493280112.683238) can0 3C0#6A7E1335
(1493280112.686165) can0 1FD#0000000000000000
(1493280112.707530) can0 30B#0F00110000000098
(1493280112.715767) can0 00E#4E79A517
(1493280112.746260) can0 1FD#0000000000000000
(1493280112.748384) can0 1BFC38B1#0000000000000000
(1493280112.748742) can0 1BFC38BB#FFFFFFFFFFFFFFFF
(1493280112.749016) can0 1BFC38BA#0000000700000014
(1493280112.749410) can0 1BFC38B9#040096408008FC68
(1493280112.749757) can0 1BFC38B8#0000000800000000
(1493280112.750008) can0 1BFC38B7#8001648425020239
(1493280112.750248) can0 1BFC38B6#0000044300000000
(1493280112.750645) can0 1BFC38B5#0502FF9202028292
(1493280112.750873) can0 1BFC38B4#110F01010000A100
(1493280112.751237) can0 1BFC38B3#8001648431005544
(1493280112.751487) can0 1BFC38B2#800164848383007C
(1493280112.757900) can0 30B#0F00110000000098
(1493280112.765910) can0 0C8#17B5C552F9
(1493280112.786886) can0 3C0#6A7E1335
(1493280112.807505) can0 6C7#04051101060000
(1493280112.807888) can0 1FD#0000000000000000
(1493280112.808138) can0 30B#0F00110000000098
(1493280112.808249) can0 5F2#CC00
(1493280112.816013) can0 6B1#09A1DE1DA8
(1493280112.857173) can0 30B#0F00110000000098
(1493280112.866143) can0 2AB#D4
(1493280112.866645) can0 1FD#0000000000000000
(1493280112.890255) can0 3C0#6A7E1335
(1493280112.907811) can0 30B#0F00110000000098
(1493280112.916352) can0 46A#65265D79740E2F1F
(1493280112.926186) can0 1FD#0000000000000000
(1493280112.957416) can0 30B#0F00110000000098
(1493280112.966459) can0 161#2749
(1493280112.986279) can0 1FD#0000000000000000
(1493280112.993940) can0 3C0#6A7E1335
(1493280112.999957) can0 1BFC38B1#0000000000000000
(1493280113.000274) can0 1BFC38BB#FFFFFFFFFFFFFFFF
(1493280113.000521) can0 1BFC38BA#0000000700000014
(1493280113.000903) can0 1BFC38B9#040096408008FC68
(1493280113.001157) can0 1BFC38B8#0000000800000000
(1493280113.001540) can0 1BFC38B7#8001648425020239
(1493280113.001789) can0 1BFC38B6#000004460000A100
(1493280113.002132) can0 1BFC38B5#0502FF9202028292
(1493280113.002510) can0 1BFC38B4#110F01010000A100
(1493280113.002770) can0 1BFC38B3#8001648431007766
(1493280113.003008) can0 1BFC38B2#80016484838380B0
(1493280113.006431) can0 6C7#04051101020000
(1493280113.006655) can0 30B#0F00110000000098
(1493280113.006755) can0 5F2#CC00
(1493280113.007025) can0 643#000200
(1493280113.007256) can0 64E#00A1000000000000
(1493280113.007517) can0 65E#88089BE8A2490900
(1493280113.007890) can0 6B8#6D08000000000000
(1493280113.008151) can0 6BC#92823651324C0701
(1493280113.016570) can0 27B#E7BB965B41
(1493280113.046283) can0 1FD#0000000000000000
(1493280113.057170) can0 30B#0F00110000000098
(1493280113.066675) can0 0BF#786E483CCE885D1B
(1493280113.097284) can0 3C0#6A7E1335
(1493280113.107788) can0 1FD#0000000000000000
(1493280113.107994) can0 30B#0F00110000000098
(1493280113.116557) can0 6B6#390C1C000732
(1493280113.116810) can0 4BC#9C3BBA418475D1
(1493280113.116812) can0 6B7#BEB4000008FF80FE
(1493280113.157294) can0 30B#0F00110000000098
(1493280113.166420) can0 1FD#0000000000000000
(1493280113.166957) can0 63C#7D5D6D36
(1493280113.201177) can0 3C0#6A7E1335
(1493280113.207576) can0 6C7#04051101020000
(1493280113.207804) can0 30B#0F00110000000098
(1493280113.207890) can0 5F2#CC00
(1493280113.217050) can0 339#969E1743E4DD
(1493280113.226286) can0 1FD#0000000000000000
(1493280113.248451) can0 1BFC38B1#0000000000000000
(1493280113.248827) can0 1BFC38BB#FFFFFFFFFFFFFFFF
(1493280113.249049) can0 1BFC38BA#0000000700000014
(1493280113.249420) can0 1BFC38B9#040096408008FC68
(1493280113.249808) can0 1BFC38B8#0000000800000000
(1493280113.250066) can0 1BFC38B7#8001648425020239
(1493280113.250445) can0 1BFC38B6#0000044802028292
(1493280113.250698) can0 1BFC38B5#0502FF9202028292
(1493280113.251076) can0 1BFC38B4#110F01010000A100
(1493280113.251268) can0 1BFC38B3#8001648431007766
(1493280113.251656) can0 1BFC38B2#80016484838380B0
(1493280113.257829) can0 30B#0F00110000000098
(1493280113.267134) can0 738#FEB45852A2EB991D
(1493280113.286307) can0 1FD#0000000000000000
(1493280113.304931) can0 3C0#6A7E1335
(1493280113.307572) can0 30B#0F00110000000098
(1493280113.317471) can0 7DA#16FAC8
(1493280113.346310) can0 1FD#0000000000000000
(1493280113.357195) can0 30B#0F00110000000098
(1493280113.367559) can0 626#BCA30642A128BC04
(1493280113.407404) can0 6C7#04051101020000
(1493280113.407776) can0 1FD#0000000000000000
(1493280113.408046) can0 30B#0F00110000000098
(1493280113.408156) can0 5F2#CC00
(1493280113.408262) can0 3C0#6A7E1335
(1493280113.417747) can0 163#E380A2
(1493280113.457200) can0 30B#0F00110000000098
(1493280113.466599) can0 1FD#0000000000000000
(1493280113.467820) can0 72B#F06AE50AE7F3393E
(1493280113.499859) can0 1BFC38B1#0000000000000000
(1493280113.500142) can0 1BFC38BB#FFFFFFFFFFFFFFFF
(1493280113.500396) can0 1BFC38BA#0000000700000014
(1493280113.500768) can0 1BFC38B9#050296408005A3F4
(1493280113.501175) can0 1BFC38B8#0000000800000000
(1493280113.501447) can0 1BFC38B7#8001648425020275
(1493280113.501829) can0 1BFC38B6#0000044B00000000
(1493280113.502068) can0 1BFC38B5#0502FF9202028292
(1493280113.502400) can0 1BFC38B4#110F01010000A100
(1493280113.502648) can0 1BFC38B3#8001648431007766
(1493280113.503069) can0 1BFC38B2#80016484838380B0
(1493280113.506352) can0 30B#5F00110000000098
(1493280113.506571) can0 65E#8808DBD1A6F70800
(1493280113.512335) can0 3C0#6A7E1335
(1493280113.517979) can0 722#6B690B5F5F7D515E
(1493280113.526324) can0 1FD#0000000000000000
(1493280113.526794) can0 62F#4451000733
(1493280113.557235) can0 30B#5F00110000000098
(1493280113.568079) can0 741#4DFA882B7A3AD170
(1493280113.586401) can0 1FD#0000000000000000
(1493280113.607583) can0 6C7#04051101020000
(1493280113.607823) can0 30B#5F00110000000098
(1493280113.607933) can0 5F2#CC00
(1493280113.615574) can0 3C0#6A7E1335
(1493280113.618374) can0 56F#5E18C6
(1493280113.646336) can0 1FD#0000000000000000
(1493280113.657238) can0 30B#5F00110000000098
(1493280113.668460) can0 44E#49109C38299C6568
(1493280113.707608) can0 1FD#0000000000000000
(1493280113.707833) can0 30B#5F00110000000098
(1493280113.718580) can0 0C0#
(1493280113.719297) can0 3C0#6A7E1335
(1493280113.748620) can0 1BFC38B1#0000000000000000
(1493280113.748828) can0 1BFC38BB#FFFFFFFFFFFFFFFF
(1493280113.749220) can0 1BFC38BA#535553500000001A
(1493280113.749467) can0 1BFC38B9#050296408005A3F4
(1493280113.749839) can0 1BFC38B8#0000000800000000
(1493280113.750090) can0 1BFC38B7#8001648425020275
(1493280113.750479) can0 1BFC38B6#0000044D00000000
(1493280113.750855) can0 1BFC38B5#0502FF9202028292
(1493280113.751105) can0 1BFC38B4#110F01010000A100
(1493280113.751357) can0 1BFC38B3#8001648431007766
(1493280113.751698) can0 1BFC38B2#80016484838380B0
(1493280113.757954) can0 30B#5F00110000000098
(1493280113.766700) can0 1FD#0000000000000000
(1493280113.768851) can0 59D#87
(1493280113.807622) can0 6C7#04051101020000
(1493280113.807839) can0 30B#5F00110000000098
(1493280113.807953) can0 5F2#CC00
(1493280113.818985) can0 0C4#23498238F037896B
(1493280113.822833) can0 3C0#6A7E1335
(1493280113.826356) can0 1FD#0000000000000000
(1493280113.857254) can0 30B#5F00110000000098
(1493280113.869101) can0 7C6#D72BC3
(1493280113.886356) can0 1FD#0000000000000000
(1493280113.907607) can0 30B#5F00110000000098
(1493280113.919398) can0 2A0#471C7C
(1493280113.926235) can0 3C0#6A7E1335
(1493280113.946356) can0 1FD#0000000000000000
(1493280113.957361) can0 30B#5F00110000000098
(1493280113.969528) can0 42C#5B2CF861
(1493280113.999871) can0 1BFC38B1#0000000000000000
(1493280114.000236) can0 1BFC38BB#FFFFFFFFFFFFFFFF
(1493280114.000481) can0 1BFC38BA#535553500000001A
(1493280114.000864) can0 1BFC38B9#050296408005A3F4
(1493280114.001234) can0 1BFC38B8#0000000800000000
(1493280114.001527) can0 1BFC38B7#8001648425020275
(1493280114.001858) can0 1BFC38B6#000004500000A100
(1493280114.002129) can0 1BFC38B5#0502FF9202028292
(1493280114.002504) can0 1BFC38B4#110F01010000A100
(1493280114.002737) can0 1BFC38B3#800164843240CCBB
(1493280114.003094) can0 1BFC38B2#8001648483830038
(1493280114.006347) can0 6C7#04051101020000
(1493280114.006625) can0 1FD#0000000000000000
(1493280114.006968) can0 30B#5F00110000000098
(1493280114.007079) can0 5F2#CC00
(1493280114.007206) can0 643#000200
(1493280114.007594) can0 64E#00A1000000000000
(1493280114.007841) can0 65E#88088A8877520800
(1493280114.008094) can0 6B8#6D08000000000000
(1493280114.008469) can0 6BC#92823651324C0701
(1493280114.017350) can0 62D#3491023601
(1493280114.019643) can0 778#43460E23C673102C
(1493280114.030244) can0 3C0#6A7E1335
(1493280114.057372) can0 30B#5F00110000000098
(1493280114.066744) can0 1FD#0000000000000000
(1493280114.069744) can0 216#EF0F7614D6BAB155
(1493280114.107629) can0 30B#5F00110000000098
(1493280114.108151) can0 630#33D203D2
(1493280114.108511) can0 631#34C414
(1493280114.116752) can0 6B6#390C1C000733
(1493280114.116994) can0 6B7#BEB4000008FF80FE
(1493280114.119874) can0 0EC#BCE9B924
(1493280114.126376) can0 1FD#0000000000000000
(1493280114.133878) can0 3C0#6A7E1335
(1493280114.157381) can0 30B#5F00110000000098
(1493280114.170006) can0 675#8A15D2
(1493280114.186416) can0 1FD#0000000000000000
(1493280114.207635) can0 6C7#04051101020000
(1493280114.207870) can0 30B#5F00110000000098
(1493280114.207956) can0 5F2#CC00
(1493280114.220299) can0 1AE#2AC7417574E13664
(1493280114.237647) can0 3C0#6A7E1335
(1493280114.246384) can0 1FD#0000000000000000
(1493280114.248663) can0 1BFC38B1#0000000000000000
(1493280114.248887) can0 1BFC38BB#FFFFFFFFFFFFFFFF
(1493280114.249260) can0 1BFC38BA#535553500000001A
(1493280114.249512) can0 1BFC38B9#050296408005A3F4
(1493280114.249867) can0 1BFC38B8#0000000800000000
(1493280114.250239) can0 1BFC38B7#8001648425020275
(1493280114.250501) can0 1BFC38B6#00000452000034A8
(1493280114.250863) can0 1BFC38B5#0502FF9202028292
(1493280114.251154) can0 1BFC38B4#110F01010000A100
(1493280114.251363) can0 1BFC38B3#800164843240CCBB
(1493280114.251742) can0 1BFC38B2#8001648483830038
(1493280114.258057) can0 30B#5F00110000000098
(1493280114.270351) can0 2C1#5C
(1493280114.307640) can0 1FD#0000000000000000
(1493280114.308028) can0 30B#5F00110000000098
(1493280114.320519) can0 044#435FEA28
(1493280114.341633) can0 3C0#6A7E1335
(1493280114.357393) can0 30B#5F00110000000098
(1493280114.366770) can0 1FD#0000000000000000
(1493280114.370803) can0 338#0C06274EB0628865
(1493280114.407651) can0 6C7#04051101020000
(1493280114.407887) can0 30B#5F00110000000098
(1493280114.407997) can0 5F2#CC00
(1493280114.420912) can0 058#77D698116EE27D24
(1493280114.426400) can0 1FD#0000000000000000
(1493280114.445271) can0 3C0#6A7E1335
(1493280114.457463) can0 30B#5F00110000000098
(1493280114.471047) can0 2DB#449D2F7AC803
(1493280114.486416) can0 1FD#0000000000000000
(1493280114.500019) can0 1BFC38B1#0000000000000000
(1493280114.500272) can0 1BFC38BB#FFFFFFFFFFFFFFFF
(1493280114.500658) can0 1BFC38BA#535553500000001A
(1493280114.500890) can0 1BFC38B9#060096408008FC68
(1493280114.501267) can0 1BFC38B8#0000000800000000
(1493280114.501520) can0 1BFC38B7#80016484250202B1
(1493280114.501901) can0 1BFC38B6#0000045500000000
(1493280114.502144) can0 1BFC38B5#0502FF9202028292
(1493280114.502530) can0 1BFC38B4#110F01010000A100
(1493280114.502901) can0 1BFC38B3#800164843240CCBB
(1493280114.503143) can0 1BFC38B2#8001648483830038
(1493280114.506529) can0 30B#5F00110000000098
(1493280114.506781) can0 65E#8808F30492BE0400
(1493280114.517770) can0 62F#4451000734
(1493280114.521154) can0 3BB#
(1493280114.546440) can0 1FD#0000000000000000
(1493280114.548777) can0 3C0#6A7E1335
(1493280114.557409) can0 30B#5F00110000000098
(1493280114.571319) can0 043#6A11526EF1E14C66
(1493280114.607694) can0 6C7#04051101020000
(1493280114.607901) can0 1FD#0000000000000000
(1493280114.608328) can0 30B#5F00110000000098
(1493280114.608429) can0 5F2#CC00
(1493280114.621621) can0 68A#65C3834A
(1493280114.652033) can0 3C0#6A7E1335
(1493280114.657451) can0 30B#5F00110000000098
(1493280114.666796) can0 1FD#0000000000000000
(1493280114.671515) can0 396#ACA6
(1493280114.707674) can0 30B#5F00110000000098
(1493280114.721839) can0 066#4B3887709E93A52E
(1493280114.726436) can0 1FD#0000000000000000
(1493280114.748679) can0 1BFC38B1#0000000000000000
(1493280114.749089) can0 1BFC38BB#FFFFFFFFFFFFFFFF
(1493280114.749302) can0 1BFC38BA#0000000700000014
(1493280114.749682) can0 1BFC38B9#060096408008FC68
(1493280114.749914) can0 1BFC38B8#0000000800000000
(1493280114.750299) can0 1BFC38B7#80016484250202B1
(1493280114.750533) can0 1BFC38B6#0000045700000000
(1493280114.750937) can0 1BFC38B5#0502FF9202028292
(1493280114.751175) can0 1BFC38B4#110F01010000A100
(1493280114.751563) can0 1BFC38B3#800164843240CCBB
(1493280114.751940) can0 1BFC38B2#8001648483830038
(1493280114.755934) can0 3C0#6A7E1335
(1493280114.758060) can0 30B#5F00110000000098
(1493280114.771930) can0 18E#4FF62D14E661DA
(1493280114.786445) can0 1FD#0000000000000000
(1493280114.807708) can0 6C7#04051101020000
(1493280114.807939) can0 30B#5F00110000000098
(1493280114.808224) can0 5F2#CC00
(1493280114.822224) can0 2A6#54445861812D
(1493280114.846438) can0 1FD#0000000000000000
(1493280114.857464) can0 30B#5F00110000000098
(1493280114.859553) can0 3C0#6A7E1335
(1493280114.872195) can0 32C#4931B21AE7468D77
(1493280114.907825) can0 1FD#0000000000000000
(1493280114.908050) can0 30B#5F00110000000098
(1493280114.922461) can0 098#18C9265CDB30D911
(1493280114.957446) can0 30B#5F00110000000098
(1493280114.963553) can0 3C0#6A7E1335
(1493280114.966706) can0 1FD#0000000000000000
(1493280114.972440) can0 378#CD12
(1493280115.000072) can0 1BFC38B1#0000000000000000
(1493280115.000450) can0 1BFC38BB#FFFFFFFFFFFFFFFF
(1493280115.000688) can0 1BFC38BA#0000000700000014
(1493280115.001100) can0 1BFC38B9#060096408008FC68
(1493280115.001326) can0 1BFC38B8#0000000800000000
(1493280115.001699) can0 1BFC38B7#80016484250202B1
(1493280115.001946) can0 1BFC38B6#0000045A0000A100
(1493280115.002336) can0 1BFC38B5#0502FF9202028292
(1493280115.002562) can0 1BFC38B4#110F01010000A100
(1493280115.002953) can0 1BFC38B3#8001648431001100
(1493280115.003208) can0 1BFC38B2#800164848383007E
(1493280115.006480) can0 6C7#04051101020000
(1493280115.006712) can0 30B#5F00110000000098
(1493280115.006949) can0 5F2#CD00
(1493280115.007215) can0 643#000200
(1493280115.007415) can0 64E#00A1000000000000
(1493280115.007678) can0 65E#88080EC574DA0900
(1493280115.007932) can0 6B8#6D08000000000000
(1493280115.008334) can0 6BC#92823651324C0701
(1493280115.022693) can0 317#4D0B
(1493280115.026841) can0 1FD#0000000000000000
(1493280115.057485) can0 30B#5F00110000000098
(1493280115.067425) can0 3C0#6A7E1335
(1493280115.072720) can0 1F4#87D2115B5AFA5103
(1493280115.086492) can0 1FD#0000000000000000
(1493280115.107834) can0 30B#5F00110000000098
(1493280115.117212) can0 6B6#390C1C000734
(1493280115.117583) can0 6B7#BEB4000008FF80FE
(1493280115.122958) can0 7E9#F98D
(1493280115.146470) can0 1FD#0000000000000000
(1493280115.157464) can0 30B#5F00110000000098
(1493280115.170958) can0 3C0#6A7E1335
(1493280115.172976) can0 129#5DAB7F7CCFD32A3A
(1493280115.207716) can0 6C7#04051101020000
(1493280115.208055) can0 1FD#0000000000000000
(1493280115.208303) can0 30B#5F00110000000098
(1493280115.208430) can0 5F2#CD00
(1493280115.223085) can0 10E#51
(1493280115.248722) can0 1BFC38B1#0000000000000000
(1493280115.249097) can0 1BFC38BB#FFFFFFFFFFFFFFFF
(1493280115.249332) can0 1BFC38BA#0000000700000014
(1493280115.249720) can0 1BFC38B9#060096408008FC68
(1493280115.249970) can0 1BFC38B8#0000000800000000
(1493280115.250346) can0 1BFC38B7#80016484250202B1
(1493280115.250595) can0 1BFC38B6#0000045C02028292
(1493280115.250971) can0 1BFC38B5#0502FF9202028292
(1493280115.251265) can0 1BFC38B4#110F01010000A100
(1493280115.251618) can0 1BFC38B3#8001648431001100
(1493280115.251990) can0 1BFC38B2#800164848383007E
(1493280115.258106) can0 30B#5F00110000000098
(1493280115.266880) can0 1FD#0000000000000000
(1493280115.273176) can0 149#224B4F2FE139D133
(1493280115.274728) can0 3C0#6A7E1335
(1493280115.307844) can0 30B#5F00110000000098
(1493280115.326592) can0 1FD#0000000000000000
(1493280115.357482) can0 30B#5F00110000000098
(1493280115.378489) can0 3C0#6A7E1335
(1493280115.386620) can0 1FD#0000000000000000
(1493280115.407860) can0 6C7#04051101020000
(1493280115.408270) can0 30B#5F00110000000098
(1493280115.408368) can0 5F2#CD00
(1493280115.446630) can0 1FD#0000000000000000
(1493280115.457709) can0 30B#5F00110000000098
(1493280115.482240) can0 3C0#6A7E1335
(1493280115.500116) can0 1BFC38B1#0000000000000000
(1493280115.500474) can0 1BFC38BB#FFFFFFFFFFFFFFFF
(1493280115.500740) can0 1BFC38BA#0000000700000014
(1493280115.501115) can0 1BFC38B9#070296408005A3F4
(1493280115.501490) can0 1BFC38B8#0000000800000000
(1493280115.501739) can0 1BFC38B7#80016484250202ED
(1493280115.502124) can0 1BFC38B6#0000045F00000000
(1493280115.502382) can0 1BFC38B5#0502FF9202028292
(1493280115.502748) can0 1BFC38B4#110F01010000A100
(1493280115.502976) can0 1BFC38B3#8001648431001100
(1493280115.503348) can0 1BFC38B2#800164848383007E
(1493280115.506651) can0 1FD#0000000000000000
(1493280115.507018) can0 30B#5F00110000000098
(1493280115.507131) can0 65E#8808891BBE210600
(1493280115.517989) can0 62F#4451000735
(1493280115.557497) can0 30B#5F00110000000098
(1493280115.566875) can0 1FD#0000000000000000
(1493280115.586257) can0 3C0#6A7E1335
(1493280115.607992) can0 6C7#04051101020000
(1493280115.608252) can0 30B#5F00110000000098
(1493280115.608365) can0 5F2#CD00
(1493280115.626630) can0 1FD#0000000000000000
(1493280115.657510) can0 30B#5F00110000000098
(1493280115.686673) can0 1FD#0000000000000000
(1493280115.690512) can0 3C0#6A7E1335
(1493280115.707971) can0 30B#5F00110000000098
(1493280115.746640) can0 1FD#0000000000000000
(1493280115.748789) can0 1BFC38B1#0000000000000000
(1493280115.749138) can0 1BFC38BB#FFFFFFFFFFFFFFFF
(1493280115.749387) can0 1BFC38BA#535553500000001A
(1493280115.749764) can0 1BFC38B9#070296408005A3F4
(1493280115.750138) can0 1BFC38B8#0000000800000000
(1493280115.750387) can0 1BFC38B7#80016484250202ED
(1493280115.750759) can0 1BFC38B6#0000046100000000
(1493280115.751024) can0 1BFC38B5#0502FF9202028292
