(1493216766.329816) can0 1F0#893D331CB0296C6D
(1493216766.354395) can0 6C7#01010401040000
(1493216766.354637) can0 1FD#0000000000000000
(1493216766.355013) can0 30B#0000000000000080
(1493216766.355139) can0 5F2#0000
(1493216766.355264) can0 643#000200
(1493216766.355640) can0 64E#0000000000000000
(1493216766.355893) can0 65E#0000000000000000
(1493216766.356139) can0 6B8#6D08000000000000
(1493216766.356516) can0 6BC#0000000000000000
(1493216766.395467) can0 1BFC3800#0355370000000000
(1493216766.403329) can0 30B#0000000000000080
(1493216766.413319) can0 1FD#0000000000000000
(1493216766.445942) can0 1BFC3800#0553030100000000
(1493216766.453319) can0 30B#0000000000000080
(1493216766.463194) can0 6B6#390C1C000B1B
(1493216766.463592) can0 6B7#BEB4B00A080080FE
(1493216766.473207) can0 1FD#0000000000000000
(1493216766.503582) can0 30B#0000000000000080
(1493216766.530109) can0 381#40AAEE3750E3
(1493216766.533194) can0 1FD#0000000000000000
(1493216766.546332) can0 1BFC38B1#0000000000000000
(1493216766.546546) can0 1BFC38BB#FFFFFFFFFFFFFFFF
(1493216766.546961) can0 1BFC38BA#0000000700000014
(1493216766.547198) can0 1BFC38B9#020096408008FC68
(1493216766.547548) can0 1BFC38B8#0000000800000000
(1493216766.547800) can0 1BFC38B7#80016484250202FF
(1493216766.548175) can0 1BFC38B6#0000025502020000
(1493216766.548594) can0 1BFC38B5#0502FF0002020000
(1493216766.548816) can0 1BFC38B4#FF00000000000000
(1493216766.549176) can0 1BFC38B3#80016484324000FF
(1493216766.549439) can0 1BFC38B2#80016484838380F6
(1493216766.553458) can0 6C7#01010401040000
(1493216766.553695) can0 30B#0000000000000080
(1493216766.553965) can0 5F2#0000
(1493216766.593200) can0 1FD#0000000000000000
(1493216766.603816) can0 30B#0000000000000080
(1493216766.653315) can0 1FD#0000000000000000
(1493216766.653538) can0 30B#0000000000000080
(1493216766.703451) can0 30B#0000000000000080
(1493216766.713324) can0 1FD#0000000000000000
(1493216766.730181) can0 296#B5
(1493216766.753227) can0 6C7#01010401040000
(1493216766.753604) can0 30B#0000000000000080
(1493216766.753606) can0 5F2#0000
(1493216766.773224) can0 1FD#0000000000000000
(1493216766.795440) can0 1BFC38B1#0000000000000000
(1493216766.795691) can0 1BFC38BB#FFFFFFFFFFFFFFFF
(1493216766.796071) can0 1BFC38BA#0000000700000014
(1493216766.796445) can0 1BFC38B9#020096408008FC68
(1493216766.796692) can0 1BFC38B8#0000000800000000
(1493216766.797096) can0 1BFC38B7#80016484250202FF
(1493216766.797318) can0 1BFC38B6#0000025502020000
(1493216766.797692) can0 1BFC38B5#0502FF0002020000
(1493216766.797943) can0 1BFC38B4#FF00000000000000
(1493216766.798300) can0 1BFC38B3#80016484324000FF
(1493216766.798548) can0 1BFC38B2#80016484838380F6
(1493216766.803160) can0 30B#0000000000000080
(1493216766.833210) can0 1FD#0000000000000000
(1493216766.853329) can0 30B#0000000000000080
(1493216766.853571) can0 65E#0000000000000000
(1493216766.893233) can0 1FD#0000000000000000
(1493216766.903587) can0 30B#0000010000000080
(1493216766.930338) can0 3B8#00494369717A
(1493216766.953227) can0 6C7#01010401040000
(1493216766.953618) can0 1FD#0000000000000000
(1493216766.953817) can0 30B#0000010000000080
(1493216766.953932) can0 5F2#0000
(1493216767.003950) can0 30B#0000010000000080
(1493216767.013322) can0 1FD#0000000000000000
(1493216767.046102) can0 1BFC38B1#0000000000000000
(1493216767.046310) can0 1BFC38BB#FFFFFFFFFFFFFFFF
(1493216767.046692) can0 1BFC38BA#0000000700000014
(1493216767.046943) can0 1BFC38B9#020096408008FC68
(1493216767.047318) can0 1BFC38B8#0000000800000000
(1493216767.047556) can0 1BFC38B7#80016484250202FF
(1493216767.047929) can0 1BFC38B6#0000025502020000
(1493216767.048220) can0 1BFC38B5#0502FF0002020000
(1493216767.048575) can0 1BFC38B4#FF00000000000000
(1493216767.048937) can0 1BFC38B3#80016484324000FF
(1493216767.049192) can0 1BFC38B2#80016484838380F6
(1493216767.054295) can0 30B#0000010000000080
(1493216767.073451) can0 1FD#0000000000000000
(1493216767.103482) can0 30B#0000010000000080
(1493216767.130583) can0 137#6AB07F32B1
(1493216767.133321) can0 1FD#0000000000000000
(1493216767.154362) can0 6C7#01010401040000
(1493216767.154563) can0 30B#0000010000000080
(1493216767.154768) can0 5F2#0000
(1493216767.193241) can0 1FD#0000000000000000
(1493216767.203575) can0 30B#0000010000000080
(1493216767.253957) can0 1FD#0000000000000000
(1493216767.254359) can0 30B#0000010000000080
(1493216767.295448) can0 1BFC38B1#0000000000000000
(1493216767.295861) can0 1BFC38BB#FFFFFFFFFFFFFFFF
(1493216767.296036) can0 1BFC38BA#0000000700000014
(1493216767.296449) can0 1BFC38B9#020096408008FC68
(1493216767.296693) can0 1BFC38B8#0000000800000000
(1493216767.297066) can0 1BFC38B7#80016484250202FF
(1493216767.297318) can0 1BFC38B6#0000000100000000
(1493216767.297678) can0 1BFC38B5#0502FF0002020000
(1493216767.298080) can0 1BFC38B4#FF00000000000000
(1493216767.298322) can0 1BFC38B3#80016484324000FF
(1493216767.298674) can0 1BFC38B2#80016484838380F6
(1493216767.303575) can0 30B#0000010000000080
(1493216767.313450) can0 1FD#0000000000000000
(1493216767.330703) can0 768#F14AF201E41026
(1493216767.353842) can0 6C7#04010401040000
(1493216767.354218) can0 30B#0000010000000080
(1493216767.354342) can0 5F2#0000
(1493216767.354568) can0 643#000200
(1493216767.354820) can0 64E#0000000000000000
(1493216767.355068) can0 65E#880889D691C80800
(1493216767.355468) can0 6B8#6D08000000000000
(1493216767.355701) can0 6BC#0000000000000000
(1493216767.373604) can0 1FD#0000000000000000
(1493216767.403572) can0 30B#0000010000000080
(1493216767.433448) can0 1FD#0000000000000000
(1493216767.453979) can0 30B#0000010000000080
(1493216767.459692) can0 630#40000013
(1493216767.463324) can0 6B6#390C1C000B1C
(1493216767.463572) can0 6B7#BEB4C00A08FF80FE
(1493216767.463947) can0 630#03C203000F000403
(1493216767.464323) can0 631#04C2030013000301
(1493216767.464595) can0 62D#0482030012000300
(1493216767.464826) can0 62F#0442030011000400
(1493216767.493573) can0 1FD#0000000000000000
(1493216767.503693) can0 30B#0000010000000080
(1493216767.530826) can0 6D8#41A4B972ADF0E040
(1493216767.546074) can0 1BFC38B1#0000000000000000
(1493216767.546346) can0 1BFC38BB#FFFFFFFFFFFFFFFF
(1493216767.546688) can0 1BFC38BA#0000000700000014
(1493216767.546911) can0 1BFC38B9#020096408008FC68
(1493216767.547300) can0 1BFC38B8#0000000800000000
(1493216767.547676) can0 1BFC38B7#80016484250202FF
(1493216767.547929) can0 1BFC38B6#0000000306004433
(1493216767.548299) can0 1BFC38B5#0502FF0002020000
(1493216767.548552) can0 1BFC38B4#FF00000000000000
(1493216767.548927) can0 1BFC38B3#8001648406004433
(1493216767.549207) can0 1BFC38B2#8001648483830017
(1493216767.554729) can0 6C7#04010401040000
(1493216767.555113) can0 1FD#0000000000000000
(1493216767.555320) can0 30B#0000010000000080
(1493216767.555600) can0 5F2#0000
(1493216767.603575) can0 30B#0000010000000080
(1493216767.613571) can0 1FD#0000000000000000
(1493216767.653944) can0 30B#0000010000000080
(1493216767.673351) can0 1FD#0000000000000000
(1493216767.703606) can0 30B#0000010000000080
(1493216767.730975) can0 6F5#7DC6FC1E
(1493216767.733326) can0 1FD#0000000000000000
(1493216767.753964) can0 6C7#04010401040000
(1493216767.754159) can0 30B#0000010000000080
(1493216767.754462) can0 5F2#0000
(1493216767.793456) can0 1FD#0000000000000000
(1493216767.795604) can0 1BFC38B1#0000000000000000
(1493216767.795799) can0 1BFC38BB#FFFFFFFFFFFFFFFF
(1493216767.796070) can0 1BFC38BA#0000000700000014
(1493216767.796455) can0 1BFC38B9#020096408008FC68
(1493216767.796711) can0 1BFC38B8#0000000800000000
(1493216767.797077) can0 1BFC38B7#80016484250202FF
(1493216767.797453) can0 1BFC38B6#00000006000034A8
(1493216767.797675) can0 1BFC38B5#0502FF0002020000
(1493216767.798052) can0 1BFC38B4#FF00000000000000
(1493216767.798301) can0 1BFC38B3#8001648406004433
(1493216767.798674) can0 1BFC38B2#8001648483830017
(1493216767.803604) can0 30B#0000010000000080
(1493216767.853914) can0 1FD#0000000000000000
(1493216767.854324) can0 30B#0000010000000080
(1493216767.854573) can0 65E#880840A695E50500
(1493216767.903607) can0 30B#0000010000000080
(1493216767.913561) can0 1FD#0000000000000000
(1493216767.931137) can0 553#96CA063CD498
(1493216767.953983) can0 6C7#04010401040000
(1493216767.954184) can0 30B#0000010000000080
(1493216767.954450) can0 5F2#0000
(1493216767.973324) can0 1FD#0000000000000000
(1493216768.003578) can0 30B#0000010000000080
(1493216768.033309) can0 1FD#0000000000000000
(1493216768.046102) can0 1BFC38B1#0000000000000000
(1493216768.046492) can0 1BFC38BB#FFFFFFFFFFFFFFFF
(1493216768.046695) can0 1BFC38BA#0000000700000014
(1493216768.047089) can0 1BFC38B9#020096408008FC68
(1493216768.047318) can0 1BFC38B8#0000000800000000
(1493216768.047708) can0 1BFC38B7#800164842502022E
(1493216768.047965) can0 1BFC38B6#000000082502022E
(1493216768.048329) can0 1BFC38B5#0502FF0002020000
(1493216768.048554) can0 1BFC38B4#FF00000000000000
(1493216768.048928) can0 1BFC38B3#8001648406004433
(1493216768.049176) can0 1BFC38B2#8001648483830017
(1493216768.054834) can0 30B#0000010000000080
(1493216768.093493) can0 1FD#0000000000000000
(1493216768.103575) can0 30B#0000010000000080
(1493216768.131219) can0 16C#247C06380254
(1493216768.153948) can0 6C7#04010401040000
(1493216768.154192) can0 1FD#0000000000000000
(1493216768.154578) can0 30B#0000010000000080
(1493216768.154705) can0 5F2#0000
(1493216768.203592) can0 30B#0000010000000080
(1493216768.213577) can0 1FD#0000000000000000
(1493216768.254061) can0 30B#0000010000000080
(1493216768.273354) can0 1FD#0000000000000000
(1493216768.295586) can0 1BFC38B1#0000000000000000
(1493216768.295799) can0 1BFC38BB#FFFFFFFFFFFFFFFF
(1493216768.296256) can0 1BFC38BA#0000000700000014
(1493216768.296408) can0 1BFC38B9#000096408008FC68
(1493216768.296833) can0 1BFC38B8#0000000800000000
(1493216768.297091) can0 1BFC38B7#800164842502022E
(1493216768.297457) can0 1BFC38B6#0000000B00000000
(1493216768.297704) can0 1BFC38B5#0502FF0002020000
(1493216768.298088) can0 1BFC38B4#FF00000000000000
(1493216768.298304) can0 1BFC38B3#8001648406004433
(1493216768.298676) can0 1BFC38B2#8001648483830017
(1493216768.303580) can0 30B#0000010000000080
(1493216768.331467) can0 007#FE60A818BFCB051B
(1493216768.333324) can0 1FD#0000000000000000
(1493216768.353988) can0 6C7#04010401040000
(1493216768.354204) can0 30B#0000010000000080
(1493216768.354440) can0 5F2#0000
(1493216768.354562) can0 643#000200
(1493216768.354949) can0 64E#0000000000000000
(1493216768.355199) can0 65E#880872E55BE80500
(1493216768.355449) can0 6B8#6D08000000000000
(1493216768.355697) can0 6BC#AA838B51324C0700
(1493216768.393580) can0 1FD#0000000000000000
(1493216768.403575) can0 30B#0000010000000080
(1493216768.454101) can0 1FD#0000000000000000
(1493216768.454310) can0 30B#0000010000000080
(1493216768.463349) can0 6B6#390C1C000B1D
(1493216768.463561) can0 6B7#BEB4C00A08FF80FE
(1493216768.464352) can0 62F#4451000B1D
(1493216768.503785) can0 30B#0000010000000080
(1493216768.513608) can0 1FD#0000000000000000
(1493216768.531583) can0 6AF#3146116CE6DFBB1F
(1493216768.546092) can0 1BFC38B1#0000000000000000
(1493216768.546441) can0 1BFC38BB#FFFFFFFFFFFFFFFF
(1493216768.546674) can0 1BFC38BA#0000000700000014
(1493216768.547097) can0 1BFC38B9#000096408008FC68
(1493216768.547341) can0 1BFC38B8#0000000800000000
(1493216768.547712) can0 1BFC38B7#800164842502022E
(1493216768.547957) can0 1BFC38B6#0000000D0600AA99
(1493216768.548330) can0 1BFC38B5#0502FF0002020000
(1493216768.548709) can0 1BFC38B4#FF00000000000000
(1493216768.548958) can0 1BFC38B3#800164840600AA99
(1493216768.549302) can0 1BFC38B2#8001648483830075
(1493216768.554834) can0 6C7#04010401040000
(1493216768.555080) can0 30B#0000010000000080
(1493216768.555206) can0 5F2#0000
(1493216768.573337) can0 1FD#0000000000000000
(1493216768.603604) can0 30B#0000010000000080
(1493216768.633329) can0 1FD#0000000000000000
(1493216768.654076) can0 30B#0000010000000080
(1493216768.693579) can0 1FD#0000000000000000
(1493216768.703697) can0 30B#0000010000000080
(1493216768.731675) can0 7C3#98FF1E0E2B17417C
(1493216768.753950) can0 6C7#04010401040000
(1493216768.754201) can0 1FD#0000000000000000
(1493216768.754587) can0 30B#0000010000000080
(1493216768.754666) can0 5F2#0000
(1493216768.795600) can0 1BFC38B1#0000000000000000
(1493216768.795814) can0 1BFC38BB#FFFFFFFFFFFFFFFF
(1493216768.796196) can0 1BFC38BA#0000000700000014
(1493216768.796571) can0 1BFC38B9#000096408008FC68
(1493216768.796824) can0 1BFC38B8#0000000800000000
(1493216768.797074) can0 1BFC38B7#800164842502022E
(1493216768.797445) can0 1BFC38B6#0000001002020000
(1493216768.797697) can0 1BFC38B5#0502FF0002020000
(1493216768.798088) can0 1BFC38B4#FF00000000000000
(1493216768.798292) can0 1BFC38B3#800164840600AA99
(1493216768.798680) can0 1BFC38B2#8001648483830075
(1493216768.803552) can0 30B#0000010000000080
(1493216768.813596) can0 1FD#0000000000000000
(1493216768.854078) can0 30B#0000010000000080
(1493216768.854314) can0 65E#880883144C250400
(1493216768.873328) can0 1FD#0000000000000000
(1493216768.903576) can0 30B#0000010000000080
(1493216768.931822) can0 482#0F2867275A5B1961
(1493216768.933353) can0 1FD#0000000000000000
(1493216768.953977) can0 6C7#04010401040000
(1493216768.954336) can0 30B#0000010000000080
(1493216768.954545) can0 5F2#0000
(1493216768.993578) can0 1FD#0000000000000000
(1493216769.003584) can0 30B#0000010000000080
(1493216769.046106) can0 1BFC38B1#0000000000000000
(1493216769.046461) can0 1BFC38BB#FFFFFFFFFFFFFFFF
(1493216769.046846) can0 1BFC38BA#0000000700000014
(1493216769.047043) can0 1BFC38B9#000096408008FC68
(1493216769.047543) can0 1BFC38B8#0000000800000000
(1493216769.047661) can0 1BFC38B7#800164842502026A
(1493216769.048087) can0 1BFC38B6#000000122502026A
(1493216769.048338) can0 1BFC38B5#0502FF0002020000
(1493216769.048707) can0 1BFC38B4#FF00000000000000
(1493216769.048955) can0 1BFC38B3#800164840600AA99
(1493216769.049337) can0 1BFC38B2#8001648483830075
(1493216769.054980) can0 1FD#0000000000000000
(1493216769.055211) can0 30B#0000010000000080
(1493216769.103578) can0 30B#0000010000000080
(1493216769.113590) can0 1FD#0000000000000000
(1493216769.131963) can0 548#07
(1493216769.153964) can0 6C7#04010401040000
(1493216769.154337) can0 30B#0000010000000080
(1493216769.154572) can0 5F2#0000
(1493216769.173330) can0 1FD#0000000000000000
(1493216769.203587) can0 30B#0000010000000080
(1493216769.233341) can0 1FD#0000000000000000
(1493216769.254081) can0 30B#0000010000000080
(1493216769.293606) can0 1FD#0000000000000000
(1493216769.295576) can0 1BFC38B1#0000000000000000
(1493216769.295825) can0 1BFC38BB#FFFFFFFFFFFFFFFF
(1493216769.296201) can0 1BFC38BA#535553500000001A
(1493216769.296576) can0 1BFC38B9#010296408005A3F4
(1493216769.296820) can0 1BFC38B8#0000000800000000
(1493216769.297073) can0 1BFC38B7#800164842502026A
(1493216769.297464) can0 1BFC38B6#0000001500000000
(1493216769.297806) can0 1BFC38B5#0502FF0002020000
(1493216769.298057) can0 1BFC38B4#FF00000000000000
(1493216769.298429) can0 1BFC38B3#800164840600AA99
(1493216769.298679) can0 1BFC38B2#8001648483830075
(1493216769.303709) can0 30B#0000010000000080
(1493216769.332092) can0 3E5#230D160C38
(1493216769.354077) can0 6C7#04010401040000
(1493216769.354324) can0 1FD#0000000000000000
(1493216769.354576) can0 30B#0000010000000080
(1493216769.354819) can0 5F2#0000
(1493216769.354901) can0 643#000200
(1493216769.355277) can0 64E#0000000000000000
(1493216769.355537) can0 65E#88085F8557BA0400
(1493216769.355784) can0 6B8#6D08000000000000
(1493216769.356082) can0 6BC#AA838B51324C0700
(1493216769.403715) can0 30B#0000010000000080
(1493216769.413701) can0 1FD#0000000000000000
(1493216769.454582) can0 30B#0000010000000080
(1493216769.455074) can0 630#33C203000F000403
(1493216769.455326) can0 631#34C2030013000301
(1493216769.455569) can0 62D#3482030012000300
(1493216769.463578) can0 6B6#390C1C000B1E
(1493216769.463780) can0 6B7#BEB4C00A08FF80FE
(1493216769.464930) can0 62F#4451000B1E
(1493216769.473463) can0 1FD#0000000000000000
(1493216769.503699) can0 30B#0000010000000080
(1493216769.532187) can0 68B#0C8A7A51F8FFE25B
(1493216769.533447) can0 1FD#0000000000000000
(1493216769.546232) can0 1BFC38B1#0000000000000000
(1493216769.546611) can0 1BFC38BB#FFFFFFFFFFFFFFFF
(1493216769.546818) can0 1BFC38BA#535553500000001A
(1493216769.547077) can0 1BFC38B9#010296408005A3F4
(1493216769.547423) can0 1BFC38B8#0000000800000000
(1493216769.547863) can0 1BFC38B7#800164842502026A
(1493216769.548032) can0 1BFC38B6#0000001704003322
(1493216769.548418) can0 1BFC38B5#0502FF0002020000
(1493216769.548680) can0 1BFC38B4#FF00000000000000
(1493216769.549054) can0 1BFC38B3#8001648404003322
(1493216769.549322) can0 1BFC38B2#80016484838380E2
(1493216769.554926) can0 6C7#04010401040000
(1493216769.555155) can0 30B#0000010000000080
(1493216769.555302) can0 5F2#0000
(1493216769.593729) can0 1FD#0000000000000000
(1493216769.603703) can0 30B#0000010000000080
(1493216769.654088) can0 1FD#0000000000000000
(1493216769.654452) can0 30B#0000010000000080
(1493216769.703713) can0 30B#0000010000000080
(1493216769.713580) can0 1FD#0000000000000000
(1493216769.732380) can0 48F#
(1493216769.754078) can0 6C7#04010401040000
(1493216769.754313) can0 30B#0000010000000080
(1493216769.754566) can0 5F2#0000
(1493216769.773452) can0 1FD#0000000000000000
(1493216769.795576) can0 1BFC38B1#0000000000000000
(1493216769.795994) can0 1BFC38BB#FFFFFFFFFFFFFFFF
(1493216769.796194) can0 1BFC38BA#535553500000001A
(1493216769.796578) can0 1BFC38B9#010296408005A3F4
(1493216769.796829) can0 1BFC38B8#0000000800000000
(1493216769.797203) can0 1BFC38B7#800164842502026A
(1493216769.797574) can0 1BFC38B6#0000001A000034A8
(1493216769.797837) can0 1BFC38B5#0502FF0002020000
(1493216769.798074) can0 1BFC38B4#FF00000000000000
(1493216769.798464) can0 1BFC38B3#8001648404003322
(1493216769.798813) can0 1BFC38B2#80016484838380E2
(1493216769.803669) can0 30B#0000010000000080
(1493216769.833422) can0 1FD#0000000000000000
(1493216769.854085) can0 30B#0000010000000080
(1493216769.854529) can0 65E#8808DC2640B40600
(1493216769.893585) can0 1FD#0000000000000000
(1493216769.903714) can0 30B#0000010000000080
(1493216769.932592) can0 20A#5670FE0BB9687726
(1493216769.954114) can0 6C7#04010401040000
(1493216769.954490) can0 1FD#0000000000000000
(1493216769.954691) can0 30B#0000010000000080
(1493216769.954818) can0 5F2#0000
(1493216770.003708) can0 30B#0000010000000080
(1493216770.013589) can0 1FD#0000000000000000
(1493216770.046246) can0 1BFC38B1#0000000000000000
(1493216770.046569) can0 1BFC38BB#FFFFFFFFFFFFFFFF
(1493216770.046860) can0 1BFC38BA#535553500000001A
(1493216770.047214) can0 1BFC38B9#010296408005A3F4
(1493216770.047589) can0 1BFC38B8#0000000800000000
(1493216770.047819) can0 1BFC38B7#80016484250202A6
(1493216770.048198) can0 1BFC38B6#0000001C250202A6
(1493216770.048635) can0 1BFC38B5#0502FF0002020000
(1493216770.048832) can0 1BFC38B4#FF00000000000000
(1493216770.049104) can0 1BFC38B3#8001648404003322
(1493216770.049461) can0 1BFC38B2#80016484838380E2
(1493216770.054966) can0 30B#0000010000000080
(1493216770.073606) can0 1FD#0000000000000000
(1493216770.103744) can0 30B#0000010000000080
(1493216770.132751) can0 6F6#A0483346B9C6F8
(1493216770.133453) can0 1FD#0000000000000000
(1493216770.154110) can0 6C7#04010401040000
(1493216770.154339) can0 30B#0000010000000080
(1493216770.154606) can0 5F2#0000
(1493216770.193601) can0 1FD#0000000000000000
(1493216770.203706) can0 30B#0000010000000080
(1493216770.254211) can0 1FD#0000000000000000
(1493216770.254579) can0 30B#0000010000000080
(1493216770.295617) can0 1BFC38B1#0000000000000000
(1493216770.295926) can0 1BFC38BB#FFFFFFFFFFFFFFFF
(1493216770.296242) can0 1BFC38BA#0000000700000014
(1493216770.296577) can0 1BFC38B9#020096408008FC68
(1493216770.296951) can0 1BFC38B8#0000000800000000
(1493216770.297203) can0 1BFC38B7#80016484250202A6
(1493216770.297604) can0 1BFC38B6#0000001F00000000
(1493216770.297965) can0 1BFC38B5#0502FF0002020000
(1493216770.298200) can0 1BFC38B4#FF00000000000000
(1493216770.298586) can0 1BFC38B3#8001648404003322
(1493216770.298820) can0 1BFC38B2#80016484838380E2
(1493216770.303720) can0 30B#0000010000000080
(1493216770.313581) can0 1FD#0000000000000000
(1493216770.332869) can0 522#E4DD3963A4298557
(1493216770.354210) can0 6C7#04010401040000
(1493216770.354406) can0 30B#0000010000000080
(1493216770.354527) can0 5F2#0000
(1493216770.354830) can0 643#000200
(1493216770.355072) can0 64E#0000000000000000
(1493216770.355322) can0 65E#880842462F590700
(1493216770.355716) can0 6B8#6D08000000000000
(1493216770.355930) can0 6BC#AA838B51324C0700
(1493216770.373460) can0 1FD#0000000000000000
(1493216770.403838) can0 30B#0000010000000080
(1493216770.433490) can0 1FD#0000000000000000
(1493216770.454459) can0 30B#0000010000000080
(1493216770.463499) can0 6B6#390C1C000B1F
(1493216770.463698) can0 6B7#BEB4C00A08FF80FE
(1493216770.463968) can0 62F#4451000B1F
(1493216770.493597) can0 1FD#0000000000000000
(1493216770.503832) can0 30B#0000010000000080
(1493216770.532969) can0 2C1#FE849E38
(1493216770.546328) can0 1BFC38B1#0000000000000000
(1493216770.546575) can0 1BFC38BB#FFFFFFFFFFFFFFFF
(1493216770.546919) can0 1BFC38BA#0000000700000014
(1493216770.547295) can0 1BFC38B9#020096408008FC68
(1493216770.547546) can0 1BFC38B8#0000000800000000
(1493216770.547937) can0 1BFC38B7#80016484250202A6
(1493216770.548186) can0 1BFC38B6#000000210600CCBB
(1493216770.548558) can0 1BFC38B5#0502FF0002020000
(1493216770.548810) can0 1BFC38B4#FF00000000000000
(1493216770.549177) can0 1BFC38B3#800164840600CCBB
(1493216770.549400) can0 1BFC38B2#800164848383803B
(1493216770.555097) can0 1FD#0000000000000000
(1493216770.555287) can0 30B#0000010000000080
(1493216770.555585) can0 5F2#0000
(1493216770.603862) can0 30B#0000010000000080
(1493216770.613727) can0 1FD#0000000000000000
(1493216770.654458) can0 30B#0000010000000080
(1493216770.673470) can0 1FD#0000000000000000
(1493216770.703829) can0 30B#0000010000000080
(1493216770.733227) can0 245#468C97532A9E
(1493216770.733443) can0 1FD#0000000000000000
(1493216770.754493) can0 30B#0000010000000080
(1493216770.754546) can0 5F2#0000
(1493216770.793604) can0 1FD#0000000000000000
(1493216770.795705) can0 1BFC38B1#0000000000000000
(1493216770.796083) can0 1BFC38BB#FFFFFFFFFFFFFFFF
(1493216770.796314) can0 1BFC38BA#0000000700000014
(1493216770.796720) can0 1BFC38B9#020096408008FC68
(1493216770.796956) can0 1BFC38B8#0000000800000000
(1493216770.797309) can0 1BFC38B7#80016484250202A6
(1493216770.797560) can0 1BFC38B6#0000002402020000
(1493216770.797933) can0 1BFC38B5#0502FF0002020000
(1493216770.798186) can0 1BFC38B4#FF00000000000000
(1493216770.798558) can0 1BFC38B3#800164840600CCBB
(1493216770.798814) can0 1BFC38B2#800164848383803B
(1493216770.803858) can0 30B#0000010000000080
(1493216770.854466) can0 1FD#0000000000000000
(1493216770.854695) can0 30B#0000010000000080
(1493216770.854938) can0 65E#880883045E150400
(1493216770.903824) can0 30B#0000010000000080
(1493216770.913712) can0 1FD#0000000000000000
(1493216770.933338) can0 38B#638F813816FAB617
(1493216770.954465) can0 30B#0000010000000080
(1493216770.954589) can0 5F2#0000
(1493216770.973594) can0 1FD#0000000000000000
(1493216771.003841) can0 30B#0000010000000080
(1493216771.033457) can0 1FD#0000000000000000
(1493216771.046340) can0 1BFC38B1#0000000000000000
(1493216771.046732) can0 1BFC38BB#FFFFFFFFFFFFFFFF
(1493216771.046939) can0 1BFC38BA#0000000700000014
(1493216771.047340) can0 1BFC38B9#020096408008FC68
(1493216771.047682) can0 1BFC38B8#0000000800000000
(1493216771.047968) can0 1BFC38B7#80016484250202E2
(1493216771.048328) can0 1BFC38B6#00000026250202E2
(1493216771.048559) can0 1BFC38B5#0502FF0002020000
(1493216771.048935) can0 1BFC38B4#FF00000000000000
(1493216771.049183) can0 1BFC38B3#800164840600CCBB
(1493216771.049559) can0 1BFC38B2#800164848383803B
(1493216771.055093) can0 30B#0000010000000080
(1493216771.093629) can0 1FD#0000000000000000
(1493216771.103860) can0 30B#0000010000000080
(1493216771.133472) can0 122#0EFA9973B1BDDC63
(1493216771.154561) can0 1FD#0000000000000000
(1493216771.154784) can0 30B#0000010000000080
(1493216771.154907) can0 5F2#0000
(1493216771.203840) can0 30B#0000010000000080
(1493216771.213712) can0 1FD#0000000000000000
(1493216771.254497) can0 30B#0000010000000080
(1493216771.273583) can0 1FD#0000000000000000
(1493216771.295716) can0 1BFC38B1#0000000000000000
(1493216771.296109) can0 1BFC38BB#FFFFFFFFFFFFFFFF
(1493216771.296326) can0 1BFC38BA#535553500000001A
(1493216771.296717) can0 1BFC38B9#030296408005A3F4
(1493216771.296954) can0 1BFC38B8#0000000800000000
(1493216771.297331) can0 1BFC38B7#80016484250202E2
(1493216771.297580) can0 1BFC38B6#0000002900000000
(1493216771.297964) can0 1BFC38B5#0502FF0002020000
(1493216771.298214) can0 1BFC38B4#FF00000000000000
(1493216771.298585) can0 1BFC38B3#800164840600CCBB
(1493216771.298964) can0 1BFC38B2#800164848383803B
(1493216771.303860) can0 30B#0000010000000080
(1493216771.333634) can0 7A0#4862D554AA71A931
(1493216771.333638) can0 1FD#0000000000000000
(1493216771.533738) can0 301#63DA2058F861077D
(1493216771.733828) can0 125#B12800
(1493216771.934084) can0 33B#EB5F0947FCFD
(1493216772.134218) can0 48A#051E266DCFDE9C76
(1493216772.204335) can0 6C7#01010408040000
(1493216772.204702) can0 1FD#0000000000000000
(1493216772.204948) can0 30B#0000000000000080
(1493216772.205072) can0 5F2#0000
(1493216772.205327) can0 643#000200
(1493216772.205577) can0 64E#0000000000000000
(1493216772.205971) can0 65E#0000000000000000
(1493216772.206210) can0 6B8#6D08000000000000
(1493216772.206556) can0 6BC#0000000000000000
(1493216772.254713) can0 30B#0000000000000080
(1493216772.260459) can0 630#40000013
(1493216772.263734) can0 1FD#0000000000000000
(1493216772.263963) can0 6B7#BEB4D00A080080FE
(1493216772.264593) can0 630#03C203000F000403
(1493216772.264814) can0 631#04C2030013000301
(1493216772.265257) can0 62D#0482030012000300
(1493216772.265468) can0 62F#0442030011000400
(1493216772.303833) can0 30B#0000000000000080
(1493216772.323586) can0 1FD#0000000000000000
(1493216772.334347) can0 5EF#F97CC72B7A99D075
(1493216772.354724) can0 30B#0000000000000080
(1493216772.383600) can0 1FD#0000000000000000
(1493216772.395720) can0 1BFC38B1#0000000000000000
(1493216772.396136) can0 1BFC38BB#FFFFFFFFFFFFFFFF
(1493216772.396334) can0 1BFC38BA#0000000700000014
(1493216772.396747) can0 1BFC38B9#040096408008FC68
(1493216772.396961) can0 1BFC38B8#0000000800000000
(1493216772.397334) can0 1BFC38B7#800164842502021E
(1493216772.397582) can0 1BFC38B6#00000034838380D2
(1493216772.397972) can0 1BFC38B5#0502FF0002020000
(1493216772.398327) can0 1BFC38B4#FF00000000000000
(1493216772.398584) can0 1BFC38B3#8001648404003322
(1493216772.398940) can0 1BFC38B2#80016484838380D2
(1493216772.403737) can0 6C7#01010408040000
(1493216772.404115) can0 30B#0000010000000080
(1493216772.404222) can0 5F2#0200
(1493216772.443587) can0 1FD#0000000000000000
(1493216772.454834) can0 30B#0000010000000080
(1493216772.463574) can0 6B6#390C1C000B21
(1493216772.464711) can0 62F#4451000B21
(1493216772.503835) can0 1FD#0000000000000000
(1493216772.504065) can0 30B#0000010000000080
(1493216772.534583) can0 3B5#9193870DD8B43548
(1493216772.554740) can0 30B#0000010000000080
(1493216772.563613) can0 1FD#0000000000000000
(1493216772.603720) can0 6C7#01010408040000
(1493216772.604084) can0 30B#0000010000000080
(1493216772.604195) can0 5F2#0500
(1493216772.623585) can0 1FD#0000000000000000
(1493216772.646584) can0 1BFC38B1#0000000000000000
(1493216772.646986) can0 1BFC38BB#FFFFFFFFFFFFFFFF
(1493216772.647194) can0 1BFC38BA#0000000700000014
(1493216772.647581) can0 1BFC38B9#040096408008FC68
(1493216772.647976) can0 1BFC38B8#0000000800000000
(1493216772.648208) can0 1BFC38B7#800164842502021E
(1493216772.648595) can0 1BFC38B6#0000003600000000
(1493216772.648839) can0 1BFC38B5#0502FF0002020000
(1493216772.649216) can0 1BFC38B4#FF00000000000000
(1493216772.649600) can0 1BFC38B3#8001648432408877
(1493216772.649840) can0 1BFC38B2#80016484838380D2
(1493216772.653599) can0 30B#0000010000000080
(1493216772.683597) can0 1FD#0000000000000000
(1493216772.703833) can0 30B#0000010000000080
(1493216772.704095) can0 65E#8808AE756C290800
(1493216772.734541) can0 5CC#8972122C6C45C201
(1493216772.743621) can0 1FD#0000000000000000
(1493216772.754846) can0 30B#0000010000000080
(1493216772.803755) can0 6C7#01010408040000
(1493216772.804085) can0 1FD#0000000000000000
(1493216772.804362) can0 30B#0000010000000080
(1493216772.804580) can0 5F2#0800
(1493216772.854846) can0 30B#0000010000000080
(1493216772.864587) can0 1FD#0000000000000000
(1493216772.895707) can0 1BFC38B1#0000000000000000
(1493216772.896085) can0 1BFC38BB#FFFFFFFFFFFFFFFF
(1493216772.896321) can0 1BFC38BA#0000000700000014
(1493216772.896708) can0 1BFC38B9#040096408008FC68
(1493216772.897111) can0 1BFC38B8#0000000800000000
(1493216772.897319) can0 1BFC38B7#800164842502025A
(1493216772.897736) can0 1BFC38B6#0000003902020000
(1493216772.897985) can0 1BFC38B5#0502FF0002020000
(1493216772.898330) can0 1BFC38B4#FF00000000000000
(1493216772.898554) can0 1BFC38B3#8001648432408877
(1493216772.898940) can0 1BFC38B2#80016484838380D2
(1493216772.903867) can0 30B#0000010000000080
(1493216772.923678) can0 1FD#0000000000000000
(1493216772.934842) can0 3A8#16
(1493216772.954849) can0 30B#0000010000000080
(1493216772.983614) can0 1FD#0000000000000000
(1493216773.003875) can0 6C7#01010408040000
(1493216773.004035) can0 30B#0000010000000080
(1493216773.004160) can0 5F2#0A00
(1493216773.043541) can0 1FD#0000000000000000
(1493216773.054867) can0 30B#0000010000000080
(1493216773.103861) can0 1FD#0000000000000000
(1493216773.104090) can0 30B#0000010000000080
(1493216773.134986) can0 76F#A240365494309F3A
(1493216773.146719) can0 1BFC38B1#0000000000000000
(1493216773.146968) can0 1BFC38BB#FFFFFFFFFFFFFFFF
(1493216773.147341) can0 1BFC38BA#0000000700000014
(1493216773.147607) can0 1BFC38B9#050296408005A3F4
(1493216773.147971) can0 1BFC38B8#0000000800000000
(1493216773.148359) can0 1BFC38B7#800164842502025A
(1493216773.148573) can0 1BFC38B6#0000003B00000000
(1493216773.148968) can0 1BFC38B5#0502FF0002020000
(1493216773.149219) can0 1BFC38B4#FF00000000000000
(1493216773.149596) can0 1BFC38B3#8001648432408877
(1493216773.149817) can0 1BFC38B2#80016484838380D2
(1493216773.153567) can0 30B#0000010000000080
(1493216773.164119) can0 1FD#0000000000000000
(1493216773.203844) can0 6C7#04010408040000
(1493216773.204076) can0 30B#0000010000000080
(1493216773.204195) can0 5F2#0D00
(1493216773.204473) can0 643#000200
(1493216773.204712) can0 64E#0000000000000000
(1493216773.204962) can0 65E#8808B8D05C3F0500
(1493216773.205333) can0 6B8#6D08000000000000
(1493216773.205598) can0 6BC#AA838B51324C0700
(1493216773.223621) can0 1FD#0000000000000000
(1493216773.254961) can0 30B#0000010000000080
(1493216773.263588) can0 6B7#BEB4D00A08FF80FE
(1493216773.283585) can0 1FD#0000000000000000
(1493216773.303832) can0 30B#0000010000000080
(1493216773.335144) can0 47D#DB6623
(1493216773.343603) can0 1FD#0000000000000000
(1493216773.354975) can0 30B#0000010000000080
(1493216773.395840) can0 1BFC38B1#0000000000000000
(1493216773.396102) can0 1BFC38BB#FFFFFFFFFFFFFFFF
(1493216773.396471) can0 1BFC38BA#535553500000001A
(1493216773.396697) can0 1BFC38B9#050296408005A3F4
(1493216773.397083) can0 1BFC38B8#0000000800000000
(1493216773.397334) can0 1BFC38B7#800164842502025A
(1493216773.397709) can0 1BFC38B6#0000003E83838078
(1493216773.398083) can0 1BFC38B5#0502FF0002020000
(1493216773.398331) can0 1BFC38B4#FF00000000000000
(1493216773.398710) can0 1BFC38B3#8001648432408877
(1493216773.398963) can0 1BFC38B2#8001648483838078
(1493216773.403840) can0 6C7#04010408040000
(1493216773.404210) can0 1FD#0000000000000000
(1493216773.404456) can0 30B#0000010000000080
(1493216773.404553) can0 5F2#0F00
(1493216773.454961) can0 30B#0000010000000080
(1493216773.463585) can0 1FD#0000000000000000
(1493216773.463799) can0 6B6#390C1C000B22
(1493216773.464087) can0 62F#4451000B22
(1493216773.503963) can0 30B#0000010000000080
(1493216773.523580) can0 1FD#0000000000000000
(1493216773.535163) can0 7E9#B51D9173737C
(1493216773.554979) can0 30B#0000010000000080
(1493216773.583591) can0 1FD#0000000000000000
(1493216773.603837) can0 6C7#04010408040000
(1493216773.604076) can0 30B#0000010000000080
(1493216773.604304) can0 5F2#1200
(1493216773.643616) can0 1FD#0000000000000000
(1493216773.646711) can0 1BFC38B1#0000000000000000
(1493216773.647084) can0 1BFC38BB#FFFFFFFFFFFFFFFF
(1493216773.647317) can0 1BFC38BA#535553500000001A
(1493216773.647738) can0 1BFC38B9#050296408005A3F4
(1493216773.647962) can0 1BFC38B8#0000000800000000
(1493216773.648332) can0 1BFC38B7#800164842502025A
(1493216773.648584) can0 1BFC38B6#0000004000000000
(1493216773.648961) can0 1BFC38B5#0502FF0002020000
(1493216773.649336) can0 1BFC38B4#FF00000000000000
(1493216773.649586) can0 1BFC38B3#800164843100DDCC
(1493216773.649944) can0 1BFC38B2#8001648483838078
(1493216773.653694) can0 30B#0000010000000080
(1493216773.703973) can0 1FD#0000000000000000
(1493216773.704201) can0 30B#0000010000000080
(1493216773.704613) can0 65E#880803F475D70700
(1493216773.735390) can0 3B0#425BE8479F61154B
(1493216773.754845) can0 30B#0000010000000080
(1493216773.763589) can0 1FD#0000000000000000
(1493216773.803837) can0 6C7#04010408040000
(1493216773.804049) can0 30B#0000010000000080
(1493216773.804354) can0 5F2#1400
(1493216773.823585) can0 1FD#0000000000000000
(1493216773.854823) can0 30B#0000010000000080
(1493216773.883616) can0 1FD#0000000000000000
(1493216773.895837) can0 1BFC38B1#0000000000000000
(1493216773.896073) can0 1BFC38BB#FFFFFFFFFFFFFFFF
(1493216773.896478) can0 1BFC38BA#535553500000001A
(1493216773.896663) can0 1BFC38B9#050296408005A3F4
(1493216773.897085) can0 1BFC38B8#0000000800000000
(1493216773.897337) can0 1BFC38B7#8001648425020296
(1493216773.897710) can0 1BFC38B6#00000043000034A8
(1493216773.898087) can0 1BFC38B5#0502FF0002020000
(1493216773.898337) can0 1BFC38B4#FF00000000000000
(1493216773.898722) can0 1BFC38B3#800164843100DDCC
(1493216773.898944) can0 1BFC38B2#8001648483838078
(1493216773.903944) can0 30B#0000010000000080
(1493216773.935620) can0 606#1AFBE540BC29E041
(1493216773.943590) can0 1FD#0000000000000000
(1493216773.954962) can0 30B#0000010000000080
(1493216774.003840) can0 6C7#04010408040000
(1493216774.004239) can0 1FD#0000000000000000
(1493216774.004466) can0 30B#0000010000000080
(1493216774.004561) can0 5F2#1600
(1493216774.054842) can0 30B#0000010000000080
(1493216774.063589) can0 1FD#0000000000000000
(1493216774.103963) can0 30B#0000010000000080
(1493216774.123618) can0 1FD#0000000000000000
(1493216774.135696) can0 498#94DE150A640A3E46
(1493216774.146732) can0 1BFC38B1#0000000000000000
(1493216774.147091) can0 1BFC38BB#FFFFFFFFFFFFFFFF
(1493216774.147338) can0 1BFC38BA#535553500000001A
(1493216774.147740) can0 1BFC38B9#060096408008FC68
(1493216774.147970) can0 1BFC38B8#0000000800000000
(1493216774.148313) can0 1BFC38B7#8001648425020296
(1493216774.148581) can0 1BFC38B6#0000004500000000
(1493216774.148993) can0 1BFC38B5#0502FF0002020000
(1493216774.149355) can0 1BFC38B4#FF00000000000000
(1493216774.149599) can0 1BFC38B3#800164843100DDCC
(1493216774.149799) can0 1BFC38B2#8001648483838078
(1493216774.153694) can0 30B#0000010000000080
(1493216774.183716) can0 1FD#0000000000000000
(1493216774.203840) can0 6C7#04010408040000
(1493216774.204069) can0 30B#0000010000000080
(1493216774.204339) can0 5F2#1800
(1493216774.204547) can0 643#000200
(1493216774.204804) can0 64E#0000000000000000
(1493216774.205035) can0 65E#880819612D450500
(1493216774.205300) can0 6B8#6D08000000000000
(1493216774.205550) can0 6BC#AA838B51324C0700
(1493216774.243716) can0 1FD#0000000000000000
(1493216774.254993) can0 30B#0000010000000080
(1493216774.255225) can0 630#33C203000F000403
(1493216774.255627) can0 62D#3482030012000300
(1493216774.255840) can0 631#34C2030013000301
(1493216774.263739) can0 6B7#BEB4D00A08FF80FE
(1493216774.303997) can0 1FD#0000000000000000
(1493216774.304204) can0 30B#0000010000000080
(1493216774.335975) can0 44A#D04F0048F3F75A36
(1493216774.354838) can0 30B#0000010000000080
(1493216774.364245) can0 1FD#0000000000000000
(1493216774.395883) can0 1BFC38B1#0000000000000000
(1493216774.396206) can0 1BFC38BB#FFFFFFFFFFFFFFFF
(1493216774.396493) can0 1BFC38BA#0000000700000014
(1493216774.396868) can0 1BFC38B9#060096408008FC68
(1493216774.397104) can0 1BFC38B8#0000000800000000
(1493216774.397476) can0 1BFC38B7#8001648425020296
(1493216774.397686) can0 1BFC38B6#00000048838300DD
(1493216774.398096) can0 1BFC38B5#0502FF0002020000
(1493216774.398317) can0 1BFC38B4#FF00000000000000
(1493216774.398718) can0 1BFC38B3#800164843100DDCC
(1493216774.398964) can0 1BFC38B2#80016484838300DD
(1493216774.403868) can0 6C7#04010408040000
(1493216774.404099) can0 30B#0000010000000080
(1493216774.404362) can0 5F2#1A00
(1493216774.423634) can0 1FD#0000000000000000
(1493216774.454843) can0 30B#0000010000000080
(1493216774.463591) can0 6B6#390C1C000B23
(1493216774.464713) can0 62F#4451000B23
(1493216774.483721) can0 1FD#0000000000000000
(1493216774.503966) can0 30B#0000010000000080
(1493216774.536089) can0 5EF#9DD6890D5ECD
(1493216774.543730) can0 1FD#0000000000000000
(1493216774.554947) can0 30B#0000010000000080
(1493216774.603842) can0 6C7#04010408040000
(1493216774.604210) can0 1FD#0000000000000000
(1493216774.604453) can0 30B#0000010000000080
(1493216774.604538) can0 5F2#1C00
(1493216774.646714) can0 1BFC38B1#0000000000000000
(1493216774.647084) can0 1BFC38BB#FFFFFFFFFFFFFFFF
(1493216774.647343) can0 1BFC38BA#0000000700000014
(1493216774.647709) can0 1BFC38B9#060096408008FC68
(1493216774.648093) can0 1BFC38B8#0000000800000000
(1493216774.648326) can0 1BFC38B7#8001648425020296
(1493216774.648716) can0 1BFC38B6#0000004A00000000
(1493216774.648962) can0 1BFC38B5#0502FF0002020000
(1493216774.649334) can0 1BFC38B4#FF00000000000000
(1493216774.649588) can0 1BFC38B3#800164843100FFEE
(1493216774.649989) can0 1BFC38B2#80016484838300DD
(1493216774.655345) can0 30B#0000010000000080
(1493216774.663742) can0 1FD#0000000000000000
(1493216774.703967) can0 30B#0000010000000080
(1493216774.704199) can0 65E#88081A74664E0600
(1493216774.723714) can0 1FD#0000000000000000
(1493216774.736343) can0 060#F3FD6A53DD4CD930
(1493216774.754853) can0 30B#0000010000000080
(1493216774.783716) can0 1FD#0000000000000000
(1493216774.803842) can0 6C7#04010408040000
(1493216774.804264) can0 30B#0000010000000080
(1493216774.804459) can0 5F2#1E00
(1493216774.843718) can0 1FD#0000000000000000
(1493216774.854964) can0 30B#0000010000000080
(1493216774.895841) can0 1BFC38B1#0000000000000000
(1493216774.896211) can0 1BFC38BB#FFFFFFFFFFFFFFFF
(1493216774.896643) can0 1BFC38BA#0000000700000014
(1493216774.896842) can0 1BFC38B9#060096408008FC68
(1493216774.897242) can0 1BFC38B8#0000000800000000
(1493216774.897473) can0 1BFC38B7#80016484250202D2
(1493216774.897855) can0 1BFC38B6#0000004D02020000
(1493216774.898093) can0 1BFC38B5#0502FF0002020000
(1493216774.898444) can0 1BFC38B4#FF00000000000000
(1493216774.898696) can0 1BFC38B3#800164843100FFEE
(1493216774.899067) can0 1BFC38B2#80016484838300DD
(1493216774.903952) can0 1FD#0000000000000000
(1493216774.904194) can0 30B#0000010000000080
(1493216774.936501) can0 092#956C604D7CF06619
(1493216774.954850) can0 30B#0000010000000080
(1493216774.963747) can0 1FD#0000000000000000
(1493216775.003873) can0 6C7#04010408040000
(1493216775.004227) can0 30B#0000010000000080
(1493216775.004330) can0 5F2#2000
(1493216775.023748) can0 1FD#0000000000000000
(1493216775.054964) can0 30B#0000010000000080
(1493216775.083712) can0 1FD#0000000000000000
(1493216775.103967) can0 30B#0000010000000080
(1493216775.136645) can0 395#EF6CB26A45D78F5F
(1493216775.143724) can0 1FD#0000000000000000
(1493216775.146881) can0 1BFC38B1#0000000000000000
(1493216775.147259) can0 1BFC38BB#FFFFFFFFFFFFFFFF
(1493216775.147591) can0 1BFC38BA#0000000700000014
(1493216775.147840) can0 1BFC38B9#070296408005A3F4
(1493216775.148216) can0 1BFC38B8#0000000800000000
(1493216775.148590) can0 1BFC38B7#80016484250202D2
(1493216775.148867) can0 1BFC38B6#0000004F00000000
(1493216775.149091) can0 1BFC38B5#0502FF0002020000
(1493216775.149436) can0 1BFC38B4#FF00000000000000
(1493216775.149683) can0 1BFC38B3#800164843100FFEE
(1493216775.150059) can0 1BFC38B2#80016484838300DD
(1493216775.153706) can0 30B#0000010000000080
(1493216775.203977) can0 6C7#04010408040000
(1493216775.204206) can0 1FD#0000000000000000
(1493216775.204470) can0 30B#0000010000000080
(1493216775.204715) can0 5F2#2200
(1493216775.204830) can0 643#000200
(1493216775.205200) can0 64E#0000000000000000
(1493216775.205421) can0 65E#8808526475690800
(1493216775.205675) can0 6B8#6D08000000000000
(1493216775.205936) can0 6BC#AA838B51324C0700
(1493216775.254977) can0 30B#0000010000000080
(1493216775.263717) can0 1FD#0000000000000000
(1493216775.263949) can0 6B7#BEB4D00A08FF80FE
(1493216775.303978) can0 30B#0000010000000080
(1493216775.323673) can0 1FD#0000000000000000
(1493216775.336717) can0 605#E438
(1493216775.354946) can0 30B#0000010000000080
(1493216775.383754) can0 1FD#0000000000000000
(1493216775.395871) can0 1BFC38B1#0000000000000000
(1493216775.396231) can0 1BFC38BB#FFFFFFFFFFFFFFFF
(1493216775.396596) can0 1BFC38BA#535553500000001A
(1493216775.396851) can0 1BFC38B9#070296408005A3F4
(1493216775.397113) can0 1BFC38B8#0000000800000000
(1493216775.397465) can0 1BFC38B7#80016484250202D2
(1493216775.397725) can0 1BFC38B6#00000052838380F4
(1493216775.398123) can0 1BFC38B5#0502FF0002020000
(1493216775.398493) can0 1BFC38B4#FF00000000000000
(1493216775.398727) can0 1BFC38B3#800164843100FFEE
(1493216775.399101) can0 1BFC38B2#80016484838380F4
(1493216775.403975) can0 6C7#04010408040000
(1493216775.404239) can0 30B#0000010000000080
(1493216775.404357) can0 5F2#2300
(1493216775.443730) can0 1FD#0000000000000000
(1493216775.454964) can0 30B#0000010000000080
(1493216775.463720) can0 6B6#390C1C000B24
(1493216775.465119) can0 62F#4451000B24
(1493216775.503969) can0 1FD#0000000000000000
(1493216775.504216) can0 30B#0000010000000080
(1493216775.536984) can0 06E#C7D5FD040685437E
(1493216775.554998) can0 30B#0000010000000080
(1493216775.563752) can0 1FD#0000000000000000
(1493216775.603971) can0 6C7#04010408040000
(1493216775.604219) can0 30B#0000010000000080
(1493216775.604466) can0 5F2#2500
(1493216775.623732) can0 1FD#0000000000000000
(1493216775.646721) can0 1BFC38B1#0000000000000000
(1493216775.647092) can0 1BFC38BB#FFFFFFFFFFFFFFFF
(1493216775.647467) can0 1BFC38BA#535553500000001A
(1493216775.647710) can0 1BFC38B9#070296408005A3F4
(1493216775.648073) can0 1BFC38B8#0000000800000000
(1493216775.648333) can0 1BFC38B7#80016484250202D2
(1493216775.648744) can0 1BFC38B6#0000005400000000
(1493216775.648964) can0 1BFC38B5#0502FF0002020000
(1493216775.649355) can0 1BFC38B4#FF00000000000000
(1493216775.649589) can0 1BFC38B3#8001648432404433
(1493216775.649974) can0 1BFC38B2#80016484838380F4
(1493216775.653736) can0 30B#0000010000000080
(1493216775.683746) can0 1FD#0000000000000000
(1493216775.703967) can0 30B#0000010000000080
(1493216775.704337) can0 65E#88087C145CA70800
(1493216775.737092) can0 2A9#6B8F8144F4DE8709
(1493216775.743747) can0 1FD#0000000000000000
(1493216775.754972) can0 30B#0000010000000080
(1493216775.803965) can0 6C7#04010408040000
(1493216775.804204) can0 1FD#0000000000000000
(1493216775.804591) can0 30B#0000010000000080
(1493216775.804709) can0 5F2#2600
(1493216775.854965) can0 30B#0000010000000080
(1493216775.865217) can0 1FD#0000000000000000
(1493216775.895852) can0 1BFC38B1#0000000000000000
(1493216775.896205) can0 1BFC38BB#FFFFFFFFFFFFFFFF
(1493216775.896592) can0 1BFC38BA#535553500000001A
(1493216775.896840) can0 1BFC38B9#070296408005A3F4
(1493216775.897203) can0 1BFC38B8#0000000800000000
(1493216775.897463) can0 1BFC38B7#800164842502020E
(1493216775.897829) can0 1BFC38B6#00000057000034A8
(1493216775.898101) can0 1BFC38B5#0502FF0002020000
(1493216775.898479) can0 1BFC38B4#FF00000000000000
(1493216775.898726) can0 1BFC38B3#8001648432404433
(1493216775.899100) can0 1BFC38B2#80016484838380F4
(1493216775.903950) can0 30B#0000010000000080
(1493216775.923885) can0 1FD#0000000000000000
(1493216775.937394) can0 579#E7D6E23F682B4C7C
(1493216775.954971) can0 30B#0000010000000080
(1493216775.983730) can0 1FD#0000000000000000
(1493216776.004103) can0 6C7#04010408040000
(1493216776.004340) can0 30B#0000010000000080
(1493216776.004545) can0 5F2#2800
(1493216776.043716) can0 1FD#0000000000000000
(1493216776.054979) can0 30B#0000010000000080
(1493216776.104017) can0 1FD#0000000000000000
(1493216776.104310) can0 30B#0000010000000080
(1493216776.137622) can0 622#C6F81715
(1493216776.146853) can0 1BFC38B1#0000000000000000
(1493216776.147275) can0 1BFC38BB#FFFFFFFFFFFFFFFF
(1493216776.147461) can0 1BFC38BA#535553500000001A
(1493216776.147852) can0 1BFC38B9#000096408008FC68
(1493216776.148101) can0 1BFC38B8#0000000800000000
(1493216776.148472) can0 1BFC38B7#800164842502020E
(1493216776.148726) can0 1BFC38B6#0000005900000000
(1493216776.149106) can0 1BFC38B5#0502FF0002020000
(1493216776.149353) can0 1BFC38B4#FF00000000000000
(1493216776.149776) can0 1BFC38B3#8001648432404433
(1493216776.149969) can0 1BFC38B2#80016484838380F4
(1493216776.153860) can0 30B#0000010000000080
(1493216776.163854) can0 1FD#0000000000000000
(1493216776.204006) can0 6C7#04010408040000
(1493216776.204234) can0 30B#0000010000000080
(1493216776.204469) can0 5F2#2900
(1493216776.204567) can0 643#000200
(1493216776.204891) can0 64E#0000000000000000
(1493216776.205249) can0 65E#88086BA73D810800
(1493216776.205505) can0 6B8#6D08000000000000
(1493216776.205721) can0 6BC#AA838B51324C0700
(1493216776.223721) can0 1FD#0000000000000000
(1493216776.255126) can0 30B#0000010000000080
(1493216776.255347) can0 630#33C37803E0080272
(1493216776.255588) can0 631#34C37807FE000000
(1493216776.255963) can0 62D#34837801F8000000
(1493216776.263728) can0 6B7#BEB4E00A08FF80FE
(1493216776.283747) can0 1FD#0000000000000000
(1493216776.304094) can0 30B#0000010000000080
(1493216776.337643) can0 4C3#5FCBBF3F55452349
(1493216776.343746) can0 1FD#0000000000000000
(1493216776.355103) can0 30B#0000010000000080
(1493216776.395969) can0 1BFC38B1#0000000000000000
(1493216776.396360) can0 1BFC38BB#FFFFFFFFFFFFFFFF
(1493216776.396579) can0 1BFC38BA#0000000700000014
(1493216776.396951) can0 1BFC38B9#000096408008FC68
(1493216776.397217) can0 1BFC38B8#0000000800000000
(1493216776.397606) can0 1BFC38B7#800164842502020E
(1493216776.397851) can0 1BFC38B6#0000005C8383807A
(1493216776.398225) can0 1BFC38B5#0502FF0002020000
(1493216776.398625) can0 1BFC38B4#FF00000000000000
(1493216776.398819) can0 1BFC38B3#8001648432404433
(1493216776.399106) can0 1BFC38B2#800164848383807A
(1493216776.404127) can0 1FD#0000000000000000
(1493216776.404507) can0 30B#0000010000000080
(1493216776.404612) can0 5F2#2A00
(1493216776.455096) can0 30B#0000010000000080
(1493216776.463722) can0 1FD#0000000000000000
(1493216776.463965) can0 6B6#390C1C000B25
(1493216776.464966) can0 62F#4451000B25
(1493216776.504097) can0 30B#0000010000000080
(1493216776.523720) can0 1FD#0000000000000000
(1493216776.537856) can0 388#D1358A62
(1493216776.555128) can0 30B#0000010000000080
(1493216776.583720) can0 1FD#0000000000000000
(1493216776.604098) can0 30B#0000010000000080
(1493216776.604294) can0 5F2#2C00
(1493216776.643736) can0 1FD#0000000000000000
(1493216776.646984) can0 1BFC38B1#0000000000000000
(1493216776.647370) can0 1BFC38BB#FFFFFFFFFFFFFFFF
(1493216776.647565) can0 1BFC38BA#0000000700000014
(1493216776.647982) can0 1BFC38B9#000096408008FC68
(1493216776.648172) can0 1BFC38B8#0000000800000000
(1493216776.648602) can0 1BFC38B7#800164842502020E
(1493216776.648854) can0 1BFC38B6#0000005E00000000
(1493216776.649252) can0 1BFC38B5#0502FF0002020000
(1493216776.649616) can0 1BFC38B4#FF00000000000000
(1493216776.649864) can0 1BFC38B3#8001648431009988
(1493216776.650064) can0 1BFC38B2#800164848383807A
(1493216776.653980) can0 30B#0000010000000080
(1493216776.704101) can0 1FD#0000000000000000
(1493216776.704333) can0 30B#0000010000000080
(1493216776.704752) can0 65E#8808233639440800
(1493216776.738009) can0 23F#62
(1493216776.755102) can0 30B#0000010000000080
(1493216776.763841) can0 1FD#0000000000000000
(1493216776.804066) can0 30B#0000010000000080
(1493216776.804168) can0 5F2#2D00
(1493216776.823760) can0 1FD#0000000000000000
(1493216776.855126) can0 30B#0000010000000080
(1493216776.883752) can0 1FD#0000000000000000
(1493216776.895990) can0 1BFC38B1#0000000000000000
(1493216776.896335) can0 1BFC38BB#FFFFFFFFFFFFFFFF
(1493216776.896599) can0 1BFC38BA#0000000700000014
(1493216776.896985) can0 1BFC38B9#000096408008FC68
(1493216776.897316) can0 1BFC38B8#0000000800000000
(1493216776.897590) can0 1BFC38B7#800164842502024A
(1493216776.897981) can0 1BFC38B6#0000006102020000
(1493216776.898235) can0 1BFC38B5#0502FF0002020000
(1493216776.898603) can0 1BFC38B4#FF00000000000000
(1493216776.898859) can0 1BFC38B3#8001648431009988
(1493216776.899244) can0 1BFC38B2#800164848383807A
(1493216776.904112) can0 30B#0000010000000080
(1493216776.938116) can0 2F3#4F34D832610B
(1493216776.943750) can0 1FD#0000000000000000
(1493216776.955124) can0 30B#0000010000000080
(1493216777.004093) can0 1FD#0000000000000000
(1493216777.004332) can0 30B#0000010000000080
(1493216777.004585) can0 5F2#2E00
(1493216777.055131) can0 30B#0000010000000080
(1493216777.063841) can0 1FD#0000000000000000
(1493216777.104136) can0 30B#0000010000000080
(1493216777.123846) can0 1FD#0000000000000000
(1493216777.138339) can0 345#67906524EE8D85
(1493216777.146985) can0 1BFC38B1#0000000000000000
(1493216777.147371) can0 1BFC38BB#FFFFFFFFFFFFFFFF
(1493216777.147566) can0 1BFC38BA#0000000700000014
(1493216777.147981) can0 1BFC38B9#010296408005A3F4
(1493216777.148252) can0 1BFC38B8#0000000800000000
(1493216777.148607) can0 1BFC38B7#800164842502024A
(1493216777.148840) can0 1BFC38B6#0000006300000000
(1493216777.149171) can0 1BFC38B5#0502FF0002020000
(1493216777.149608) can0 1BFC38B4#FF00000000000000
(1493216777.149852) can0 1BFC38B3#8001648431009988
(1493216777.150103) can0 1BFC38B2#800164848383807A
(1493216777.153866) can0 30B#0000010000000080
(1493216777.183842) can0 1FD#0000000000000000
(1493216777.338505) can0 672#E26C
(1493216777.538590) can0 70E#53EF710830E5567D
(1493216777.738760) can0 14D#B2633D0C10B6894A
(1493216777.938998) can0 6D3#66
(1493216777.943974) can0 6C7#02010408040000
(1493216777.944365) can0 30B#0000010000000080
(1493216777.944600) can0 5F2#3400
(1493216777.944603) can0 643#000200
(1493216777.944965) can0 64E#0000000000000000
(1493216777.945180) can0 65E#880821059F820600
(1493216777.945557) can0 6B8#6D08000000000000
(1493216777.945810) can0 6BC#AA838B51324C0700
(1493216777.961479) can0 630#40000013
(1493216777.965129) can0 630#03C203000F000403
(1493216777.965512) can0 631#04C2030013000301
(1493216777.965725) can0 62D#0482030012000300
(1493216777.965972) can0 62F#0442030011000400
(1493216777.983847) can0 1FD#0000000000000000
(1493216777.994124) can0 30B#0000010000000080
(1493216778.004097) can0 6B7#BEB4E00A08FF80FE
(1493216778.043851) can0 1FD#0000000000000000
(1493216778.044047) can0 30B#0000010000000080
(1493216778.093864) can0 30B#0000010000000080
(1493216778.096004) can0 1BFC38B1#0000000000000000
(1493216778.096345) can0 1BFC38BB#FFFFFFFFFFFFFFFF
(1493216778.096723) can0 1BFC38BA#535553500000001A
(1493216778.096966) can0 1BFC38B9#020096408008FC68
(1493216778.097298) can0 1BFC38B8#0000000800000000
(1493216778.097549) can0 1BFC38B7#8001648425020286
(1493216778.097920) can0 1BFC38B6#0000006D00000000
(1493216778.098171) can0 1BFC38B5#0502FF0002020000
(1493216778.098571) can0 1BFC38B4#FF00000000000000
(1493216778.098797) can0 1BFC38B3#800164843100BBAA
(1493216778.099179) can0 1BFC38B2#80016484838300FF
(1493216778.104083) can0 1FD#0000000000000000
(1493216778.139198) can0 705#78C1EA4044292F
(1493216778.143766) can0 6C7#02010408040000
(1493216778.144101) can0 30B#0000010000000080
(1493216778.144224) can0 5F2#3400
(1493216778.163844) can0 1FD#0000000000000000
(1493216778.193846) can0 30B#0000010000000080
(1493216778.204127) can0 6B6#390C1C000B26
(1493216778.223847) can0 1FD#0000000000000000
(1493216778.243850) can0 30B#0000010000000080
(1493216778.283877) can0 1FD#0000000000000000
(1493216778.293850) can0 30B#0000010000000080
(1493216778.339364) can0 3F8#88B1E916EB3E4B43
(1493216778.343844) can0 6C7#02010408040000
(1493216778.344098) can0 1FD#0000000000000000
(1493216778.344331) can0 30B#0000010000000080
(1493216778.344603) can0 5F2#3500
(1493216778.347203) can0 1BFC38B1#0000000000000000
(1493216778.347578) can0 1BFC38BB#FFFFFFFFFFFFFFFF
(1493216778.347825) can0 1BFC38BA#0000000700000014
(1493216778.348107) can0 1BFC38B9#020096408008FC68
(1493216778.348504) can0 1BFC38B8#0000000800000000
(1493216778.348767) can0 1BFC38B7#8001648425020286
(1493216778.349094) can0 1BFC38B6#0000006F00000000
(1493216778.349511) can0 1BFC38B5#0502FF0002020000
(1493216778.349724) can0 1BFC38B4#FF00000000000000
(1493216778.350092) can0 1BFC38B3#800164843100BBAA
(1493216778.350382) can0 1BFC38B2#80016484838300FF
(1493216778.364829) can0 62F#4451000B27
(1493216778.394003) can0 30B#0000010000000080
(1493216778.404101) can0 1FD#0000000000000000
(1493216778.443883) can0 30B#0000010000000080
(1493216778.444109) can0 65E#88088AF48B3C0400
(1493216778.463850) can0 1FD#0000000000000000
(1493216778.493839) can0 30B#0000010000000080
(1493216778.523887) can0 1FD#0000000000000000
(1493216778.539661) can0 721#4C4A6D696682D51E
(1493216778.543850) can0 6C7#02010408040000
(1493216778.544088) can0 30B#0000010000000080
(1493216778.544216) can0 5F2#3600
(1493216778.583857) can0 1FD#0000000000000000
(1493216778.593852) can0 30B#0000010000000080
(1493216778.596101) can0 1BFC38B1#0000000000000000
(1493216778.596350) can0 1BFC38BB#FFFFFFFFFFFFFFFF
(1493216778.596750) can0 1BFC38BA#0000000700000014
(1493216778.597000) can0 1BFC38B9#020096408008FC68
(1493216778.597346) can0 1BFC38B8#0000000800000000
(1493216778.597593) can0 1BFC38B7#8001648425020286
(1493216778.597985) can0 1BFC38B6#0000007200000000
(1493216778.598369) can0 1BFC38B5#0502FF0002020000
(1493216778.598611) can0 1BFC38B4#FF00000000000000
(1493216778.598925) can0 1BFC38B3#80016484324000FF
(1493216778.599171) can0 1BFC38B2#80016484838380F6
(1493216778.643855) can0 1FD#0000000000000000
(1493216778.644241) can0 30B#0000010000000080
(1493216778.693853) can0 30B#0000010000000080
(1493216778.704102) can0 1FD#0000000000000000
(1493216778.739618) can0 7EF#54105B23
(1493216778.743863) can0 6C7#02010408040000
(1493216778.744099) can0 30B#0000010000000080
(1493216778.744366) can0 5F2#3700
(1493216778.763850) can0 1FD#0000000000000000
(1493216778.793852) can0 30B#0000010000000080
(1493216778.823853) can0 1FD#0000000000000000
(1493216778.843853) can0 30B#0000010000000080
(1493216778.847100) can0 1BFC38B1#0000000000000000
(1493216778.847313) can0 1BFC38BB#FFFFFFFFFFFFFFFF
(1493216778.847727) can0 1BFC38BA#0000000700000014
(1493216778.847977) can0 1BFC38B9#020096408008FC68
(1493216778.848348) can0 1BFC38B8#0000000800000000
(1493216778.848599) can0 1BFC38B7#8001648425020286
(1493216778.848972) can0 1BFC38B6#0000007402020000
(1493216778.849220) can0 1BFC38B5#0502FF0002020000
(1493216778.849612) can0 1BFC38B4#FF00000000000000
(1493216778.849858) can0 1BFC38B3#80016484324000FF
(1493216778.850206) can0 1BFC38B2#80016484838380F6
(1493216778.883861) can0 1FD#0000000000000000
(1493216778.893878) can0 30B#0000010000000080
(1493216778.939877) can0 286#4D72A75494F922
(1493216778.943851) can0 6C7#04010408040000
(1493216778.944088) can0 1FD#0000000000000000
(1493216778.944492) can0 30B#0000010000000080
(1493216778.944594) can0 5F2#3700
(1493216778.944687) can0 643#000200
(1493216778.945108) can0 64E#0000000000000000
(1493216778.945316) can0 65E#8808E8E5A7910700
(1493216778.945578) can0 6B8#6D08000000000000
(1493216778.945827) can0 6BC#AA838B51324C0700
(1493216778.993977) can0 30B#0000010000000080
(1493216779.004229) can0 1FD#0000000000000000
(1493216779.004466) can0 6B7#BEB4E00A08FF80FE
(1493216779.043979) can0 30B#0000010000000080
(1493216779.063881) can0 1FD#0000000000000000
(1493216779.093859) can0 30B#0000010000000080
(1493216779.096100) can0 1BFC38B1#0000000000000000
(1493216779.096476) can0 1BFC38BB#FFFFFFFFFFFFFFFF
(1493216779.096723) can0 1BFC38BA#0000000700000014
(1493216779.096970) can0 1BFC38B9#030296408005A3F4
(1493216779.097361) can0 1BFC38B8#0000000800000000
(1493216779.097737) can0 1BFC38B7#80016484250202C2
(1493216779.097930) can0 1BFC38B6#0000007700000000
(1493216779.098366) can0 1BFC38B5#0502FF0002020000
(1493216779.098572) can0 1BFC38B4#FF00000000000000
(1493216779.098954) can0 1BFC38B3#80016484324000FF
(1493216779.099207) can0 1BFC38B2#80016484838380F6
(1493216779.123855) can0 1FD#0000000000000000
(1493216779.140021) can0 100#
(1493216779.143878) can0 6C7#04010408040000
(1493216779.144108) can0 30B#0000010000000080
(1493216779.144323) can0 5F2#3800
(1493216779.183842) can0 1FD#0000000000000000
(1493216779.193998) can0 30B#0000010000000080
(1493216779.204135) can0 6B6#390C1C000B27
(1493216779.243992) can0 1FD#0000000000000000
(1493216779.244210) can0 30B#0000010000000080
(1493216779.293886) can0 30B#0000010000000080
(1493216779.304233) can0 1FD#0000000000000000
(1493216779.340240) can0 1BA#5E683F658E28
(1493216779.343848) can0 6C7#04010408040000
(1493216779.344102) can0 30B#0000010000000080
(1493216779.344309) can0 5F2#4D00
(1493216779.347230) can0 1BFC38B1#0000000000000000
(1493216779.347557) can0 1BFC38BB#FFFFFFFFFFFFFFFF
(1493216779.347856) can0 1BFC38BA#535553500000001A
(1493216779.348200) can0 1BFC38B9#030296408005A3F4
(1493216779.348569) can0 1BFC38B8#0000000800000000
(1493216779.348875) can0 1BFC38B7#80016484250202C2
(1493216779.349108) can0 1BFC38B6#0000007900000000
(1493216779.349489) can0 1BFC38B5#0502FF0002020000
(1493216779.349875) can0 1BFC38B4#FF00000000000000
(1493216779.350107) can0 1BFC38B3#80016484324000FF
(1493216779.350364) can0 1BFC38B2#80016484838380F6
(1493216779.363974) can0 1FD#0000000000000000
(1493216779.365352) can0 62F#4451000B28
(1493216779.394105) can0 30B#0000010000000080
(1493216779.423978) can0 1FD#0000000000000000
(1493216779.443977) can0 30B#0000010000000080
(1493216779.444227) can0 65E#8808579552CC0500
(1493216779.483981) can0 1FD#0000000000000000
(1493216779.493979) can0 30B#0000010000000080
(1493216779.540333) can0 187#E962CE6C
(1493216779.543865) can0 6C7#04010408040000
(1493216779.544118) can0 1FD#0000000000000000
(1493216779.544505) can0 30B#0000010000000080
(1493216779.544629) can0 5F2#4D00
(1493216779.593981) can0 30B#0000010000000080
(1493216779.596106) can0 1BFC38B1#0000000000000000
(1493216779.596490) can0 1BFC38BB#FFFFFFFFFFFFFFFF
(1493216779.596725) can0 1BFC38BA#535553500000001A
(1493216779.597097) can0 1BFC38B9#030296408005A3F4
(1493216779.597345) can0 1BFC38B8#0000000800000000
(1493216779.597739) can0 1BFC38B7#80016484250202C2
(1493216779.597971) can0 1BFC38B6#0000007C00000000
(1493216779.598364) can0 1BFC38B5#0502FF0002020000
(1493216779.598614) can0 1BFC38B4#FF00000000000000
(1493216779.598977) can0 1BFC38B3#8001648431005544
(1493216779.599205) can0 1BFC38B2#800164848383807C
(1493216779.604260) can0 1FD#0000000000000000
(1493216779.644012) can0 30B#0000010000000080
(1493216779.663966) can0 1FD#0000000000000000
(1493216779.693973) can0 30B#0000010000000080
(1493216779.723994) can0 1FD#0000000000000000
(1493216779.740600) can0 4FC#D101
(1493216779.743850) can0 6C7#04010408040000
(1493216779.744226) can0 30B#0000010000000080
(1493216779.744344) can0 5F2#4D00
(1493216779.783974) can0 1FD#0000000000000000
(1493216779.793977) can0 30B#0000010000000080
(1493216779.843980) can0 1FD#0000000000000000
(1493216779.844214) can0 30B#0000010000000080
(1493216779.847224) can0 1BFC38B1#0000000000000000
(1493216779.847599) can0 1BFC38BB#FFFFFFFFFFFFFFFF
(1493216779.847863) can0 1BFC38BA#535553500000001A
(1493216779.848226) can0 1BFC38B9#030296408005A3F4
(1493216779.848491) can0 1BFC38B8#0000000800000000
(1493216779.848852) can0 1BFC38B7#80016484250202C2
(1493216779.849099) can0 1BFC38B6#0000007E000034A8
(1493216779.849491) can0 1BFC38B5#0502FF0002020000
(1493216779.849734) can0 1BFC38B4#FF00000000000000
(1493216779.850111) can0 1BFC38B3#8001648431005544
(1493216779.850333) can0 1BFC38B2#800164848383807C
(1493216779.893936) can0 30B#0000010000000080
(1493216779.904185) can0 1FD#0000000000000000
(1493216779.940753) can0 43C#E0A7E2755DFB4877
(1493216779.943837) can0 6C7#04010408040000
(1493216779.944230) can0 30B#0000010000000080
(1493216779.944232) can0 5F2#4D00
(1493216779.944602) can0 643#000200
(1493216779.944825) can0 64E#0000000000000000
(1493216779.945072) can0 65E#880845813C3E0400
(1493216779.945321) can0 6B8#6D08000000000000
(1493216779.945580) can0 6BC#AA838B51324C0700
(1493216779.954337) can0 630#33C203000F000403
(1493216779.954553) can0 62D#3482030012000300
(1493216779.954865) can0 631#34C2030013000301
(1493216779.963992) can0 1FD#0000000000000000
(1493216779.993981) can0 30B#0000010000000080
(1493216780.004261) can0 6B7#BEB4F00A08FF80FE
(1493216780.023988) can0 1FD#0000000000000000
(1493216780.043979) can0 30B#0000010000000080
(1493216780.084011) can0 1FD#0000000000000000
(1493216780.093982) can0 30B#0000010000000080
(1493216780.096055) can0 1BFC38B1#0000000000000000
(1493216780.096462) can0 1BFC38BB#FFFFFFFFFFFFFFFF
(1493216780.096714) can0 1BFC38BA#535553500000001A
(1493216780.097094) can0 1BFC38B9#040096408008FC68
(1493216780.097335) can0 1BFC38B8#0000000800000000
(1493216780.097710) can0 1BFC38B7#80078F60250202FD
(1493216780.097984) can0 1BFC38B6#0000008100000000
(1493216780.098360) can0 1BFC38B5#0502FF0002020000
(1493216780.098699) can0 1BFC38B4#FF00000000000000
(1493216780.098955) can0 1BFC38B3#8001648431005544
(1493216780.099324) can0 1BFC38B2#800164848383807C
(1493216780.141025) can0 132#C37D1E1621894424
(1493216780.143855) can0 6C7#04010408040000
(1493216780.144228) can0 1FD#0000000000000000
(1493216780.144457) can0 30B#0000010000000080
(1493216780.144592) can0 5F2#4D00
(1493216780.193937) can0 30B#0000010000000080
(1493216780.204223) can0 1FD#0000000000000000
(1493216780.204431) can0 6B6#390C1C000B28
(1493216780.243984) can0 30B#0000010000000080
(1493216780.264107) can0 1FD#0000000000000000
(1493216780.294022) can0 30B#0000010000000080
(1493216780.324004) can0 1FD#0000000000000000
(1493216780.341119) can0 4E0#8237C66C67C7DC63
(1493216780.343858) can0 6C7#04010408040000
(1493216780.344251) can0 30B#0000010000000080
(1493216780.344367) can0 5F2#4F00
(1493216780.347384) can0 1BFC38B1#0000000000000000
(1493216780.347646) can0 1BFC38BB#FFFFFFFFFFFFFFFF
(1493216780.348008) can0 1BFC38BA#0000000700000014
(1493216780.348235) can0 1BFC38B9#040096408008FC68
(1493216780.348611) can0 1BFC38B8#0000000800000000
(1493216780.348854) can0 1BFC38B7#80078F60250202FD
(1493216780.349235) can0 1BFC38B6#0000008300000000
(1493216780.349613) can0 1BFC38B5#0502FF0002020000
(1493216780.349812) can0 1BFC38B4#FF00000000000000
(1493216780.350090) can0 1BFC38B3#8001648431005544
(1493216780.350493) can0 1BFC38B2#800164848383807C
(1493216780.364992) can0 62F#4451000B29
(1493216780.384004) can0 1FD#0000000000000000
(1493216780.394131) can0 30B#0000010000000080
(1493216780.443981) can0 1FD#0000000000000000
(1493216780.444218) can0 30B#0000010000000080
(1493216780.444601) can0 65E#88087B726E0E0600
(1493216780.493978) can0 30B#0000010000000080
(1493216780.504264) can0 1FD#0000000000000000
(1493216780.541231) can0 34F#FBC0FF4F4FCC3A6A
(1493216780.543863) can0 6C7#04010408040000
(1493216780.544227) can0 30B#0000010000000080
(1493216780.544338) can0 5F2#4F00
(1493216780.564111) can0 1FD#0000000000000000
(1493216780.593979) can0 30B#0000010000000080
(1493216780.596107) can0 1BFC38B1#0000000000000000
(1493216780.596476) can0 1BFC38BB#FFFFFFFFFFFFFFFF
(1493216780.596871) can0 1BFC38BA#0000000700000014
(1493216780.597104) can0 1BFC38B9#040096408008FC68
(1493216780.597494) can0 1BFC38B8#0000000800000000
(1493216780.597705) can0 1BFC38B7#80078F60250202FD
(1493216780.598091) can0 1BFC38B6#0000008600000000
(1493216780.598334) can0 1BFC38B5#0502FF0002020000
(1493216780.598710) can0 1BFC38B4#FF00000000000000
(1493216780.598931) can0 1BFC38B3#8001648431007766
(1493216780.599363) can0 1BFC38B2#80016484838300F1
(1493216780.624012) can0 1FD#0000000000000000
(1493216780.643978) can0 30B#0000010000000080
(1493216780.684013) can0 1FD#0000000000000000
(1493216780.693979) can0 30B#0000010000000080
(1493216780.741492) can0 370#
(1493216780.743887) can0 6C7#04010408040000
(1493216780.744211) can0 1FD#0000000000000000
(1493216780.744597) can0 30B#0000010000000080
(1493216780.744600) can0 5F2#4F00
(1493216780.793985) can0 30B#0000010000000080
(1493216780.804270) can0 1FD#0000000000000000
(1493216780.843991) can0 30B#0000010000000080
(1493216780.847234) can0 1BFC38B1#0000000000000000
(1493216780.847643) can0 1BFC38BB#FFFFFFFFFFFFFFFF
(1493216780.847845) can0 1BFC38BA#0000000700000014
(1493216780.848105) can0 1BFC38B9#040096408008FC68
(1493216780.848477) can0 1BFC38B8#0000000800000000
(1493216780.848729) can0 1BFC38B7#80078F60250202FD
(1493216780.849103) can0 1BFC38B6#0000008802020000
(1493216780.849470) can0 1BFC38B5#0502FF0002020000
(1493216780.849721) can0 1BFC38B4#FF00000000000000
(1493216780.850107) can0 1BFC38B3#8001648431007766
(1493216780.850381) can0 1BFC38B2#80016484838300F1
(1493216780.865713) can0 1FD#0000000000000000
(1493216780.893982) can0 30B#0000010000000080
(1493216780.924130) can0 1FD#0000000000000000
(1493216780.941604) can0 236#B87DDA19BE53E570
(1493216780.944012) can0 6C7#04010408040000
(1493216780.944224) can0 30B#0000010000000080
(1493216780.944358) can0 5F2#4F00
(1493216780.944634) can0 643#000200
(1493216780.944803) can0 64E#0000000000000000
(1493216780.945052) can0 65E#8808CF73666E0400
(1493216780.945480) can0 6B8#6D08000000000000
(1493216780.945730) can0 6BC#AA838B51324C0700
(1493216780.983983) can0 1FD#0000000000000000
(1493216780.993979) can0 30B#0000010000000080
(1493216781.004388) can0 6B7#BEB4F00A08FF80FE
(1493216781.044008) can0 1FD#0000000000000000
(1493216781.044197) can0 30B#0000010000000080
(1493216781.093991) can0 30B#0000010000000080
(1493216781.096238) can0 1BFC38B1#0000000000000000
(1493216781.096622) can0 1BFC38BB#FFFFFFFFFFFFFFFF
(1493216781.096841) can0 1BFC38BA#0000000700000014
(1493216781.097111) can0 1BFC38B9#050296408005A3F4
(1493216781.097480) can0 1BFC38B8#0000000800000000
(1493216781.097883) can0 1BFC38B7#8001648425020239
(1493216781.098055) can0 1BFC38B6#0000008B00000000
(1493216781.098513) can0 1BFC38B5#0502FF0002020000
(1493216781.098706) can0 1BFC38B4#FF00000000000000
(1493216781.099077) can0 1BFC38B3#8001648431007766
(1493216781.099369) can0 1BFC38B2#80016484838300F1
(1493216781.104367) can0 1FD#0000000000000000
(1493216781.141900) can0 2C0#4B2C
(1493216781.144013) can0 6C7#04010408040000
(1493216781.144230) can0 30B#0000010000000080
(1493216781.144356) can0 5F2#4F00
(1493216781.164235) can0 1FD#0000000000000000
(1493216781.193986) can0 30B#0000010000000080
(1493216781.204262) can0 6B6#390C1C000B29
(1493216781.223986) can0 1FD#0000000000000000
(1493216781.243986) can0 30B#0000010000000080
(1493216781.283984) can0 1FD#0000000000000000
(1493216781.293983) can0 30B#0000010000000080
(1493216781.342145) can0 504#B148D70440496257
(1493216781.343980) can0 6C7#04010408040000
(1493216781.344231) can0 1FD#0000000000000000
(1493216781.344605) can0 30B#0000010000000080
(1493216781.344607) can0 5F2#4F00
(1493216781.347350) can0 1BFC38B1#0000000000000000
(1493216781.347729) can0 1BFC38B9#050296408005A3F4
(1493216781.347983) can0 1BFC38BA#535553500000001A
(1493216781.348369) can0 1BFC38B8#0000000800000000
(1493216781.348598) can0 1BFC38B7#8001648425020239
(1493216781.348961) can0 1BFC38B6#0000008D00000000
(1493216781.349214) can0 1BFC38B5#0502FF0002020000
(1493216781.349619) can0 1BFC38B4#FF00000000000000
(1493216781.349985) can0 1BFC38B3#8001648431007766
(1493216781.350245) can0 1BFC38B2#80016484838300F1
(1493216781.350637) can0 1BFC38BB#FFFFFFFFFFFFFFFF
(1493216781.365113) can0 62F#4451000B2A
(1493216781.394106) can0 30B#0000010000000080
(1493216781.404366) can0 1FD#0000000000000000
(1493216781.444009) can0 30B#0000010000000080
(1493216781.444384) can0 65E#8808AD03B7200700
(1493216781.464102) can0 1FD#0000000000000000
(1493216781.493994) can0 30B#0000010000000080
(1493216781.524003) can0 1FD#0000000000000000
(1493216781.542312) can0 176#9E
(1493216781.543992) can0 6C7#04010408040000
(1493216781.544243) can0 30B#0000010000000080
(1493216781.544522) can0 5F2#5000
(1493216781.583998) can0 1FD#0000000000000000
(1493216781.594135) can0 30B#0000010000000080
(1493216781.596234) can0 1BFC38B1#0000000000000000
(1493216781.596644) can0 1BFC38BB#FFFFFFFFFFFFFFFF
(1493216781.596843) can0 1BFC38BA#535553500000001A
(1493216781.597102) can0 1BFC38B9#050296408005A3F4
(1493216781.597484) can0 1BFC38B8#0000000800000000
(1493216781.597853) can0 1BFC38B7#8001648425020239
(1493216781.598098) can0 1BFC38B6#0000009000000000
(1493216781.598460) can0 1BFC38B5#0502FF0002020000
(1493216781.598731) can0 1BFC38B4#FF00000000000000
(1493216781.599078) can0 1BFC38B3#800164843240CCBB
(1493216781.599304) can0 1BFC38B2#8001648483838078
(1493216781.644027) can0 1FD#0000000000000000
(1493216781.644312) can0 30B#0000010000000080
(1493216781.693991) can0 30B#0000010000000080
(1493216781.704378) can0 1FD#0000000000000000
(1493216781.742371) can0 2BD#C9
(1493216781.743981) can0 6C7#04010408040000
(1493216781.744212) can0 30B#0000010000000080
(1493216781.744496) can0 5F2#5000
(1493216781.764255) can0 1FD#0000000000000000
(1493216781.793992) can0 30B#0000010000000080
(1493216781.824111) can0 1FD#0000000000000000
(1493216781.843990) can0 30B#0000010000000080
(1493216781.847235) can0 1BFC38B1#0000000000000000
(1493216781.847600) can0 1BFC38BB#FFFFFFFFFFFFFFFF
(1493216781.847846) can0 1BFC38BA#535553500000001A
(1493216781.848233) can0 1BFC38B9#050296408005A3F4
(1493216781.848608) can0 1BFC38B8#0000000800000000
(1493216781.848857) can0 1BFC38B7#8001648425020239
(1493216781.849108) can0 1BFC38B6#00000092000034A8
(1493216781.849478) can0 1BFC38B5#0502FF0002020000
(1493216781.849867) can0 1BFC38B4#FF00000000000000
(1493216781.850123) can0 1BFC38B3#800164843240CCBB
(1493216781.850364) can0 1BFC38B2#8001648483838078
(1493216781.884142) can0 1FD#0000000000000000
(1493216781.894138) can0 30B#0000010000000080
(1493216781.942618) can0 079#0577092BC85B2509
(1493216781.943985) can0 6C7#04010408040000
(1493216781.944221) can0 1FD#0000000000000000
(1493216781.944602) can0 30B#0000010000000080
(1493216781.944722) can0 5F2#5000
(1493216781.944949) can0 643#000200
(1493216781.945229) can0 64E#0000000000000000
(1493216781.945481) can0 65E#880875B2639D0300
(1493216781.945725) can0 6B8#6D08000000000000
(1493216781.946059) can0 6BC#AA838B51324C0700
(1493216781.954369) can0 630#33C37803E0080272
(1493216781.954701) can0 631#34C37807FE000000
(1493216781.955003) can0 62D#34837801F8000000
(1493216781.994111) can0 30B#0000010000000080
(1493216782.004485) can0 1FD#0000000000000000
(1493216782.004722) can0 6B7#BEB4F00A08FF80FE
(1493216782.044111) can0 30B#0000010000000080
(1493216782.064091) can0 1FD#0000000000000000
(1493216782.094145) can0 30B#0000010000000080
(1493216782.096362) can0 1BFC38B1#0000000000000000
(1493216782.096605) can0 1BFC38BB#FFFFFFFFFFFFFFFF
(1493216782.096975) can0 1BFC38BA#535553500000001A
(1493216782.097228) can0 1BFC38B9#060096408008FC68
(1493216782.097619) can0 1BFC38B8#0000000800000000
(1493216782.097825) can0 1BFC38B7#8001648425020275
(1493216782.098198) can0 1BFC38B6#0000009500000000
(1493216782.098569) can0 1BFC38B5#0502FF0002020000
(1493216782.098836) can0 1BFC38B4#FF00000000000000
(1493216782.099056) can0 1BFC38B3#800164843240CCBB
(1493216782.099485) can0 1BFC38B2#8001648483838078
(1493216782.124166) can0 1FD#0000000000000000
(1493216782.142778) can0 51B#
(1493216782.144114) can0 30B#0000010000000080
(1493216782.144237) can0 5F2#5000
(1493216782.184110) can0 1FD#0000000000000000
(1493216782.194136) can0 30B#0000010000000080
(1493216782.204371) can0 6B6#390C1C000B2A
(1493216782.244139) can0 1FD#0000000000000000
(1493216782.244347) can0 30B#0000010000000080
(1493216782.294135) can0 30B#0000010000000080
(1493216782.304361) can0 1FD#0000000000000000
(1493216782.342871) can0 7C0#B6457953F7
(1493216782.344122) can0 30B#0000010000000080
(1493216782.344170) can0 5F2#5000
(1493216782.347356) can0 1BFC38B1#0000000000000000
(1493216782.347740) can0 1BFC38B9#060096408008FC68
(1493216782.347970) can0 1BFC38BA#0000000700000014
(1493216782.348357) can0 1BFC38B8#0000000800000000
(1493216782.348733) can0 1BFC38B7#8001648425020275
(1493216782.348976) can0 1BFC38B6#0000009700000000
(1493216782.349366) can0 1BFC38B5#0502FF0002020000
(1493216782.349623) can0 1BFC38B4#FF00000000000000
(1493216782.350010) can0 1BFC38B3#800164843240CCBB
(1493216782.350186) can0 1BFC38B2#8001648483838078
(1493216782.350588) can0 1BFC38BB#FFFFFFFFFFFFFFFF
(1493216782.364127) can0 1FD#0000000000000000
(1493216782.365493) can0 62F#4451000B2B
(1493216782.394234) can0 30B#0000010000000080
(1493216782.424110) can0 1FD#0000000000000000
(1493216782.444123) can0 30B#0000010000000080
(1493216782.444348) can0 65E#88081BE483A80400
(1493216782.484117) can0 1FD#0000000000000000
(1493216782.494115) can0 30B#0000010000000080
(1493216782.543188) can0 5B1#B50D995472D89C45
(1493216782.544107) can0 1FD#0000000000000000
(1493216782.544360) can0 30B#0000010000000080
(1493216782.544606) can0 5F2#5000
(1493216782.594109) can0 30B#0000010000000080
(1493216782.596363) can0 1BFC38B1#0000000000000000
(1493216782.596609) can0 1BFC38BB#FFFFFFFFFFFFFFFF
(1493216782.596980) can0 1BFC38BA#0000000700000014
(1493216782.597233) can0 1BFC38B9#060096408008FC68
(1493216782.597624) can0 1BFC38B8#0000000800000000
(1493216782.597859) can0 1BFC38B7#8001648425020275
(1493216782.598248) can0 1BFC38B6#0000009A00000000
(1493216782.598609) can0 1BFC38B5#0502FF0002020000
(1493216782.598858) can0 1BFC38B4#FF00000000000000
(1493216782.599256) can0 1BFC38B3#8001648431001100
(1493216782.599620) can0 1BFC38B2#800164848383807E
(1493216782.604515) can0 1FD#0000000000000000
(1493216782.644116) can0 30B#0000010000000080
(1493216782.664269) can0 1FD#0000000000000000
(1493216782.694110) can0 30B#0000010000000080
(1493216782.724113) can0 1FD#0000000000000000
(1493216782.743284) can0 410#
(1493216782.744106) can0 30B#0000010000000080
(1493216782.744220) can0 5F2#5000
(1493216782.784122) can0 1FD#0000000000000000
(1493216782.794058) can0 30B#0000010000000080
(1493216782.844116) can0 1FD#0000000000000000
(1493216782.844346) can0 30B#0000010000000080
(1493216782.847636) can0 1BFC38B1#0000000000000000
(1493216782.847852) can0 1BFC38BA#0000000700000014
(1493216782.848114) can0 1BFC38BB#FFFFFFFFFFFFFFFF
(1493216782.848481) can0 1BFC38B9#060096408008FC68
(1493216782.848735) can0 1BFC38B8#0000000800000000
(1493216782.849109) can0 1BFC38B7#8001648425020275
(1493216782.849484) can0 1BFC38B6#0000009C02020000
(1493216782.849735) can0 1BFC38B5#0502FF0002020000
(1493216782.850108) can0 1BFC38B4#FF00000000000000
(1493216782.850360) can0 1BFC38B3#8001648431001100
(1493216782.850732) can0 1BFC38B2#800164848383807E
(1493216782.894236) can0 30B#0000010000000080
(1493216782.904487) can0 1FD#0000000000000000
(1493216782.943497) can0 01C#55F2C07F9349AB54
(1493216783.143784) can0 170#3BC4FA
(1493216783.343894) can0 154#CC83A438CE
(1493216783.544159) can0 351#96
(1493216783.744105) can0 2D1#F8D8FF3B920A3A13
(1493216783.756023) can0 6C7#01010408040000
(1493216783.756207) can0 1FD#0000000000000000
(1493216783.756624) can0 30B#0000000000000080
(1493216783.756733) can0 5F2#0000
(1493216783.756833) can0 643#000200
(1493216783.757251) can0 64E#0000000000000000
(1493216783.757456) can0 65E#0000000000000000
(1493216783.757717) can0 6B8#6D08000000000000
(1493216783.758096) can0 6BC#0000000000000000
(1493216783.762123) can0 630#40000013
(1493216783.766265) can0 630#03C203000F000403
(1493216783.766640) can0 631#04C2030013000301
(1493216783.766833) can0 62D#0482030012000300
(1493216783.767134) can0 62F#0442030011000400
(1493216783.774249) can0 6B7#BEB4000B080080FE
(1493216783.804488) can0 30B#0000000000000080
(1493216783.814402) can0 1FD#0000000000000000
(1493216783.855365) can0 30B#0000000000000080
(1493216783.874114) can0 1FD#0000000000000000
(1493216783.904470) can0 30B#0000010000000080
(1493216783.934388) can0 1FD#0000000000000000
(1493216783.944376) can0 464#89C4ED761502D028
(1493216783.947264) can0 1BFC38B1#0000000000000000
(1493216783.947642) can0 1BFC38BB#FFFFFFFFFFFFFFFF
(1493216783.947811) can0 1BFC38BA#535553500000001A
(1493216783.948197) can0 1BFC38B9#070296408005A3F4
(1493216783.948575) can0 1BFC38B8#0000000800000000
(1493216783.948857) can0 1BFC38B7#80016484250202ED
(1493216783.949070) can0 1BFC38B6#000000A7000034A8
(1493216783.949461) can0 1BFC38B5#0502FF0002020000
(1493216783.949838) can0 1BFC38B4#FF00000000000000
(1493216783.950082) can0 1BFC38B3#8001648431003322
(1493216783.950462) can0 1BFC38B2#80016484838300C3
(1493216783.954147) can0 6C7#01010408040000
(1493216783.954537) can0 30B#0000010000000080
(1493216783.954540) can0 5F2#4500
(1493216783.994117) can0 1FD#0000000000000000
(1493216784.004519) can0 30B#0000010000000080
(1493216784.055407) can0 1FD#0000000000000000
(1493216784.055618) can0 30B#0000010000000080
(1493216784.104521) can0 30B#0000010000000080
(1493216784.114361) can0 1FD#0000000000000000
(1493216784.144638) can0 21C#87DA6C6E2D86C970
(1493216784.155377) can0 6C7#01010408040000
(1493216784.155560) can0 30B#0000010000000080
(1493216784.155822) can0 5F2#4400
(1493216784.174125) can0 1FD#0000000000000000
(1493216784.196365) can0 1BFC38B1#0000000000000000
(1493216784.196703) can0 1BFC38BB#FFFFFFFFFFFFFFFF
(1493216784.196941) can0 1BFC38BA#0000000700000014
(1493216784.197229) can0 1BFC38B9#000096408008FC68
(1493216784.197561) can0 1BFC38B8#0000000800000000
(1493216784.197964) can0 1BFC38B7#80016484250202ED
(1493216784.198256) can0 1BFC38B6#000000AA8008FC68
(1493216784.198611) can0 1BFC38B5#0502FF0002020000
(1493216784.198863) can0 1BFC38B4#FF00000000000000
(1493216784.199235) can0 1BFC38B3#8001648431003322
(1493216784.199613) can0 1BFC38B2#80016484838300C3
(1493216784.204490) can0 30B#0000010000000080
(1493216784.234374) can0 1FD#0000000000000000
(1493216784.255381) can0 30B#0000010000000080
(1493216784.255580) can0 65E#8808E3D05EC10200
(1493216784.294241) can0 1FD#0000000000000000
(1493216784.304495) can0 30B#0000010000000080
(1493216784.344792) can0 43E#412F28195A74
(1493216784.355394) can0 6C7#01010408040000
(1493216784.355771) can0 1FD#0000000000000000
(1493216784.355992) can0 30B#0000010000000080
(1493216784.356113) can0 5F2#4400
(1493216784.366367) can0 6B6#390C1C000B2D
(1493216784.366890) can0 62F#4451000B2D
(1493216784.404495) can0 30B#0000010000000080
(1493216784.414381) can0 1FD#0000000000000000
(1493216784.447242) can0 1BFC38B1#0000000000000000
(1493216784.447614) can0 1BFC38BB#FFFFFFFFFFFFFFFF
(1493216784.448029) can0 1BFC38BA#0000000700000014
(1493216784.448230) can0 1BFC38B9#000096408008FC68
(1493216784.448614) can0 1BFC38B8#0000000800000000
(1493216784.448889) can0 1BFC38B7#80016484250202ED
(1493216784.449235) can0 1BFC38B6#000000AC8383801A
(1493216784.449608) can0 1BFC38B5#0502FF0002020000
(1493216784.449878) can0 1BFC38B4#FF00000000000000
(1493216784.450111) can0 1BFC38B3#8001648431003322
(1493216784.450503) can0 1BFC38B2#800164848383801A
(1493216784.455852) can0 30B#0000010000000080
(1493216784.474250) can0 1FD#0000000000000000
(1493216784.504493) can0 30B#0000010000000080
(1493216784.534364) can0 1FD#0000000000000000
(1493216784.544876) can0 395#EDBD8A2E0685
(1493216784.555380) can0 6C7#01010408040000
(1493216784.555758) can0 30B#0000010000000080
(1493216784.555920) can0 5F2#4400
(1493216784.594244) can0 1FD#0000000000000000
(1493216784.604492) can0 30B#0000010000000080
(1493216784.655519) can0 1FD#0000000000000000
(1493216784.655696) can0 30B#0000010000000080
(1493216784.696366) can0 1BFC38B1#0000000000000000
(1493216784.696695) can0 1BFC38BB#FFFFFFFFFFFFFFFF
(1493216784.696991) can0 1BFC38BA#0000000700000014
(1493216784.697365) can0 1BFC38B9#000096408008FC68
(1493216784.697613) can0 1BFC38B8#0000000800000000
(1493216784.697984) can0 1BFC38B7#80016484250202ED
(1493216784.698239) can0 1BFC38B6#000000AF02020000
(1493216784.698614) can0 1BFC38B5#0502FF0002020000
(1493216784.699002) can0 1BFC38B4#FF00000000000000
(1493216784.699227) can0 1BFC38B3#8001648432408877
(1493216784.699622) can0 1BFC38B2#800164848383801A
(1493216784.704473) can0 30B#0000010000000080
(1493216784.714395) can0 1FD#0000000000000000
(1493216784.745164) can0 089#3459E32BDE518B1A
(1493216784.755391) can0 6C7#04010408040000
(1493216784.755756) can0 30B#0000010000000080
(1493216784.755850) can0 5F2#4500
(1493216784.756114) can0 643#000200
(1493216784.756367) can0 64E#0000000000000000
(1493216784.756614) can0 65E#8808009482410500
(1493216784.756865) can0 6B8#6D08000000000000
(1493216784.757239) can0 6BC#AA838B51324C0700
(1493216784.774253) can0 1FD#0000000000000000
(1493216784.774462) can0 6B7#BEB4000B08FF80FE
(1493216784.804492) can0 30B#0000010000000080
(1493216784.834366) can0 1FD#0000000000000000
(1493216784.855384) can0 30B#0000010000000080
(1493216784.894249) can0 1FD#0000000000000000
(1493216784.904507) can0 30B#0000010000000080
(1493216784.945296) can0 22E#
(1493216784.947386) can0 1BFC38B1#0000000000000000
(1493216784.947568) can0 1BFC38BB#FFFFFFFFFFFFFFFF
(1493216784.948020) can0 1BFC38BA#0000000700000014
(1493216784.948423) can0 1BFC38B9#000096408008FC68
(1493216784.948609) can0 1BFC38B8#0000000800000000
(1493216784.949023) can0 1BFC38B7#8001648425020229
(1493216784.949241) can0 1BFC38B6#000000B102020000
(1493216784.949593) can0 1BFC38B5#0502FF0002020000
(1493216784.949842) can0 1BFC38B4#FF00000000000000
(1493216784.950220) can0 1BFC38B3#8001648432408877
(1493216784.950595) can0 1BFC38B2#800164848383801A
(1493216784.954246) can0 6C7#04010408040000
(1493216784.954533) can0 1FD#0000000000000000
(1493216784.954747) can0 30B#0000010000000080
(1493216784.955038) can0 5F2#4600
(1493216785.004524) can0 30B#0000010000000080
(1493216785.014488) can0 1FD#0000000000000000
(1493216785.055493) can0 30B#0000010000000080
(1493216785.074264) can0 1FD#0000000000000000
(1493216785.104492) can0 30B#0000010000000080
(1493216785.134370) can0 1FD#0000000000000000
(1493216785.145371) can0 7D1#EB35
(1493216785.155501) can0 6C7#04010408040000
(1493216785.155716) can0 30B#0000010000000080
(1493216785.155832) can0 5F2#4700
(1493216785.194241) can0 1FD#0000000000000000
(1493216785.196368) can0 1BFC38B1#0000000000000000
(1493216785.196739) can0 1BFC38BB#FFFFFFFFFFFFFFFF
(1493216785.197155) can0 1BFC38BA#535553500000001A
(1493216785.197331) can0 1BFC38B9#010296408005A3F4
(1493216785.197723) can0 1BFC38B8#0000000800000000
(1493216785.197980) can0 1BFC38B7#8001648425020229
(1493216785.198347) can0 1BFC38B6#000000B48005A3F4
(1493216785.198594) can0 1BFC38B5#0502FF0002020000
(1493216785.198943) can0 1BFC38B4#FF00000000000000
(1493216785.199251) can0 1BFC38B3#8001648432408877
(1493216785.199637) can0 1BFC38B2#800164848383801A
(1493216785.204650) can0 30B#0000010000000080
(1493216785.255512) can0 1FD#0000000000000000
(1493216785.255708) can0 30B#0000010000000080
(1493216785.256001) can0 65E#88083EC366650800
(1493216785.304502) can0 30B#0000010000000080
(1493216785.314515) can0 1FD#0000000000000000
(1493216785.345632) can0 6F1#341527
(1493216785.355500) can0 6C7#04010408040000
(1493216785.355689) can0 30B#0000010000000080
(1493216785.355816) can0 5F2#4800
(1493216785.366241) can0 6B6#390C1C000B2E
(1493216785.366950) can0 62F#4451000B2E
(1493216785.374280) can0 1FD#0000000000000000
(1493216785.404496) can0 30B#0000010000000080
(1493216785.434397) can0 1FD#0000000000000000
(1493216785.447395) can0 1BFC38B1#0000000000000000
(1493216785.447608) can0 1BFC38BB#FFFFFFFFFFFFFFFF
(1493216785.447991) can0 1BFC38BA#535553500000001A
(1493216785.448234) can0 1BFC38B9#010296408005A3F4
(1493216785.448616) can0 1BFC38B8#0000000800000000
(1493216785.448990) can0 1BFC38B7#8001648425020229
(1493216785.449241) can0 1BFC38B6#000000B683838070
(1493216785.449615) can0 1BFC38B5#0502FF0002020000
(1493216785.449866) can0 1BFC38B4#FF00000000000000
(1493216785.450241) can0 1BFC38B3#8001648432408877
(1493216785.450626) can0 1BFC38B2#8001648483838070
(1493216785.456006) can0 30B#0000010000000080
(1493216785.494252) can0 1FD#0000000000000000
(1493216785.504620) can0 30B#0000010000000080
(1493216785.545620) can0 591#6A85C103AE0FF407
(1493216785.555505) can0 6C7#04010408040000
(1493216785.555742) can0 1FD#0000000000000000
(1493216785.555998) can0 30B#0000010000000080
(1493216785.556289) can0 5F2#4A00
(1493216785.604601) can0 30B#0000010000000080
(1493216785.614506) can0 1FD#0000000000000000
(1493216785.655536) can0 30B#0000010000000080
(1493216785.674200) can0 1FD#0000000000000000
(1493216785.696481) can0 1BFC38B1#0000000000000000
(1493216785.696738) can0 1BFC38BB#FFFFFFFFFFFFFFFF
(1493216785.697102) can0 1BFC38BA#535553500000001A
(1493216785.697326) can0 1BFC38B9#010296408005A3F4
(1493216785.697708) can0 1BFC38B8#0000000800000000
(1493216785.697950) can0 1BFC38B7#8001648425020229
(1493216785.698327) can0 1BFC38B6#000000B9000034A8
(1493216785.698580) can0 1BFC38B5#0502FF0002020000
(1493216785.698941) can0 1BFC38B4#FF00000000000000
(1493216785.699193) can0 1BFC38B3#800164843100DDCC
(1493216785.699580) can0 1BFC38B2#8001648483838070
(1493216785.704583) can0 30B#0000010000000080
(1493216785.734391) can0 1FD#0000000000000000
(1493216785.755378) can0 6C7#04010408040000
(1493216785.755727) can0 30B#0000010000000080
(1493216785.755823) can0 5F2#4B00
(1493216785.756140) can0 630#33C203000F000403
(1493216785.756516) can0 62D#3482030012000300
(1493216785.756742) can0 631#34C2030013000301
(1493216785.756873) can0 643#000200
(1493216785.757275) can0 64E#0000000000000000
(1493216785.757512) can0 65E#8808E6426BC00500
(1493216785.757759) can0 6B8#6D08000000000000
(1493216785.757988) can0 6BC#AA838B51324C0700
(1493216785.774261) can0 6B7#BEB4000B08FF80FE
(1493216785.794251) can0 1FD#0000000000000000
(1493216785.804620) can0 30B#0000010000000080
(1493216785.855492) can0 1FD#0000000000000000
(1493216785.855729) can0 30B#0000010000000080
(1493216785.904626) can0 30B#0000010000000080
(1493216785.914526) can0 1FD#0000000000000000
(1493216785.947381) can0 1BFC38B1#0000000000000000
(1493216785.947744) can0 1BFC38BB#FFFFFFFFFFFFFFFF
(1493216785.947982) can0 1BFC38BA#535553500000001A
(1493216785.948384) can0 1BFC38B9#010296408005A3F4
(1493216785.948618) can0 1BFC38B8#0000000800000000
(1493216785.948993) can0 1BFC38B7#8001648425020265
(1493216785.949235) can0 1BFC38B6#000000BB000034A8
(1493216785.949614) can0 1BFC38B5#0502FF0002020000
(1493216785.949863) can0 1BFC38B4#FF00000000000000
(1493216785.950241) can0 1BFC38B3#800164843100DDCC
(1493216785.950628) can0 1BFC38B2#8001648483838070
(1493216785.955877) can0 6C7#04010408040000
(1493216785.956249) can0 30B#0000010000000080
(1493216785.956374) can0 5F2#4D00
(1493216785.974277) can0 1FD#0000000000000000
(1493216786.004621) can0 30B#0000010000000080
(1493216786.034378) can0 1FD#0000000000000000
(1493216786.055525) can0 30B#0000010000000080
(1493216786.094276) can0 1FD#0000000000000000
(1493216786.104621) can0 30B#0000010000000080
(1493216786.155496) can0 6C7#04010408040000
(1493216786.155738) can0 1FD#0000000000000000
(1493216786.155982) can0 30B#0000010000000080
(1493216786.156211) can0 5F2#4D00
(1493216786.196497) can0 1BFC38B1#0000000000000000
(1493216786.196732) can0 1BFC38BB#FFFFFFFFFFFFFFFF
(1493216786.197146) can0 1BFC38BA#0000000700000014
(1493216786.197487) can0 1BFC38B9#020096408008FC68
(1493216786.197754) can0 1BFC38B8#0000000800000000
(1493216786.198136) can0 1BFC38B7#8001648425020265
(1493216786.198319) can0 1BFC38B6#000000BE8008FC68
(1493216786.198753) can0 1BFC38B5#0502FF0002020000
(1493216786.199062) can0 1BFC38B4#FF00000000000000
(1493216786.199367) can0 1BFC38B3#800164843100DDCC
(1493216786.199568) can0 1BFC38B2#8001648483838070
(1493216786.204632) can0 30B#0000010000000080
(1493216786.214510) can0 1FD#0000000000000000
(1493216786.255495) can0 30B#0000010000000080
(1493216786.255747) can0 65E#8808878432B90B00
(1493216786.274244) can0 1FD#0000000000000000
(1493216786.304624) can0 30B#0000010000000080
(1493216786.334383) can0 1FD#0000000000000000
(1493216786.355479) can0 6C7#04010408040000
(1493216786.355725) can0 30B#0000010000000080
(1493216786.355840) can0 5F2#4F00
(1493216786.365693) can0 6B6#390C1C000B2F
(1493216786.366502) can0 62F#4451000B2F
(1493216786.394247) can0 1FD#0000000000000000
(1493216786.404621) can0 30B#0000010000000080
(1493216786.447379) can0 1BFC38B1#0000000000000000
(1493216786.447746) can0 1BFC38BB#FFFFFFFFFFFFFFFF
(1493216786.447986) can0 1BFC38BA#0000000700000014
(1493216786.448365) can0 1BFC38B9#020096408008FC68
(1493216786.448617) can0 1BFC38B8#0000000800000000
(1493216786.448997) can0 1BFC38B7#8001648425020265
(1493216786.449316) can0 1BFC38B6#000000C0838300D5
(1493216786.449607) can0 1BFC38B5#0502FF0002020000
(1493216786.449978) can0 1BFC38B4#FF00000000000000
(1493216786.450227) can0 1BFC38B3#800164843100DDCC
(1493216786.450608) can0 1BFC38B2#80016484838300D5
(1493216786.456016) can0 1FD#0000000000000000
(1493216786.456195) can0 30B#0000010000000080
(1493216786.504664) can0 30B#0000010000000080
(1493216786.514496) can0 1FD#0000000000000000
(1493216786.555517) can0 6C7#04010408040000
(1493216786.555732) can0 30B#0000010000000080
(1493216786.555846) can0 5F2#5000
(1493216786.574353) can0 1FD#0000000000000000
(1493216786.604630) can0 30B#0000010000000080
(1493216786.634504) can0 1FD#0000000000000000
(1493216786.655501) can0 30B#0000010000000080
(1493216786.694281) can0 1FD#0000000000000000
(1493216786.696496) can0 1BFC38B1#0000000000000000
(1493216786.696872) can0 1BFC38BB#FFFFFFFFFFFFFFFF
(1493216786.697108) can0 1BFC38BA#0000000700000014
(1493216786.697494) can0 1BFC38B9#020096408008FC68
(1493216786.697739) can0 1BFC38B8#0000000800000000
(1493216786.698133) can0 1BFC38B7#8001648425020265
(1493216786.698368) can0 1BFC38B6#000000C302020000
(1493216786.698753) can0 1BFC38B5#0502FF0002020000
(1493216786.699007) can0 1BFC38B4#FF00000000000000
(1493216786.699367) can0 1BFC38B3#800164843100FFEE
(1493216786.699588) can0 1BFC38B2#80016484838300D5
(1493216786.704643) can0 30B#0000010000000080
(1493216786.755371) can0 6C7#04010408040000
(1493216786.755783) can0 1FD#0000000000000000
(1493216786.755997) can0 30B#0000010000000080
(1493216786.756109) can0 5F2#5200
(1493216786.756374) can0 643#000200
(1493216786.756621) can0 64E#0000000000000000
(1493216786.756994) can0 65E#8808A966A0F90700
(1493216786.757245) can0 6B8#6D08000000000000
(1493216786.757495) can0 6BC#AA838B51324C0700
(1493216786.774365) can0 6B7#BEB4000B08FF80FE
(1493216786.804653) can0 30B#0000010000000080
(1493216786.814620) can0 1FD#0000000000000000
(1493216786.855521) can0 30B#0000010000000080
(1493216786.874375) can0 1FD#0000000000000000
(1493216786.904572) can0 30B#0000010000000080
(1493216786.934541) can0 1FD#0000000000000000
(1493216786.947402) can0 1BFC38B1#0000000000000000
(1493216786.947753) can0 1BFC38BB#FFFFFFFFFFFFFFFF
(1493216786.948133) can0 1BFC38BA#0000000700000014
(1493216786.948363) can0 1BFC38B9#020096408008FC68
(1493216786.948773) can0 1BFC38B8#0000000800000000
(1493216786.948996) can0 1BFC38B7#80016484250202A1
(1493216786.949371) can0 1BFC38B6#000000C502020000
(1493216786.949624) can0 1BFC38B5#0502FF0002020000
(1493216786.949998) can0 1BFC38B4#FF00000000000000
(1493216786.950216) can0 1BFC38B3#800164843100FFEE
(1493216786.950601) can0 1BFC38B2#80016484838300D5
(1493216786.956012) can0 6C7#04010408040000
(1493216786.956223) can0 30B#0000010000000080
(1493216786.956370) can0 5F2#5200
(1493216786.994373) can0 1FD#0000000000000000
(1493216787.004655) can0 30B#0000010000000080
(1493216787.055636) can0 1FD#0000000000000000
(1493216787.055887) can0 30B#0000010000000080
(1493216787.104629) can0 30B#0000010000000080
(1493216787.114621) can0 1FD#0000000000000000
(1493216787.155509) can0 6C7#04010408040000
(1493216787.155703) can0 30B#0000010000000080
(1493216787.155820) can0 5F2#5400
(1493216787.174406) can0 1FD#0000000000000000
(1493216787.196586) can0 1BFC38B1#0000000000000000
(1493216787.196822) can0 1BFC38BB#FFFFFFFFFFFFFFFF
(1493216787.197077) can0 1BFC38BA#535553500000001A
(1493216787.197457) can0 1BFC38B9#030296408005A3F4
(1493216787.197694) can0 1BFC38B8#0000000800000000
(1493216787.198074) can0 1BFC38B7#80016484250202A1
(1493216787.198324) can0 1BFC38B6#000000C88005A3F4
(1493216787.198717) can0 1BFC38B5#0502FF0002020000
(1493216787.199078) can0 1BFC38B4#FF00000000000000
(1493216787.199359) can0 1BFC38B3#800164843100FFEE
(1493216787.199588) can0 1BFC38B2#80016484838300D5
(1493216787.204595) can0 30B#0000010000000080
(1493216787.234454) can0 1FD#0000000000000000
(1493216787.255637) can0 30B#0000010000000080
(1493216787.255743) can0 65E#8808DE728B6A0700
(1493216787.294389) can0 1FD#0000000000000000
(1493216787.304632) can0 30B#0000010000000080
(1493216787.355514) can0 6C7#04010408040000
(1493216787.355706) can0 1FD#0000000000000000
(1493216787.356176) can0 30B#0000010000000080
(1493216787.356374) can0 5F2#5400
(1493216787.366000) can0 6B6#390C1C000B30
(1493216787.366617) can0 62F#4451000B30
(1493216787.404623) can0 30B#0000010000000080
(1493216787.414622) can0 1FD#0000000000000000
(1493216787.447529) can0 1BFC38B1#0000000000000000
(1493216787.447734) can0 1BFC38BB#FFFFFFFFFFFFFFFF
(1493216787.448125) can0 1BFC38BA#535553500000001A
(1493216787.448371) can0 1BFC38B9#030296408005A3F4
(1493216787.448746) can0 1BFC38B8#0000000800000000
(1493216787.449113) can0 1BFC38B7#80016484250202A1
(1493216787.449363) can0 1BFC38B6#000000CA8383803C
(1493216787.449728) can0 1BFC38B5#0502FF0002020000
(1493216787.449977) can0 1BFC38B4#FF00000000000000
(1493216787.450351) can0 1BFC38B3#800164843100FFEE
(1493216787.450614) can0 1BFC38B2#800164848383803C
(1493216787.455989) can0 30B#0000010000000080
(1493216787.474383) can0 1FD#0000000000000000
(1493216787.504638) can0 30B#0000010000000080
(1493216787.534542) can0 1FD#0000000000000000
(1493216787.555511) can0 6C7#04010408040000
(1493216787.555735) can0 30B#0000010000000080
(1493216787.556022) can0 5F2#5600
(1493216787.594392) can0 1FD#0000000000000000
(1493216787.604640) can0 30B#0000010000000080
(1493216787.655623) can0 1FD#0000000000000000
(1493216787.655868) can0 30B#0000010000000080
(1493216787.696583) can0 1BFC38B1#0000000000000000
(1493216787.696818) can0 1BFC38BB#FFFFFFFFFFFFFFFF
(1493216787.697269) can0 1BFC38BA#535553500000001A
(1493216787.697508) can0 1BFC38B9#030296408005A3F4
(1493216787.697892) can0 1BFC38B8#0000000800000000
(1493216787.698141) can0 1BFC38B7#80016484250202A1
(1493216787.698501) can0 1BFC38B6#000000CD000034A8
(1493216787.698767) can0 1BFC38B5#0502FF0002020000
(1493216787.699141) can0 1BFC38B4#FF00000000000000
(1493216787.699377) can0 1BFC38B3#8001648432404433
(1493216787.699765) can0 1BFC38B2#800164848383803C
(1493216787.704766) can0 30B#0000010000000080
(1493216787.714610) can0 1FD#0000000000000000
(1493216787.755471) can0 6C7#04010408040000
(1493216787.755696) can0 30B#0000010000000080
(1493216787.755951) can0 5F2#5600
(1493216787.756208) can0 630#33C37803E0080272
(1493216787.756591) can0 62D#34837801F8000000
(1493216787.756696) can0 631#34C37807FE000000
(1493216787.756994) can0 643#000200
(1493216787.757196) can0 64E#0000000000000000
(1493216787.757630) can0 65E#8808A8253D990500
(1493216787.757880) can0 6B8#6D08000000000000
(1493216787.758159) can0 6BC#AA838B51324C0700
(1493216787.774374) can0 1FD#0000000000000000
(1493216787.774649) can0 6B7#BEB4100B08FF80FE
(1493216787.804756) can0 30B#0000010000000080
(1493216787.834612) can0 1FD#0000000000000000
(1493216787.855763) can0 30B#0000010000000080
(1493216787.894355) can0 1FD#0000000000000000
(1493216787.904818) can0 30B#0000010000000080
