(1493280924.004123) can0 6C7#04051101020001
(1493280924.004360) can0 1FD#0000000000000000
(1493280924.004736) can0 30B#5F00110000000098
(1493280924.004864) can0 5F2#CD00
(1493280924.045297) can0 1BFC38B1#0000000000000000
(1493280924.045705) can0 1BFC38BB#FFFFFFFFFFFFFFFF
(1493280924.045916) can0 1BFC38BA#0000000700000014
(1493280924.046302) can0 1BFC38B9#040096408008FC68
(1493280924.046674) can0 1BFC38B8#0000000800000000
(1493280924.046921) can0 1BFC38B7#800164842502026D
(1493280924.047305) can0 1BFC38B6#0000085802028292
(1493280924.047550) can0 1BFC38B5#0502FF9202028292
(1493280924.047930) can0 1BFC38B4#110F01010000A229
(1493280924.048131) can0 1BFC38B3#8001648431009988
(1493280924.048533) can0 1BFC38B2#8001648483830071
(1493280924.054549) can0 30B#5F00110000000098
(1493280924.056800) can0 3C0#6A7E1335
(1493280924.063274) can0 1FD#0000000000000000
(1493280924.103666) can0 30B#5F00110000000098
(1493280924.123040) can0 1FD#0000000000000000
(1493280924.153948) can0 30B#5F00110000000098
(1493280924.160153) can0 3C0#6A7E1335
(1493280924.183042) can0 1FD#0000000000000000
(1493280924.204163) can0 6C7#04051101020001
(1493280924.204415) can0 30B#5F00110000000098
(1493280924.204668) can0 5F2#CD00
(1493280924.243051) can0 1FD#0000000000000000
(1493280924.253919) can0 30B#5F00110000000098
(1493280924.263665) can0 3C0#6A7E1335
(1493280924.296542) can0 1BFC38B1#0000000000000000
(1493280924.296796) can0 1BFC38BB#FFFFFFFFFFFFFFFF
(1493280924.297170) can0 1BFC38BA#0000000700000014
(1493280924.297419) can0 1BFC38B9#050296408005A3F4
(1493280924.297804) can0 1BFC38B8#0000000800000000
(1493280924.298183) can0 1BFC38B7#80016484250202A9
(1493280924.298398) can0 1BFC38B6#0000085B00000000
(1493280924.298774) can0 1BFC38B5#0502FF9202028292
(1493280924.299035) can0 1BFC38B4#110F01010000A229
(1493280924.299284) can0 1BFC38B3#8001648431009988
(1493280924.299651) can0 1BFC38B2#8001648483830071
(1493280924.304825) can0 1FD#0000000000000000
(1493280924.304936) can0 30B#5F00110000000098
(1493280924.305322) can0 65E#88087F98A2F00900
(1493280924.314169) can0 62F#4451000322
(1493280924.353870) can0 30B#5F00110000000098
(1493280924.363173) can0 1FD#0000000000000000
(1493280924.367038) can0 3C0#6A7E1335
(1493280924.404295) can0 6C7#04051101020001
(1493280924.404547) can0 30B#5F00110000000098
(1493280924.404791) can0 5F2#CD00
(1493280924.423049) can0 1FD#0000000000000000
(1493280924.453926) can0 30B#5F00110000000098
(1493280924.470171) can0 3C0#6A7E1335
(1493280924.483050) can0 1FD#0000000000000000
(1493280924.504318) can0 30B#5F00110000000098
(1493280924.543081) can0 1FD#0000000000000000
(1493280924.545305) can0 1BFC38B1#0000000000000000
(1493280924.545675) can0 1BFC38BB#FFFFFFFFFFFFFFFF
(1493280924.545927) can0 1BFC38BA#535553500000001A
(1493280924.546300) can0 1BFC38B9#050296408005A3F4
(1493280924.546673) can0 1BFC38B8#0000000800000000
(1493280924.546887) can0 1BFC38B7#80016484250202A9
(1493280924.547259) can0 1BFC38B6#0000085D00000000
(1493280924.547512) can0 1BFC38B5#0502FF9202028292
(1493280924.547887) can0 1BFC38B4#110F01010000A229
(1493280924.548134) can0 1BFC38B3#8001648431009988
(1493280924.548514) can0 1BFC38B2#8001648483830071
(1493280924.554584) can0 30B#5F00110000000098
(1493280924.573167) can0 630#33E90500
(1493280924.573769) can0 3C0#6A7E1335
(1493280924.604000) can0 6C7#04051101020001
(1493280924.604427) can0 1FD#0000000000000000
(1493280924.604668) can0 30B#5F00110000000098
(1493280924.604792) can0 5F2#CD00
(1493280924.653947) can0 30B#5F00110000000098
(1493280924.663182) can0 1FD#0000000000000000
(1493280924.677548) can0 3C0#6A7E1335
(1493280924.704304) can0 30B#5F00110000000098
(1493280924.723058) can0 1FD#0000000000000000
(1493280924.754063) can0 30B#5F00110000000098
(1493280924.781186) can0 3C0#6A7E1335
(1493280924.783023) can0 1FD#0000000000000000
(1493280924.796556) can0 1BFC38B1#0000000000000000
(1493280924.796897) can0 1BFC38BB#FFFFFFFFFFFFFFFF
(1493280924.797135) can0 1BFC38BA#535553500000001A
(1493280924.797516) can0 1BFC38B9#050296408005A3F4
(1493280924.797782) can0 1BFC38B8#0000000800000000
(1493280924.798147) can0 1BFC38B7#80016484250202A9
(1493280924.798394) can0 1BFC38B6#000008600000A229
(1493280924.798763) can0 1BFC38B5#0502FF9202028292
(1493280924.799017) can0 1BFC38B4#110F01010000A229
(1493280924.799400) can0 1BFC38B3#800164843100BBAA
(1493280924.799663) can0 1BFC38B2#80016484838380E5
(1493280924.804712) can0 6C7#04051101020001
(1493280924.804931) can0 30B#5F00110000000098
(1493280924.805193) can0 5F2#CD00
(1493280924.805302) can0 643#000200
(1493280924.805536) can0 64E#00A2290000000000
(1493280924.805913) can0 65E#88083AE2A5940800
(1493280924.806176) can0 6B8#6D08000000000000
(1493280924.806424) can0 6BC#7A822E51324C077E
(1493280924.814188) can0 62D#34837801F8000000
(1493280924.843072) can0 1FD#0000000000000000
(1493280924.853939) can0 30B#5F00110000000098
(1493280924.885221) can0 3C0#6A7E1335
(1493280924.904469) can0 1FD#0000000000000000
(1493280924.904858) can0 30B#5F00110000000098
(1493280924.904955) can0 631#34C414
(1493280924.913435) can0 6B6#390C1C000322
(1493280924.913684) can0 6B7#BEB4000008FF80FE
(1493280924.953936) can0 30B#5F00110000000098
(1493280924.963190) can0 1FD#0000000000000000
(1493280924.988837) can0 3C0#6A7E1335
(1493280925.004314) can0 6C7#04051101020001
(1493280925.004560) can0 30B#5F00110000000098
(1493280925.004826) can0 5F2#CD00
(1493280925.023065) can0 1FD#0000000000000000
(1493280925.045441) can0 1BFC38B1#0000000000000000
(1493280925.045817) can0 1BFC38BB#FFFFFFFFFFFFFFFF
(1493280925.046091) can0 1BFC38BA#535553500000001A
(1493280925.046295) can0 1BFC38B9#050296408005A3F4
(1493280925.046691) can0 1BFC38B8#0000000800000000
(1493280925.046940) can0 1BFC38B7#80016484250202A9
(1493280925.047298) can0 1BFC38B6#00000862000034A8
(1493280925.047548) can0 1BFC38B5#0502FF9202028292
(1493280925.047940) can0 1BFC38B4#110F01010000A229
(1493280925.048189) can0 1BFC38B3#800164843100BBAA
(1493280925.048563) can0 1BFC38B2#80016484838380E5
(1493280925.054580) can0 30B#5F00110000000098
(1493280925.083097) can0 1FD#0000000000000000
(1493280925.092307) can0 3C0#6A7E1335
(1493280925.104055) can0 30B#5F00110000000098
(1493280925.143067) can0 1FD#0000000000000000
(1493280925.153944) can0 30B#5F00110000000098
(1493280925.195773) can0 3C0#6A7E1335
(1493280925.204478) can0 6C7#04051101020001
(1493280925.204866) can0 1FD#0000000000000000
(1493280925.205073) can0 30B#5F00110000000098
(1493280925.205186) can0 5F2#CD00
(1493280925.253941) can0 30B#5F00110000000098
(1493280925.263214) can0 1FD#0000000000000000
(1493280925.296828) can0 1BFC38B1#0000000000000000
(1493280925.297069) can0 1BFC38BB#FFFFFFFFFFFFFFFF
(1493280925.297311) can0 1BFC38BA#535553500000001A
(1493280925.297677) can0 1BFC38B9#060096408008FC68
(1493280925.298032) can0 1BFC38B8#0000000800000000
(1493280925.298281) can0 1BFC38B7#80016484250202E5
(1493280925.298660) can0 1BFC38B6#0000086500000000
(1493280925.298907) can0 1BFC38B5#0502FF9202028292
(1493280925.299268) can0 1BFC38B4#110F01010000A229
(1493280925.299536) can0 1BFC38B3#800164843100BBAA
(1493280925.299917) can0 1BFC38B2#80016484838380E5
(1493280925.300436) can0 3C0#6A7E1335
(1493280925.303180) can0 30B#5F00110000000098
(1493280925.303427) can0 65E#8808A706A7150700
(1493280925.314685) can0 62F#4451000323
(1493280925.323116) can0 1FD#0000000000000000
(1493280925.354454) can0 30B#5F00110000000098
(1493280925.364074) can0 64E#00A3170000000000
(1493280925.383084) can0 1FD#0000000000000000
(1493280925.404405) can0 3C0#6A7E1335
(1493280925.404409) can0 6C7#04051101020001
(1493280925.404773) can0 30B#5F00110000000098
(1493280925.405024) can0 5F2#CD00
(1493280925.443202) can0 1FD#0000000000000000
(1493280925.453201) can0 30B#5F00110000000098
(1493280925.505328) can0 1FD#0000000000000000
(1493280925.505562) can0 30B#5F00110000000098
(1493280925.508040) can0 3C0#6A7E1335
(1493280925.545828) can0 1BFC38B1#0000000000000000
(1493280925.546068) can0 1BFC38BA#0000000700000014
(1493280925.546451) can0 1BFC38BB#FFFFFFFFFFFFFFFF
(1493280925.546798) can0 1BFC38B9#060096408008FC68
(1493280925.547042) can0 1BFC38B8#0000000800000000
(1493280925.547305) can0 1BFC38B7#80016484250202E5
(1493280925.547682) can0 1BFC38B6#0000086700000000
(1493280925.547931) can0 1BFC38B5#0502FF9202028292
(1493280925.548309) can0 1BFC38B4#110F01010000A229
(1493280925.548554) can0 1BFC38B3#800164843100BBAA
(1493280925.548936) can0 1BFC38B2#80016484838380E5
(1493280925.554548) can0 30B#5F00110000000098
(1493280925.564335) can0 1FD#0000000000000000
(1493280925.603086) can0 6C7#04051101020001
(1493280925.603330) can0 30B#5F00110000000098
(1493280925.603569) can0 5F2#CD00
(1493280925.611830) can0 3C0#6A7E1335
(1493280925.623495) can0 1FD#0000000000000000
(1493280925.654091) can0 30B#5F00110000000098
(1493280925.683371) can0 1FD#0000000000000000
(1493280925.704491) can0 30B#5F00110000000098
(1493280925.715807) can0 3C0#6A7E1335
(1493280925.743210) can0 1FD#0000000000000000
(1493280925.754083) can0 30B#5F00110000000098
(1493280925.796720) can0 1BFC38B1#0000000000000000
(1493280925.796907) can0 1BFC38BB#FFFFFFFFFFFFFFFF
(1493280925.797287) can0 1BFC38BA#0000000700000014
(1493280925.797554) can0 1BFC38B9#060096408008FC68
(1493280925.797918) can0 1BFC38B8#0000000800000000
(1493280925.798172) can0 1BFC38B7#80016484250202E5
(1493280925.798543) can0 1BFC38B6#0000086A0000A317
(1493280925.798791) can0 1BFC38B5#0502FF9202028292
(1493280925.799172) can0 1BFC38B4#110F01010000A317
(1493280925.799544) can0 1BFC38B3#80016484324000FF
(1493280925.799791) can0 1BFC38B2#800164848383003D
(1493280925.803100) can0 6C7#04051101020001
(1493280925.803492) can0 1FD#0000000000000000
(1493280925.803711) can0 30B#5F00110000000098
(1493280925.803833) can0 5F2#CD00
(1493280925.804075) can0 643#000200
(1493280925.804345) can0 64E#00A3170000000000
(1493280925.804581) can0 65E#880832A78AD60900
(1493280925.804934) can0 6B8#6D08000000000000
(1493280925.805181) can0 6BC#7A822E51324C078E
(1493280925.819420) can0 3C0#6A7E1335
(1493280925.854088) can0 30B#5F00110000000098
(1493280925.863591) can0 1FD#0000000000000000
(1493280925.904294) can0 30B#5F00110000000098
(1493280925.913437) can0 6B6#390C1C000323
(1493280925.913704) can0 6B7#BEB4000008FF80FE
(1493280925.923179) can0 3C0#6A7E1335
(1493280925.923184) can0 1FD#0000000000000000
(1493280925.954104) can0 30B#5F00110000000098
(1493280925.983218) can0 1FD#0000000000000000
(1493280926.004491) can0 6C7#04051101020001
(1493280926.004702) can0 30B#5F00110000000098
(1493280926.004831) can0 5F2#CD00
(1493280926.026557) can0 3C0#6A7E1335
(1493280926.043253) can0 1FD#0000000000000000
(1493280926.045498) can0 1BFC38B1#0000000000000000
(1493280926.045861) can0 1BFC38BB#FFFFFFFFFFFFFFFF
(1493280926.046108) can0 1BFC38BA#0000000700000014
(1493280926.046474) can0 1BFC38B9#060096408008FC68
(1493280926.046855) can0 1BFC38B8#0000000800000000
(1493280926.047092) can0 1BFC38B7#80016484250202E5
(1493280926.047322) can0 1BFC38B6#0000086C02028292
(1493280926.047698) can0 1BFC38B5#0502FF9202028292
(1493280926.047935) can0 1BFC38B4#110F01010000A317
(1493280926.048308) can0 1BFC38B3#80016484324000FF
(1493280926.048565) can0 1BFC38B2#800164848383003D
(1493280926.054844) can0 30B#5F00110000000098
(1493280926.103851) can0 1FD#0000000000000000
(1493280926.104082) can0 30B#5F00110000000098
(1493280926.130553) can0 3C0#6A7E1335
(1493280926.154100) can0 30B#5F00110000000098
(1493280926.163418) can0 1FD#0000000000000000
(1493280926.204361) can0 6C7#04051101020001
(1493280926.204594) can0 30B#5F00110000000098
(1493280926.204838) can0 5F2#CD00
(1493280926.223208) can0 1FD#0000000000000000
(1493280926.234697) can0 3C0#6A7E1335
(1493280926.254125) can0 30B#5F00110000000098
(1493280926.283223) can0 1FD#0000000000000000
(1493280926.296607) can0 1BFC38B1#0000000000000000
(1493280926.296971) can0 1BFC38BB#FFFFFFFFFFFFFFFF
(1493280926.297348) can0 1BFC38BA#0000000700000014
(1493280926.297597) can0 1BFC38B9#070296408005A3F4
(1493280926.297957) can0 1BFC38B8#0000000800000000
(1493280926.298213) can0 1BFC38B7#8001648425020220
(1493280926.298604) can0 1BFC38B6#0000086F00000000
(1493280926.298809) can0 1BFC38B5#0502FF9202028292
(1493280926.299143) can0 1BFC38B4#110F01010000A317
(1493280926.299432) can0 1BFC38B3#80016484324000FF
(1493280926.299813) can0 1BFC38B2#800164848383003D
(1493280926.305002) can0 30B#5F00110000000098
(1493280926.305188) can0 65E#8808FF1189430700
(1493280926.314303) can0 62F#4451000324
(1493280926.338572) can0 3C0#6A7E1335
(1493280926.343256) can0 1FD#0000000000000000
(1493280926.354096) can0 30B#5F00110000000098
(1493280926.404380) can0 6C7#04051101020001
(1493280926.404779) can0 1FD#0000000000000000
(1493280926.404974) can0 30B#5F00110000000098
(1493280926.405104) can0 5F2#CD00
(1493280926.442359) can0 3C0#6A7E1335
(1493280926.454104) can0 30B#5F00110000000098
(1493280926.463351) can0 1FD#0000000000000000
(1493280926.504372) can0 30B#5F00110000000098
(1493280926.523249) can0 1FD#0000000000000000
(1493280926.545482) can0 1BFC38B1#0000000000000000
(1493280926.545815) can0 1BFC38BB#FFFFFFFFFFFFFFFF
(1493280926.546189) can0 3C0#6A7E1335
(1493280926.546192) can0 1BFC38BA#535553500000001A
(1493280926.546452) can0 1BFC38B9#070296408005A3F4
(1493280926.546944) can0 1BFC38B8#0000000800000000
(1493280926.547194) can0 1BFC38B7#8001648425020220
(1493280926.547565) can0 1BFC38B6#0000087100000000
(1493280926.547814) can0 1BFC38B5#0502FF9202028292
(1493280926.548221) can0 1BFC38B4#110F01010000A317
(1493280926.548474) can0 1BFC38B3#80016484324000FF
(1493280926.548832) can0 1BFC38B2#800164848383003D
(1493280926.554866) can0 30B#5F00110000000098
(1493280926.573372) can0 630#33EA010000
(1493280926.583245) can0 1FD#0000000000000000
(1493280926.603264) can0 6C7#04051101020001
(1493280926.603483) can0 30B#5F00110000000098
(1493280926.603727) can0 5F2#CD00
(1493280926.643229) can0 1FD#0000000000000000
(1493280926.650184) can0 3C0#6A7E1335
(1493280926.654141) can0 30B#5F00110000000098
(1493280926.704353) can0 1FD#0000000000000000
(1493280926.704735) can0 30B#5F00110000000098
(1493280926.754120) can0 3C0#6A7E1335
(1493280926.754124) can0 30B#5F00110000000098
(1493280926.763642) can0 1FD#0000000000000000
(1493280926.796861) can0 1BFC38B1#0000000000000000
(1493280926.797084) can0 1BFC38BB#FFFFFFFFFFFFFFFF
(1493280926.797481) can0 1BFC38BA#535553500000001A
(1493280926.797883) can0 1BFC38B9#070296408005A3F4
(1493280926.798094) can0 1BFC38B8#0000000800000000
(1493280926.798363) can0 1BFC38B7#8001648425020220
(1493280926.798722) can0 1BFC38B6#000008740000A317
(1493280926.798968) can0 1BFC38B5#0502FF9202028292
(1493280926.799322) can0 1BFC38B4#110F01010000A317
(1493280926.799642) can0 1BFC38B3#8001648431005544
(1493280926.799969) can0 1BFC38B2#80016484838300B3
(1493280926.803216) can0 6C7#04051101020001
(1493280926.803615) can0 30B#5F00110000000098
(1493280926.803844) can0 5F2#CD00
(1493280926.803847) can0 643#000200
(1493280926.804247) can0 64E#00A3170000000000
(1493280926.804509) can0 65E#8808D0F371C00600
(1493280926.804867) can0 6B8#6D08000000000000
(1493280926.805131) can0 6BC#7A822E51324C0792
(1493280926.814252) can0 62D#348414
(1493280926.823395) can0 1FD#0000000000000000
(1493280926.854067) can0 30B#5F00110000000098
(1493280926.857853) can0 3C0#6A7E1335
(1493280926.883263) can0 1FD#0000000000000000
(1493280926.904381) can0 30B#5F00110000000098
(1493280926.904603) can0 631#34CD00
(1493280926.913499) can0 6B6#390C1C000324
(1493280926.913886) can0 6B7#BEB4000008FF80FE
(1493280926.943217) can0 1FD#0000000000000000
(1493280926.954148) can0 30B#5F00110000000098
(1493280926.961957) can0 3C0#6A7E1335
(1493280927.004199) can0 6C7#04051101020001
(1493280927.004609) can0 1FD#0000000000000000
(1493280927.004850) can0 30B#5F00110000000098
(1493280927.004942) can0 5F2#CD00
(1493280927.045657) can0 1BFC38B1#0000000000000000
(1493280927.045881) can0 1BFC38BB#FFFFFFFFFFFFFFFF
(1493280927.046270) can0 1BFC38BA#535553500000001A
(1493280927.046458) can0 1BFC38B9#070296408005A3F4
(1493280927.046848) can0 1BFC38B8#0000000800000000
(1493280927.047097) can0 1BFC38B7#8001648425020220
(1493280927.047470) can0 1BFC38B6#00000876000034A8
(1493280927.047848) can0 1BFC38B5#0502FF9202028292
(1493280927.048112) can0 1BFC38B4#110F01010000A317
(1493280927.048345) can0 1BFC38B3#8001648431005544
(1493280927.048708) can0 1BFC38B2#80016484838300B3
(1493280927.054851) can0 30B#5F00110000000098
(1493280927.063618) can0 1FD#0000000000000000
(1493280927.066104) can0 3C0#6A7E1335
(1493280927.103875) can0 30B#5F00110000000098
(1493280927.123279) can0 1FD#0000000000000000
(1493280927.154148) can0 30B#5F00110000000098
(1493280927.169744) can0 3C0#6A7E1335
(1493280927.183275) can0 1FD#0000000000000000
(1493280927.204540) can0 6C7#04051101020001
(1493280927.204746) can0 30B#5F00110000000098
(1493280927.204873) can0 5F2#CD00
(1493280927.243263) can0 1FD#0000000000000000
(1493280927.254388) can0 30B#5F00110000000098
(1493280927.273593) can0 3C0#6A7E1335
(1493280927.296751) can0 1BFC38B1#0000000000000000
(1493280927.297122) can0 1BFC38BB#FFFFFFFFFFFFFFFF
(1493280927.297400) can0 1BFC38BA#535553500000001A
(1493280927.297748) can0 1BFC38B9#000096408008FC68
(1493280927.297997) can0 1BFC38B8#0000000800000000
(1493280927.298356) can0 1BFC38B7#800164842502025C
(1493280927.298613) can0 1BFC38B6#0000087900000000
(1493280927.298976) can0 1BFC38B5#0502FF9202028292
(1493280927.299351) can0 1BFC38B4#110F01010000A317
(1493280927.299603) can0 1BFC38B3#8001648431005544
(1493280927.299969) can0 1BFC38B2#80016484838300B3
(1493280927.305029) can0 1FD#0000000000000000
(1493280927.305253) can0 30B#5F00110000000098
(1493280927.305475) can0 65E#880857E572FB0900
(1493280927.314500) can0 62F#4451000325
(1493280927.354138) can0 30B#5F00110000000098
(1493280927.363515) can0 1FD#0000000000000000
(1493280927.377729) can0 3C0#6A7E1335
(1493280927.404380) can0 6C7#04051101020001
(1493280927.404757) can0 30B#5F00110000000098
(1493280927.404863) can0 5F2#CD00
(1493280927.423257) can0 1FD#0000000000000000
(1493280927.454125) can0 30B#5F00110000000098
(1493280927.481531) can0 3C0#6A7E1335
(1493280927.483233) can0 1FD#0000000000000000
(1493280927.504405) can0 30B#5F00110000000098
(1493280927.543259) can0 1FD#0000000000000000
(1493280927.545627) can0 1BFC38B1#0000000000000000
(1493280927.545877) can0 1BFC38BB#FFFFFFFFFFFFFFFF
(1493280927.546255) can0 1BFC38BA#0000000700000014
(1493280927.546618) can0 1BFC38B9#000096408008FC68
(1493280927.546869) can0 1BFC38B8#0000000800000000
(1493280927.547236) can0 1BFC38B7#800164842502025C
(1493280927.547485) can0 1BFC38B6#0000087B00000000
(1493280927.547858) can0 1BFC38B5#0502FF9202028292
(1493280927.548109) can0 1BFC38B4#110F01010000A317
(1493280927.548483) can0 1BFC38B3#8001648431005544
(1493280927.548731) can0 1BFC38B2#80016484838300B3
(1493280927.554918) can0 30B#5F00110000000098
(1493280927.574106) can0 53C#94E60F55159F11
(1493280927.584967) can0 3C0#6A7E1335
(1493280927.603722) can0 6C7#04051101020001
(1493280927.603965) can0 1FD#0000000000000000
(1493280927.604281) can0 30B#5F00110000000098
(1493280927.604492) can0 5F2#CD00
(1493280927.624285) can0 61E#41D1D034A7232708
(1493280927.654135) can0 30B#5F00110000000098
(1493280927.663681) can0 1FD#0000000000000000
(1493280927.674399) can0 3D7#837FAD2048B8EE04
(1493280927.688634) can0 3C0#6A7E1335
(1493280927.704520) can0 30B#5F00110000000098
(1493280927.723385) can0 1FD#0000000000000000
(1493280927.724569) can0 3AD#
(1493280927.754143) can0 30B#5F00110000000098
(1493280927.774638) can0 31F#1E38AF34ED6E887E
(1493280927.783385) can0 1FD#0000000000000000
(1493280927.792105) can0 3C0#6A7E1335
(1493280927.796918) can0 1BFC38B1#0000000000000000
(1493280927.797285) can0 1BFC38BB#FFFFFFFFFFFFFFFF
(1493280927.797635) can0 1BFC38BA#0000000700000014
(1493280927.797850) can0 1BFC38B9#000096408008FC68
(1493280927.798242) can0 1BFC38B8#0000000800000000
(1493280927.798489) can0 1BFC38B7#800164842502025C
(1493280927.798866) can0 1BFC38B6#0000087E0000A317
(1493280927.799115) can0 1BFC38B5#0502FF9202028292
(1493280927.799497) can0 1BFC38B4#110F01010000A317
(1493280927.799738) can0 1BFC38B3#8001648431007766
(1493280927.800214) can0 1BFC38B2#80016484838380F7
(1493280927.803389) can0 6C7#04051101020001
(1493280927.803636) can0 30B#5F00110000000098
(1493280927.803923) can0 5F2#CD00
(1493280927.803926) can0 643#000200
(1493280927.804251) can0 64E#00A3170000000000
(1493280927.804504) can0 65E#8808AB7572F00900
(1493280927.804886) can0 6B8#6D08000000000000
(1493280927.805128) can0 6BC#7A822E51324C0798
(1493280927.824902) can0 373#8D
(1493280927.843281) can0 1FD#0000000000000000
(1493280927.854277) can0 30B#5F00110000000098
(1493280927.875038) can0 0F6#BE10374F3C0FBB11
(1493280927.895607) can0 3C0#6A7E1335
(1493280927.904544) can0 1FD#0000000000000000
(1493280927.904921) can0 30B#5F00110000000098
(1493280927.913639) can0 6B6#390C1C000325
(1493280927.913887) can0 6B7#BEB4000008FF80FE
(1493280927.925137) can0 6CC#06
(1493280927.954267) can0 30B#5F00110000000098
(1493280927.963546) can0 1FD#0000000000000000
(1493280927.975404) can0 178#1E336D3697FF4762
(1493280927.998985) can0 3C0#6A7E1335
(1493280928.004403) can0 6C7#04051101020001
(1493280928.004634) can0 30B#5F00110000000098
(1493280928.004892) can0 5F2#CD00
(1493280928.023393) can0 1FD#0000000000000000
(1493280928.025531) can0 099#3E236F6A708C0721
(1493280928.045641) can0 1BFC38B1#0000000000000000
(1493280928.046025) can0 1BFC38BB#FFFFFFFFFFFFFFFF
(1493280928.046255) can0 1BFC38BA#0000000700000014
(1493280928.046643) can0 1BFC38B9#000096408008FC68
(1493280928.046892) can0 1BFC38B8#0000000800000000
(1493280928.047265) can0 1BFC38B7#800164842502025C
(1493280928.047628) can0 1BFC38B6#0000088002028292
(1493280928.047905) can0 1BFC38B5#0502FF9202028292
(1493280928.048280) can0 1BFC38B4#110F01010000A317
(1493280928.048524) can0 1BFC38B3#8001648431007766
(1493280928.048909) can0 1BFC38B2#80016484838380F7
(1493280928.054876) can0 30B#5F00110000000098
(1493280928.075664) can0 49C#B844
(1493280928.083375) can0 1FD#0000000000000000
(1493280928.102897) can0 3C0#6A7E1335
(1493280928.103857) can0 30B#5F00110000000098
(1493280928.125895) can0 582#3855496BA210C513
(1493280928.143423) can0 1FD#0000000000000000
(1493280928.154271) can0 30B#5F00110000000098
(1493280928.176057) can0 428#8F7F4D129C27
(1493280928.204401) can0 6C7#04051101020001
(1493280928.204598) can0 1FD#0000000000000000
(1493280928.205005) can0 30B#5F00110000000098
(1493280928.205138) can0 5F2#CD00
(1493280928.206857) can0 3C0#6A7E1335
(1493280928.226313) can0 757#BEC1CB084D10221A
(1493280928.254301) can0 30B#5F00110000000098
(1493280928.263525) can0 1FD#0000000000000000
(1493280928.276380) can0 208#8A1FDD2BD4287212
(1493280928.296897) can0 1BFC38B1#0000000000000000
(1493280928.297137) can0 1BFC38BB#FFFFFFFFFFFFFFFF
(1493280928.297383) can0 1BFC38BA#0000000700000014
(1493280928.297781) can0 1BFC38B9#010296408005A3F4
(1493280928.298173) can0 1BFC38B8#0000000800000000
(1493280928.298425) can0 1BFC38B7#8001648425020298
(1493280928.298826) can0 1BFC38B6#0000088300000000
(1493280928.299030) can0 1BFC38B5#0502FF9202028292
(1493280928.299408) can0 1BFC38B4#110F01010000A317
(1493280928.299662) can0 1BFC38B3#8001648431007766
(1493280928.300032) can0 1BFC38B2#80016484838380F7
(1493280928.305056) can0 30B#5F00110000000098
(1493280928.305286) can0 65E#8808A0F5862B0700
(1493280928.310374) can0 3C0#6A7E1335
(1493280928.314792) can0 62F#4451000326
(1493280928.323431) can0 1FD#0000000000000000
(1493280928.326548) can0 0CD#
(1493280928.354276) can0 30B#5F00110000000098
(1493280928.376654) can0 22A#DD713D0FC3426505
(1493280928.383408) can0 1FD#0000000000000000
(1493280928.404650) can0 6C7#04051101020001
(1493280928.404882) can0 30B#5F00110000000098
(1493280928.405139) can0 5F2#CD00
(1493280928.414023) can0 3C0#6A7E1335
(1493280928.426929) can0 45A#33CF6C26F628037F
(1493280928.443405) can0 1FD#0000000000000000
(1493280928.454282) can0 30B#5F00110000000098
(1493280928.477019) can0 7DD#4061355660C50671
(1493280928.504526) can0 1FD#0000000000000000
(1493280928.504931) can0 30B#5F00110000000098
(1493280928.517400) can0 3C0#6A7E1335
(1493280928.527186) can0 495#02D6CB04BE403162
(1493280928.545645) can0 1BFC38B1#0000000000000000
(1493280928.546033) can0 1BFC38BB#FFFFFFFFFFFFFFFF
(1493280928.546279) can0 1BFC38BA#535553500000001A
(1493280928.546655) can0 1BFC38B9#010296408005A3F4
(1493280928.546876) can0 1BFC38B8#0000000800000000
(1493280928.547263) can0 1BFC38B7#8001648425020298
(1493280928.547511) can0 1BFC38B6#0000088500000000
(1493280928.547893) can0 1BFC38B5#0502FF9202028292
(1493280928.548138) can0 1BFC38B4#110F01010000A317
(1493280928.548514) can0 1BFC38B3#8001648431007766
(1493280928.548884) can0 1BFC38B2#80016484838380F7
(1493280928.554904) can0 30B#5F00110000000098
(1493280928.563696) can0 1FD#0000000000000000
(1493280928.573659) can0 630#33EB000001FEFF
(1493280928.577299) can0 3CE#5A
(1493280928.604443) can0 6C7#04051101020001
(1493280928.604654) can0 30B#5F00110000000098
(1493280928.604950) can0 5F2#CC00
(1493280928.620775) can0 3C0#6A7E1335
(1493280928.623418) can0 1FD#0000000000000000
(1493280928.627451) can0 3AD#727BD23EB5B5CD58
(1493280928.654284) can0 30B#5F00110000000098
(1493280928.677653) can0 494#8ADE3F6B62CDE00A
(1493280928.683409) can0 1FD#0000000000000000
(1493280928.704536) can0 30B#5F00110000000098
(1493280928.723992) can0 3C0#6A7E1335
(1493280928.727801) can0 48C#A83FD637B68E24
(1493280928.743411) can0 1FD#0000000000000000
(1493280928.754284) can0 30B#5F00110000000098
(1493280928.777871) can0 362#79D1894CBC
(1493280928.796912) can0 1BFC38B1#0000000000000000
(1493280928.797172) can0 1BFC38BB#FFFFFFFFFFFFFFFF
(1493280928.797537) can0 1BFC38BA#535553500000001A
(1493280928.797912) can0 1BFC38B9#010296408005A3F4
(1493280928.798178) can0 1BFC38B8#0000000800000000
(1493280928.798537) can0 1BFC38B7#8001648425020298
(1493280928.798793) can0 1BFC38B6#000008880000A317
(1493280928.799025) can0 1BFC38B5#0502FF9202028292
(1493280928.799413) can0 1BFC38B4#110F01010000A317
(1493280928.799680) can0 1BFC38B3#800164843240CCBB
(1493280928.800024) can0 1BFC38B2#800164848383007F
(1493280928.804989) can0 6C7#04051101020001
(1493280928.805367) can0 1FD#0000000000000000
(1493280928.805611) can0 30B#5F00110000000098
(1493280928.805862) can0 5F2#CC00
(1493280928.805988) can0 643#000200
(1493280928.806287) can0 64E#00A3170000000000
(1493280928.806538) can0 65E#8808CF5679C00900
(1493280928.806910) can0 6B8#6D08000000000000
(1493280928.807136) can0 6BC#7A822E51324C07BA
(1493280928.814260) can0 62D#348F00
(1493280928.828015) can0 3C0#6A7E1335
(1493280928.828017) can0 6A0#B3A8C4547E7E8945
(1493280928.854288) can0 30B#5F00110000000098
(1493280928.863539) can0 1FD#0000000000000000
(1493280928.878271) can0 498#DE4390
(1493280928.904791) can0 30B#5F00110000000098
(1493280928.905413) can0 631#34CE01
(1493280928.913693) can0 6B6#390C1C000326
(1493280928.914088) can0 6B7#BEB4000008FF80FE
(1493280928.923414) can0 1FD#0000000000000000
(1493280928.928294) can0 06B#
(1493280928.931882) can0 3C0#6A7E1335
(1493280928.954321) can0 30B#5F00110000000098
(1493280928.978418) can0 771#5E6FA0721E
(1493280928.983421) can0 1FD#0000000000000000
(1493280929.004698) can0 6C7#04051101020001
(1493280929.004908) can0 30B#5F00110000000098
(1493280929.005019) can0 5F2#CC00
(1493280929.028680) can0 45D#
(1493280929.035412) can0 3C0#6A7E1335
(1493280929.043434) can0 1FD#0000000000000000
(1493280929.045684) can0 1BFC38B1#0000000000000000
(1493280929.046054) can0 1BFC38BB#FFFFFFFFFFFFFFFF
(1493280929.046415) can0 1BFC38BA#535553500000001A
(1493280929.046663) can0 1BFC38B9#010296408005A3F4
(1493280929.047021) can0 1BFC38B8#0000000800000000
(1493280929.047284) can0 1BFC38B7#8001648425020298
(1493280929.047649) can0 1BFC38B6#0000088A000034A8
(1493280929.047922) can0 1BFC38B5#0502FF9202028292
(1493280929.048313) can0 1BFC38B4#110F01010000A317
(1493280929.048542) can0 1BFC38B3#800164843240CCBB
(1493280929.048949) can0 1BFC38B2#800164848383007F
(1493280929.054947) can0 30B#5F00110000000098
(1493280929.078911) can0 5CD#54EEE67D59DA9242
(1493280929.104171) can0 1FD#0000000000000000
(1493280929.104404) can0 30B#5F00110000000098
(1493280929.129086) can0 2C4#1069B70926165F5A
(1493280929.138910) can0 3C0#6A7E1335
(1493280929.154298) can0 30B#5F00110000000098
(1493280929.163547) can0 1FD#0000000000000000
(1493280929.179174) can0 781#E39520302126913D
(1493280929.204803) can0 6C7#04051101020001
(1493280929.205039) can0 30B#5F00110000000098
(1493280929.205150) can0 5F2#CC00
(1493280929.223427) can0 1FD#0000000000000000
(1493280929.229300) can0 336#9FA41A03CE8F
(1493280929.242666) can0 3C0#6A7E1335
(1493280929.254302) can0 30B#5F00110000000098
(1493280929.279580) can0 089#FBE0CF0FF408581C
(1493280929.283453) can0 1FD#0000000000000000
(1493280929.296934) can0 1BFC38B1#0000000000000000
(1493280929.297191) can0 1BFC38BB#FFFFFFFFFFFFFFFF
(1493280929.297563) can0 1BFC38BA#535553500000001A
(1493280929.297894) can0 1BFC38B9#020096408008FC68
(1493280929.298155) can0 1BFC38B8#0000000800000000
(1493280929.298529) can0 1BFC38B7#80016484250202D4
(1493280929.298903) can0 1BFC38B6#0000088D00000000
(1493280929.299168) can0 1BFC38B5#0502FF9202028292
(1493280929.299407) can0 1BFC38B4#110F01010000A317
(1493280929.299780) can0 1BFC38B3#800164843240CCBB
(1493280929.300019) can0 1BFC38B2#800164848383007F
(1493280929.305207) can0 30B#5F00110000000098
(1493280929.305419) can0 65E#8808C64077EC0600
(1493280929.314553) can0 62F#4451000327
(1493280929.329692) can0 25D#2D0D486ACE717C
(1493280929.343429) can0 1FD#0000000000000000
(1493280929.346143) can0 3C0#6A7E1335
(1493280929.354454) can0 30B#5F00110000000098
(1493280929.379769) can0 52C#ECCC773E8A91E674
(1493280929.404593) can0 6C7#04051101020001
(1493280929.404971) can0 1FD#0000000000000000
(1493280929.405162) can0 30B#5F00110000000098
(1493280929.405293) can0 5F2#CC00
(1493280929.430072) can0 75B#
(1493280929.449680) can0 3C0#6A7E1335
(1493280929.454340) can0 30B#5F00110000000098
(1493280929.463911) can0 1FD#0000000000000000
(1493280929.480235) can0 51D#
(1493280929.504558) can0 30B#5F00110000000098
(1493280929.523436) can0 1FD#0000000000000000
(1493280929.530319) can0 6CC#086E
(1493280929.545822) can0 1BFC38B1#0000000000000000
(1493280929.546063) can0 1BFC38BB#FFFFFFFFFFFFFFFF
(1493280929.546444) can0 1BFC38BA#0000000700000014
(1493280929.546646) can0 1BFC38B9#020096408008FC68
(1493280929.547036) can0 1BFC38B8#0000000800000000
(1493280929.547297) can0 1BFC38B7#80016484250202D4
(1493280929.547666) can0 1BFC38B6#0000088F00000000
(1493280929.548037) can0 1BFC38B5#0502FF9202028292
(1493280929.548285) can0 1BFC38B4#110F01010000A317
(1493280929.548543) can0 1BFC38B3#800164843240CCBB
(1493280929.548912) can0 1BFC38B2#800164848383007F
(1493280929.553187) can0 3C0#6A7E1335
(1493280929.555056) can0 30B#5F00110000000098
(1493280929.580449) can0 31B#6ED4F25551464116
(1493280929.583432) can0 1FD#0000000000000000
(1493280929.603682) can0 6C7#04051101020001
(1493280929.604084) can0 30B#5F00110000000098
(1493280929.604087) can0 5F2#CC00
(1493280929.630731) can0 281#1FD6D21E0A8BA45F
(1493280929.643440) can0 1FD#0000000000000000
(1493280929.654311) can0 30B#5F00110000000098
(1493280929.656924) can0 3C0#6A7E1335
(1493280929.680810) can0 18B#FE93FC7BE963BF07
(1493280929.704717) can0 1FD#0000000000000000
(1493280929.704917) can0 30B#5F00110000000098
(1493280929.731080) can0 202#B7D53B4F2E973A15
(1493280929.754448) can0 30B#5F00110000000098
(1493280929.760695) can0 3C0#6A7E1335
(1493280929.763974) can0 1FD#0000000000000000
(1493280929.781095) can0 5B6#B828210A
(1493280929.796939) can0 1BFC38B1#0000000000000000
(1493280929.797329) can0 1BFC38BB#FFFFFFFFFFFFFFFF
(1493280929.797561) can0 1BFC38BA#0000000700000014
(1493280929.797938) can0 1BFC38B9#020096408008FC68
(1493280929.798156) can0 1BFC38B8#0000000800000000
(1493280929.798542) can0 1BFC38B7#80016484250202D4
(1493280929.798917) can0 1BFC38B6#000008920000A317
(1493280929.799179) can0 1BFC38B5#0502FF9202028292
(1493280929.799432) can0 1BFC38B4#110F01010000A317
(1493280929.799825) can0 1BFC38B3#8001648431001100
(1493280929.800056) can0 1BFC38B2#80016484838300D5
(1493280929.805074) can0 6C7#04051101020001
(1493280929.805452) can0 30B#5F00110000000098
(1493280929.805565) can0 5F2#CB00
(1493280929.805826) can0 643#000200
(1493280929.806102) can0 64E#00A3170000000000
(1493280929.806323) can0 65E#8808D7B372E50900
(1493280929.806560) can0 6B8#6D08000000000000
(1493280929.806939) can0 6BC#7A822E51324C0701
(1493280929.823470) can0 1FD#0000000000000000
(1493280929.831329) can0 064#3A72067C
(1493280929.854330) can0 30B#5F00110000000098
(1493280929.864185) can0 3C0#6A7E1335
(1493280929.881453) can0 404#63A59E05D04A7273
(1493280929.883449) can0 1FD#0000000000000000
(1493280929.904689) can0 30B#5F00110000000098
(1493280929.913938) can0 6B6#390C1C000327
(1493280929.914182) can0 6B7#BEB4000008FF80FE
(1493280929.931578) can0 24E#1DF9D30B6AD5E82C
(1493280929.943566) can0 1FD#0000000000000000
(1493280929.954324) can0 30B#5F00110000000098
(1493280929.967650) can0 3C0#6A7E1335
(1493280929.981689) can0 757#BB1B2A43D959035B
(1493280930.004693) can0 6C7#04051101020001
(1493280930.004932) can0 1FD#0000000000000000
(1493280930.005322) can0 30B#5F00110000000098
(1493280930.005436) can0 5F2#CB00
(1493280930.031948) can0 69A#E3E4A73A25A88C4D
(1493280930.045822) can0 1BFC38B1#0000000000000000
(1493280930.046211) can0 1BFC38BB#FFFFFFFFFFFFFFFF
(1493280930.046431) can0 1BFC38BA#0000000700000014
(1493280930.046818) can0 1BFC38B9#020096408008FC68
(1493280930.047103) can0 1BFC38B8#0000000800000000
(1493280930.047451) can0 1BFC38B7#80016484250202D4
(1493280930.047723) can0 1BFC38B6#0000089402028292
(1493280930.048036) can0 1BFC38B5#0502FF9202028292
(1493280930.048334) can0 1BFC38B4#110F01010000A317
(1493280930.048704) can0 1BFC38B3#8001648431001100
(1493280930.048953) can0 1BFC38B2#80016484838300D5
(1493280930.055103) can0 30B#5F00110000000098
(1493280930.063823) can0 1FD#0000000000000000
(1493280930.071408) can0 3C0#6A7E1335
(1493280930.082103) can0 0F6#0E0C
(1493280930.104058) can0 30B#5F00110000000098
(1493280930.123458) can0 1FD#0000000000000000
(1493280930.132213) can0 20D#266ABC4DC437
(1493280930.154460) can0 30B#5F00110000000098
(1493280930.174909) can0 3C0#6A7E1335
(1493280930.182311) can0 46A#D6BC9E31CE04304E
(1493280930.183552) can0 1FD#0000000000000000
(1493280930.204575) can0 6C7#04051101020001
(1493280930.204945) can0 30B#5F00110000000098
(1493280930.205059) can0 5F2#CB00
(1493280930.232511) can0 613#
(1493280930.243586) can0 1FD#0000000000000000
(1493280930.254452) can0 30B#5F00110000000098
(1493280930.278550) can0 3C0#6A7E1335
(1493280930.282553) can0 0CD#E8343F
(1493280930.296977) can0 1BFC38B1#0000000000000000
(1493280930.297325) can0 1BFC38BB#FFFFFFFFFFFFFFFF
(1493280930.297574) can0 1BFC38BA#0000000700000014
(1493280930.297963) can0 1BFC38B9#030296408005A3F4
(1493280930.298304) can0 1BFC38B8#0000000800000000
(1493280930.298559) can0 1BFC38B7#8001648425020210
(1493280930.298930) can0 1BFC38B6#0000089700000000
(1493280930.299206) can0 1BFC38B5#0502FF9202028292
(1493280930.299558) can0 1BFC38B4#110F01010000A317
(1493280930.299808) can0 1BFC38B3#8001648431001100
(1493280930.300185) can0 1BFC38B2#80016484838300D5
(1493280930.305235) can0 1FD#0000000000000000
(1493280930.305495) can0 30B#5F00110000000098
(1493280930.305851) can0 65E#880857F8A4DF0500
(1493280930.314701) can0 62F#4451000328
(1493280930.332719) can0 31F#85A884237622
(1493280930.354495) can0 30B#5F00110000000098
(1493280930.363609) can0 1FD#0000000000000000
(1493280930.381919) can0 3C0#6A7E1335
(1493280930.382802) can0 392#4F
(1493280930.404735) can0 6C7#04051101020001
(1493280930.404953) can0 30B#5F00110000000098
(1493280930.405068) can0 5F2#CA00
(1493280930.423588) can0 1FD#0000000000000000
(1493280930.433003) can0 61C#51EA3A
(1493280930.454460) can0 30B#5F00110000000098
(1493280930.483201) can0 215#
(1493280930.483571) can0 1FD#0000000000000000
(1493280930.485670) can0 3C0#6A7E1335
(1493280930.504867) can0 30B#5F00110000000098
(1493280930.533332) can0 026#
(1493280930.543584) can0 1FD#0000000000000000
(1493280930.545958) can0 1BFC38B1#0000000000000000
(1493280930.546195) can0 1BFC38BB#FFFFFFFFFFFFFFFF
(1493280930.546450) can0 1BFC38BA#535553500000001A
(1493280930.546834) can0 1BFC38B9#030296408005A3F4
(1493280930.547079) can0 1BFC38B8#0000000800000000
(1493280930.547471) can0 1BFC38B7#8001648425020210
(1493280930.547673) can0 1BFC38B6#0000089900000000
(1493280930.548061) can0 1BFC38B5#0502FF9202028292
(1493280930.548309) can0 1BFC38B4#110F01010000A317
(1493280930.548686) can0 1BFC38B3#8001648431001100
(1493280930.548934) can0 1BFC38B2#80016484838300D5
(1493280930.555152) can0 30B#5F00110000000098
(1493280930.573840) can0 630#33C203000F000403
(1493280930.583590) can0 70F#5E617A05239D5201
(1493280930.590053) can0 3C0#6A7E1335
(1493280930.603877) can0 6C7#04051101020001
(1493280930.604042) can0 1FD#0000000000000000
(1493280930.604342) can0 30B#5F00110000000098
(1493280930.604611) can0 5F2#CA00
(1493280930.633712) can0 7CD#3B871F239A80F823
(1493280930.654466) can0 30B#5F00110000000098
(1493280930.663838) can0 1FD#0000000000000000
(1493280930.683976) can0 360#B55394
(1493280930.693832) can0 3C0#6A7E1335
(1493280930.704739) can0 30B#5F00110000000098
(1493280930.723586) can0 1FD#0000000000000000
(1493280930.734096) can0 229#F6D80910BBE54B5C
(1493280930.754491) can0 30B#5F00110000000098
(1493280930.783594) can0 1FD#0000000000000000
(1493280930.784228) can0 07C#E727FA1998
(1493280930.797211) can0 3C0#6A7E1335
(1493280930.797214) can0 1BFC38B1#0000000000000000
(1493280930.797417) can0 1BFC38BB#FFFFFFFFFFFFFFFF
(1493280930.797953) can0 1BFC38BA#535553500000001A
(1493280930.798177) can0 1BFC38B9#030296408005A3F4
(1493280930.798548) can0 1BFC38B8#0000000800000000
(1493280930.798924) can0 1BFC38B7#8001648425020210
(1493280930.799194) can0 1BFC38B6#0000089C0000A317
(1493280930.799447) can0 1BFC38B5#0502FF9202028292
(1493280930.799818) can0 1BFC38B4#110F01010000A317
(1493280930.800235) can0 1BFC38B3#8001648431003322
(1493280930.800463) can0 1BFC38B2#8001648483838049
(1493280930.803618) can0 6C7#04051101020001
(1493280930.803977) can0 30B#5F00110000000098
(1493280930.803987) can0 5F2#CA00
(1493280930.804212) can0 643#000200
(1493280930.804617) can0 64E#00A3170000000000
(1493280930.804833) can0 65E#88089DF371C10800
(1493280930.805113) can0 6B8#6D08000000000000
(1493280930.805359) can0 6BC#7A822E51324C0702
(1493280930.814467) can0 62D#3490204F00
(1493280930.834351) can0 678#AAD5BE468D90037B
(1493280930.843587) can0 1FD#0000000000000000
(1493280930.854478) can0 30B#5F00110000000098
(1493280930.884480) can0 099#B084E548
(1493280930.900827) can0 3C0#6A7E1335
(1493280930.904750) can0 1FD#0000000000000000
(1493280930.905122) can0 30B#5F00110000000098
(1493280930.905236) can0 631#34CF00
(1493280930.913994) can0 6B6#390C1C000328
(1493280930.914240) can0 6B7#BEB4000008FF80FE
(1493280930.934594) can0 3E4#4F3D1542F4D2
(1493280930.954471) can0 30B#5F00110000000098
(1493280930.963847) can0 1FD#0000000000000000
(1493280930.984736) can0 153#1770CF7020B1B063
(1493280931.004091) can0 3C0#6A7E1335
(1493280931.004583) can0 6C7#04051101020001
(1493280931.004962) can0 30B#5F00110000000098
(1493280931.005085) can0 5F2#C900
(1493280931.023608) can0 1FD#0000000000000000
(1493280931.034843) can0 25A#BA31
(1493280931.045968) can0 1BFC38B1#0000000000000000
(1493280931.046199) can0 1BFC38BB#FFFFFFFFFFFFFFFF
(1493280931.046471) can0 1BFC38BA#535553500000001A
(1493280931.046845) can0 1BFC38B9#030296408005A3F4
(1493280931.047221) can0 1BFC38B8#0000000800000000
(1493280931.047497) can0 1BFC38B7#8001648425020210
(1493280931.047845) can0 1BFC38B6#0000089E000034A8
(1493280931.048096) can0 1BFC38B5#0502FF9202028292
(1493280931.048465) can0 1BFC38B4#110F01010000A317
(1493280931.048738) can0 1BFC38B3#8001648431003322
(1493280931.049101) can0 1BFC38B2#8001648483838049
(1493280931.055125) can0 30B#5F00110000000098
(1493280931.083644) can0 1FD#0000000000000000
(1493280931.085030) can0 375#3AB4CE1D9F9DBF25
(1493280931.104124) can0 30B#5F00110000000098
(1493280931.108348) can0 3C0#6A7E1335
(1493280931.135113) can0 1AA#
(1493280931.143609) can0 1FD#0000000000000000
(1493280931.154471) can0 30B#5F00110000000098
(1493280931.185274) can0 276#BEB8
(1493280931.204757) can0 6C7#04051101020001
(1493280931.204978) can0 1FD#0000000000000000
(1493280931.205226) can0 30B#5F00110000000098
(1493280931.205470) can0 5F2#C900
(1493280931.212470) can0 3C0#6A7E1335
(1493280931.235530) can0 57B#7C299D4214C6F646
(1493280931.254520) can0 30B#5F00110000000098
(1493280931.263977) can0 1FD#0000000000000000
(1493280931.285466) can0 61C#D3A6C151013AF249
(1493280931.297134) can0 1BFC38B1#0000000000000000
(1493280931.297338) can0 1BFC38BB#FFFFFFFFFFFFFFFF
(1493280931.297715) can0 1BFC38BA#535553500000001A
(1493280931.297977) can0 1BFC38B9#040096408008FC68
(1493280931.298347) can0 1BFC38B8#0000000800000000
(1493280931.298563) can0 1BFC38B7#800164842502024C
(1493280931.298985) can0 1BFC38B6#000008A100000000
(1493280931.299358) can0 1BFC38B5#0502FF9202028292
(1493280931.299615) can0 1BFC38B4#110F01010000A317
(1493280931.299960) can0 1BFC38B3#8001648431003322
(1493280931.300182) can0 1BFC38B2#8001648483838049
(1493280931.305208) can0 30B#5F00110000000098
(1493280931.305563) can0 65E#8808276756F20900
(1493280931.314944) can0 62F#4451000329
(1493280931.316614) can0 3C0#6A7E1335
(1493280931.323609) can0 1FD#0000000000000000
(1493280931.335611) can0 6C2#F50C
(1493280931.354478) can0 30B#5F00110000000098
(1493280931.383607) can0 1FD#0000000000000000
(1493280931.385819) can0 2CF#35A9853C29D5DE5B
(1493280931.404772) can0 6C7#04051101020001
(1493280931.404982) can0 30B#5F00110000000098
(1493280931.405103) can0 5F2#C900
(1493280931.419947) can0 3C0#6A7E1335
(1493280931.436004) can0 45E#E4D24C4ED3277B0A
(1493280931.443588) can0 1FD#0000000000000000
(1493280931.454508) can0 30B#5F00110000000098
(1493280931.486135) can0 05F#72C53A3009E2C246
(1493280931.504764) can0 1FD#0000000000000000
(1493280931.504974) can0 30B#5F00110000000098
(1493280931.523433) can0 3C0#6A7E1335
(1493280931.536274) can0 44F#3024E14BC5F68217
(1493280931.546018) can0 1BFC38B1#0000000000000000
(1493280931.546276) can0 1BFC38BB#FFFFFFFFFFFFFFFF
(1493280931.546652) can0 1BFC38BA#0000000700000014
(1493280931.547016) can0 1BFC38B9#040096408008FC68
(1493280931.547245) can0 1BFC38B8#0000000800000000
(1493280931.547499) can0 1BFC38B7#800164842502024C
(1493280931.547839) can0 1BFC38B6#000008A300000000
(1493280931.548093) can0 1BFC38B5#0502FF9202028292
(1493280931.548461) can0 1BFC38B4#110F01010000A317
(1493280931.548717) can0 1BFC38B3#8001648431003322
(1493280931.549088) can0 1BFC38B2#8001648483838049
(1493280931.555120) can0 30B#5F00110000000098
(1493280931.564003) can0 1FD#0000000000000000
(1493280931.586375) can0 40F#B48F1C5F8AB1860F
(1493280931.603983) can0 6C7#04051101020001
(1493280931.604222) can0 30B#5F00110000000098
(1493280931.604312) can0 5F2#C900
(1493280931.623768) can0 1FD#0000000000000000
(1493280931.627109) can0 3C0#6A7E1335
(1493280931.636568) can0 357#
(1493280931.654489) can0 30B#5F00110000000098
(1493280931.683615) can0 1FD#0000000000000000
(1493280931.686605) can0 75C#74
(1493280931.704770) can0 30B#5F00110000000098
(1493280931.730461) can0 3C0#6A7E1335
(1493280931.736760) can0 293#34BE710862857C17
(1493280931.743641) can0 1FD#0000000000000000
(1493280931.754491) can0 30B#5F00110000000098
(1493280931.786872) can0 575#8B5A5B73D3396D75
(1493280931.797116) can0 1BFC38B1#0000000000000000
(1493280931.797488) can0 1BFC38BB#FFFFFFFFFFFFFFFF
(1493280931.797721) can0 1BFC38BA#0000000700000014
(1493280931.798116) can0 1BFC38B9#040096408008FC68
(1493280931.798487) can0 1BFC38B8#0000000800000000
(1493280931.798751) can0 1BFC38B7#800164842502024C
(1493280931.799142) can0 1BFC38B6#000008A60000A317
(1493280931.799367) can0 1BFC38B5#0502FF9202028292
(1493280931.799757) can0 1BFC38B4#110F01010000A317
(1493280931.799962) can0 1BFC38B3#8001648432408877
(1493280931.800347) can0 1BFC38B2#8001648483830051
(1493280931.805345) can0 6C7#04051101020001
(1493280931.805634) can0 1FD#0000000000000000
(1493280931.806001) can0 30B#5F00110000000098
(1493280931.806005) can0 5F2#C900
(1493280931.806199) can0 643#000200
(1493280931.806507) can0 64E#00A3170000000000
(1493280931.806877) can0 65E#88089CA6A8A30500
(1493280931.807115) can0 6B8#6D08000000000000
(1493280931.807347) can0 6BC#7A822E51324C070A
(1493280931.834320) can0 3C0#6A7E1335
(1493280931.837049) can0 259#
(1493280931.854487) can0 30B#5F00110000000098
(1493280931.863741) can0 1FD#0000000000000000
(1493280931.887133) can0 48F#C1845536DEC8B747
(1493280931.904870) can0 30B#5F00110000000098
(1493280931.913883) can0 6B6#390C1C000329
(1493280931.914120) can0 6B7#BEB4000008FF80FE
(1493280931.923654) can0 1FD#0000000000000000
(1493280931.937203) can0 7E6#A4
(1493280931.938197) can0 3C0#6A7E1335
(1493280931.954531) can0 30B#5F00110000000098
(1493280931.983624) can0 1FD#0000000000000000
(1493280931.987372) can0 5E0#7F153C4037F16C38
(1493280932.004749) can0 6C7#04051101020001
(1493280932.004988) can0 30B#5F00110000000098
(1493280932.005210) can0 5F2#C800
(1493280932.037500) can0 088#AAF20C42E46F4D0D
(1493280932.042246) can0 3C0#6A7E1335
(1493280932.043584) can0 1FD#0000000000000000
(1493280932.046027) can0 1BFC38B1#0000000000000000
(1493280932.046391) can0 1BFC38BB#FFFFFFFFFFFFFFFF
(1493280932.046600) can0 1BFC38BA#0000000700000014
(1493280932.046976) can0 1BFC38B9#040096408008FC68
(1493280932.047224) can0 1BFC38B8#0000000800000000
(1493280932.047601) can0 1BFC38B7#800164842502024C
(1493280932.047999) can0 1BFC38B6#000008A802028292
(1493280932.048272) can0 1BFC38B5#0502FF9202028292
(1493280932.048498) can0 1BFC38B4#110F01010000A317
(1493280932.048887) can0 1BFC38B3#8001648432408877
(1493280932.049133) can0 1BFC38B2#8001648483830051
(1493280932.055280) can0 30B#5F00110000000098
(1493280932.087618) can0 38E#0236EA3C21AE0E7B
(1493280932.104251) can0 1FD#0000000000000000
(1493280932.104485) can0 30B#5F00110000000098
(1493280932.137920) can0 688#83338B12FE3B
(1493280932.146372) can0 3C0#6A7E1335
(1493280932.154637) can0 30B#5F00110000000098
(1493280932.164126) can0 1FD#0000000000000000
(1493280932.187971) can0 3A0#D1754D4FF99D7913
(1493280932.204890) can0 6C7#04051101020001
(1493280932.205088) can0 30B#5F00110000000098
(1493280932.205390) can0 5F2#C800
(1493280932.223663) can0 1FD#0000000000000000
(1493280932.238292) can0 37F#B1400C030E705275
(1493280932.250223) can0 3C0#6A7E1335
(1493280932.254655) can0 30B#5F00110000000098
(1493280932.283752) can0 1FD#0000000000000000
(1493280932.288379) can0 692#EC38
(1493280932.297141) can0 1BFC38B1#0000000000000000
(1493280932.297524) can0 1BFC38BB#FFFFFFFFFFFFFFFF
(1493280932.297748) can0 1BFC38BA#0000000700000014
(1493280932.298206) can0 1BFC38B9#050296408005A3F4
(1493280932.298378) can0 1BFC38B8#0000000800000000
(1493280932.298752) can0 1BFC38B7#8008019832030388
(1493280932.298999) can0 1BFC38B6#000008AB00000000
(1493280932.299393) can0 1BFC38B5#0502FF9202028292
(1493280932.299775) can0 1BFC38B4#110F01010000A317
(1493280932.300016) can0 1BFC38B3#8001648432408877
(1493280932.300265) can0 1BFC38B2#8001648483830051
(1493280932.305398) can0 30B#5F00110000000098
(1493280932.305616) can0 65E#88082B98C0370600
(1493280932.314665) can0 62F#445100032A
(1493280932.338512) can0 664#
(1493280932.343757) can0 1FD#0000000000000000
(1493280932.353965) can0 3C0#6A7E1335
(1493280932.354580) can0 30B#5F00110000000098
(1493280932.388658) can0 7E8#7BE5AE347050AD3A
(1493280932.405378) can0 6C7#04051101020001
(1493280932.405628) can0 1FD#0000000000000000
(1493280932.406017) can0 30B#5F00110000000098
(1493280932.406128) can0 5F2#C800
(1493280932.414004) can0 64E#00A3270000000000
(1493280932.438757) can0 50B#54C0FA4799
(1493280932.454632) can0 30B#5F00110000000098
(1493280932.457590) can0 3C0#6A7E1335
(1493280932.463929) can0 1FD#0000000000000000
(1493280932.489029) can0 644#BBCE7423CD7CFB
(1493280932.505259) can0 30B#5F00110000000098
(1493280932.523762) can0 1FD#0000000000000000
(1493280932.539155) can0 28D#CBB8DB082D469454
(1493280932.546010) can0 1BFC38B1#0000000000000000
(1493280932.546411) can0 1BFC38BB#FFFFFFFFFFFFFFFF
(1493280932.546635) can0 1BFC38BA#535553500000001A
(1493280932.547010) can0 1BFC38B9#050296408005A3F4
(1493280932.547249) can0 1BFC38B8#0000000800000000
(1493280932.547626) can0 1BFC38B7#8008019832030388
(1493280932.547978) can0 1BFC38B6#000008AD00000000
(1493280932.548221) can0 1BFC38B5#0502FF9202028292
(1493280932.548478) can0 1BFC38B4#110F01010000A317
(1493280932.548851) can0 1BFC38B3#8001648432408877
(1493280932.549095) can0 1BFC38B2#8001648483830051
(1493280932.554287) can0 30B#5F00110000000098
(1493280932.561378) can0 3C0#6A7E1335
(1493280932.574042) can0 630#33C37803E0080272
(1493280932.583931) can0 1FD#0000000000000000
(1493280932.589162) can0 04D#26E40D68CC4B7503
(1493280932.605257) can0 6C7#04051101020001
(1493280932.605493) can0 30B#5F00110000000098
(1493280932.605767) can0 5F2#C800
(1493280932.639408) can0 615#DABBC778A704B8
(1493280932.643762) can0 1FD#0000000000000000
(1493280932.654669) can0 30B#5F00110000000098
(1493280932.664627) can0 3C0#6A7E1335
(1493280932.689594) can0 24A#1F737A08AE5814
(1493280932.705261) can0 1FD#0000000000000000
(1493280932.705502) can0 30B#5F00110000000098
(1493280932.739658) can0 557#F24C565C4035B32C
(1493280932.754642) can0 30B#5F00110000000098
(1493280932.763916) can0 1FD#0000000000000000
(1493280932.767969) can0 3C0#6A7E1335
(1493280932.789824) can0 57B#B085606786A21357
(1493280932.797263) can0 1BFC38B1#0000000000000000
(1493280932.797544) can0 1BFC38BB#FFFFFFFFFFFFFFFF
(1493280932.797891) can0 1BFC38BA#535553500000001A
(1493280932.798141) can0 1BFC38B9#050296408005A3F4
(1493280932.798529) can0 1BFC38B8#0000000800000000
(1493280932.798921) can0 1BFC38B7#8008019832030388
(1493280932.799100) can0 1BFC38B6#000008B00000A327
(1493280932.799408) can0 1BFC38B5#0502FF9202028292
(1493280932.799780) can0 1BFC38B4#110F01010000A327
(1493280932.799963) can0 1BFC38B3#800164843100DDCC
(1493280932.800401) can0 1BFC38B2#80016484838300F7
(1493280932.806024) can0 6C7#04051101020001
(1493280932.806137) can0 30B#5F00110000000098
(1493280932.806415) can0 5F2#C700
(1493280932.806494) can0 643#000200
(1493280932.806870) can0 64E#00A3270000000000
(1493280932.807162) can0 65E#88085830D2E60700
(1493280932.807411) can0 6B8#6D08000000000000
(1493280932.807614) can0 6BC#7A822E51324C0718
(1493280932.814550) can0 62D#3491022E01
(1493280932.823764) can0 1FD#0000000000000000
(1493280932.840074) can0 292#1FC3797FD7
(1493280932.854645) can0 30B#5F00110000000098
(1493280932.871749) can0 3C0#6A7E1335
(1493280932.883798) can0 1FD#0000000000000000
(1493280932.890151) can0 45C#A48D1743E926817E
(1493280932.904928) can0 30B#5F00110000000098
(1493280932.905129) can0 631#34D000
(1493280932.914271) can0 6B6#390C1C00032A
(1493280932.914504) can0 6B7#BEB4000008FF80FE
(1493280932.940263) can0 419#176D15536624D514
(1493280932.943765) can0 1FD#0000000000000000
(1493280932.954642) can0 30B#5F00110000000098
(1493280932.975646) can0 3C0#6A7E1335
(1493280932.990400) can0 50B#33704A18207B7B4B
(1493280933.004801) can0 6C7#04051101020001
(1493280933.005170) can0 1FD#0000000000000000
(1493280933.005356) can0 30B#5F00110000000098
(1493280933.005478) can0 5F2#C700
(1493280933.040688) can0 615#C77F33725F60B94A
(1493280933.046017) can0 1BFC38B1#0000000000000000
(1493280933.046393) can0 1BFC38BB#FFFFFFFFFFFFFFFF
(1493280933.046646) can0 1BFC38BA#535553500000001A
(1493280933.047045) can0 1BFC38B9#050296408005A3F4
(1493280933.047423) can0 1BFC38B8#0000000800000000
(1493280933.047617) can0 1BFC38B7#8008019832030388
(1493280933.047968) can0 1BFC38B6#000008B2000034A8
(1493280933.048238) can0 1BFC38B5#0502FF9202028292
(1493280933.048613) can0 1BFC38B4#110F01010000A327
(1493280933.048851) can0 1BFC38B3#800164843100DDCC
(1493280933.049237) can0 1BFC38B2#80016484838300F7
(1493280933.055277) can0 30B#5F00110000000098
(1493280933.064287) can0 1FD#0000000000000000
(1493280933.079631) can0 3C0#6A7E1335
(1493280933.090773) can0 0D4#0DB9CD2A2C0EFB
(1493280933.104402) can0 30B#5F00110000000098
(1493280933.123770) can0 1FD#0000000000000000
(1493280933.141021) can0 074#6C43AE45EF654603
(1493280933.154651) can0 30B#5F00110000000098
(1493280933.183138) can0 3C0#6A7E1335
(1493280933.183730) can0 1FD#0000000000000000
(1493280933.191026) can0 06C#75085A5AFE42EA1F
(1493280933.205028) can0 6C7#04051101020001
(1493280933.205404) can0 30B#5F00110000000098
(1493280933.205515) can0 5F2#C600
(1493280933.241315) can0 721#D55306347D
(1493280933.243777) can0 1FD#0000000000000000
(1493280933.254689) can0 30B#5F00110000000098
(1493280933.286770) can0 3C0#6A7E1335
(1493280933.291385) can0 56F#67722B0F88F1B055
(1493280933.297432) can0 1BFC38B1#0000000000000000
(1493280933.297654) can0 1BFC38BB#FFFFFFFFFFFFFFFF
(1493280933.298027) can0 1BFC38BA#535553500000001A
(1493280933.298278) can0 1BFC38B9#060096408008FC68
(1493280933.298632) can0 1BFC38B8#0000000800000000
(1493280933.299009) can0 1BFC38B7#80016484250202C2
(1493280933.299270) can0 1BFC38B6#000008B500000000
(1493280933.299633) can0 1BFC38B5#0502FF9202028292
(1493280933.299895) can0 1BFC38B4#110F01010000A327
(1493280933.300155) can0 1BFC38B3#800164843100DDCC
(1493280933.300508) can0 1BFC38B2#80016484838300F7
(1493280933.303965) can0 1FD#0000000000000000
(1493280933.304154) can0 30B#5F00110000000098
(1493280933.304447) can0 65E#880845B5B7AF0A00
(1493280933.315188) can0 62F#445100032B
(1493280933.341556) can0 7E8#EF15866AF49C2D67
(1493280933.354659) can0 30B#5F00110000000098
(1493280933.363908) can0 1FD#0000000000000000
(1493280933.390275) can0 3C0#6A7E1335
(1493280933.391620) can0 0BB#1418
(1493280933.405153) can0 6C7#04051101020001
(1493280933.405417) can0 30B#5F00110000000098
(1493280933.405522) can0 5F2#C500
(1493280933.423781) can0 1FD#0000000000000000
(1493280933.441926) can0 22F#2F075B0E04D3C65A
(1493280933.454663) can0 30B#5F00110000000098
(1493280933.483788) can0 1FD#0000000000000000
(1493280933.491902) can0 2C3#30E1C17337C32A35
(1493280933.493398) can0 3C0#6A7E1335
(1493280933.505040) can0 30B#5F00110000000098
(1493280933.542202) can0 63B#27297138A7FE7558
(1493280933.543808) can0 1FD#0000000000000000
(1493280933.546158) can0 1BFC38B1#0000000000000000
(1493280933.546409) can0 1BFC38BB#FFFFFFFFFFFFFFFF
(1493280933.546785) can0 1BFC38BA#0000000700000014
(1493280933.547032) can0 1BFC38B9#060096408008FC68
(1493280933.547424) can0 1BFC38B8#0000000800000000
(1493280933.547648) can0 1BFC38B7#80016484250202C2
(1493280933.548016) can0 1BFC38B6#000008B700000000
(1493280933.548267) can0 1BFC38B5#0502FF9202028292
(1493280933.548638) can0 1BFC38B4#110F01010000A327
(1493280933.549015) can0 1BFC38B3#800164843100DDCC
(1493280933.549272) can0 1BFC38B2#80016484838300F7
(1493280933.555411) can0 30B#5F00110000000098
(1493280933.592241) can0 5B8#A6416078DAFCE842
(1493280933.597038) can0 3C0#6A7E1335
(1493280933.604110) can0 6C7#04051101020001
(1493280933.604453) can0 1FD#0000000000000000
(1493280933.604661) can0 30B#5F00110000000098
(1493280933.604745) can0 5F2#C500
(1493280933.642586) can0 531#57489353A15A6169
(1493280933.654667) can0 30B#5F00110000000098
(1493280933.664164) can0 1FD#0000000000000000
(1493280933.692664) can0 6F5#294C123FDD9E9566
(1493280933.701038) can0 3C0#6A7E1335
(1493280933.705072) can0 30B#5F00110000000098
(1493280933.723825) can0 1FD#0000000000000000
(1493280933.742791) can0 23C#D13BC34DF8CA6362
(1493280933.754670) can0 30B#5F00110000000098
(1493280933.783796) can0 1FD#0000000000000000
(1493280933.793081) can0 03A#C87105266A9A
(1493280933.797323) can0 1BFC38B1#0000000000000000
(1493280933.797662) can0 1BFC38BB#FFFFFFFFFFFFFFFF
(1493280933.798036) can0 1BFC38BA#0000000700000014
(1493280933.798309) can0 1BFC38B9#060096408008FC68
(1493280933.798666) can0 1BFC38B8#0000000800000000
(1493280933.798949) can0 1BFC38B7#80016484250202C2
(1493280933.799318) can0 1BFC38B6#000008BA0000A327
(1493280933.799513) can0 1BFC38B5#0502FF9202028292
(1493280933.799897) can0 1BFC38B4#110F01010000A327
(1493280933.800136) can0 1BFC38B3#800164843100FFEE
(1493280933.800567) can0 1BFC38B2#800164848383805B
(1493280933.803752) can0 6C7#04051101020001
(1493280933.804040) can0 30B#5F00110000000098
(1493280933.804289) can0 5F2#C500
(1493280933.804383) can0 643#000200
(1493280933.804790) can0 3C0#6A7E1335
(1493280933.804793) can0 64E#00A3270000000000
(1493280933.804997) can0 65E#88084B5571D10900
(1493280933.805386) can0 6B8#6D08000000000000
(1493280933.805661) can0 6BC#7A822E51324C077E
(1493280933.843180) can0 3C2#6E6D121B8576D344
(1493280933.843800) can0 1FD#0000000000000000
(1493280933.854698) can0 30B#5F00110000000098
(1493280933.893445) can0 134#BC39FE7970FFD52D
(1493280933.905042) can0 1FD#0000000000000000
(1493280933.905288) can0 30B#5F00110000000098
(1493280933.908412) can0 3C0#6A7E1335
(1493280933.914450) can0 6B6#390C1C00032B
(1493280933.914823) can0 6B7#BEB4000008FF80FE
(1493280933.943559) can0 33A#17FE4B
(1493280933.954703) can0 30B#5F00110000000098
(1493280933.964048) can0 1FD#0000000000000000
(1493280933.993837) can0 480#CC5DAC71B191D931
(1493280934.005059) can0 6C7#04051101020001
(1493280934.005294) can0 30B#5F00110000000098
(1493280934.005569) can0 5F2#C500
(1493280934.012039) can0 3C0#6A7E1335
(1493280934.023834) can0 1FD#0000000000000000
(1493280934.043958) can0 539#52EC3A1B
(1493280934.046171) can0 1BFC38B1#0000000000000000
(1493280934.046423) can0 1BFC38BB#FFFFFFFFFFFFFFFF
(1493280934.046801) can0 1BFC38BA#0000000700000014
(1493280934.047171) can0 1BFC38B9#060096408008FC68
(1493280934.047452) can0 1BFC38B8#0000000800000000
(1493280934.047824) can0 1BFC38B7#80016484250202C2
(1493280934.048014) can0 1BFC38B6#000008BC02028292
(1493280934.048318) can0 1BFC38B5#0502FF9202028292
(1493280934.048681) can0 1BFC38B4#110F01010000A327
(1493280934.049058) can0 1BFC38B3#800164843100FFEE
(1493280934.049313) can0 1BFC38B2#800164848383805B
(1493280934.055339) can0 30B#5F00110000000098
(1493280934.083831) can0 1FD#0000000000000000
(1493280934.094050) can0 0E2#0BEB2C351FFBFD6C
(1493280934.104430) can0 30B#5F00110000000098
(1493280934.115394) can0 3C0#6A7E1335
(1493280934.143803) can0 1FD#0000000000000000
(1493280934.144190) can0 294#17C6614FCF824E30
(1493280934.154708) can0 30B#5F00110000000098
(1493280934.194481) can0 2C3#391D9A708566A528
(1493280934.205065) can0 6C7#04051101020001
(1493280934.205292) can0 1FD#0000000000000000
(1493280934.205550) can0 30B#5F00110000000098
(1493280934.205672) can0 5F2#C500
(1493280934.219266) can0 3C0#6A7E1335
(1493280934.244553) can0 0D7#0ADD786D0CEA50
(1493280934.254681) can0 30B#5F00110000000098
(1493280934.264058) can0 1FD#0000000000000000
(1493280934.294824) can0 145#7CE926457F4C
(1493280934.297332) can0 1BFC38B1#0000000000000000
(1493280934.297678) can0 1BFC38BB#FFFFFFFFFFFFFFFF
(1493280934.298056) can0 1BFC38BA#0000000700000014
(1493280934.298302) can0 1BFC38B9#070296408005A3F4
(1493280934.298679) can0 1BFC38B8#0000000800000000
(1493280934.299053) can0 1BFC38B7#80016484250202FE
(1493280934.299319) can0 1BFC38B6#000008BF00000000
(1493280934.299572) can0 1BFC38B5#0502FF9202028292
(1493280934.299938) can0 1BFC38B4#110F01010000A327
(1493280934.300159) can0 1BFC38B3#800164843100FFEE
(1493280934.300533) can0 1BFC38B2#800164848383805B
(1493280934.303909) can0 30B#5F00110000000098
(1493280934.304169) can0 65E#8808DF8386EC0C00
(1493280934.315194) can0 62F#445100032C
(1493280934.322675) can0 3C0#6A7E1335
(1493280934.323769) can0 1FD#0000000000000000
(1493280934.344950) can0 1AA#71AD88
(1493280934.354679) can0 30B#5F00110000000098
(1493280934.383811) can0 1FD#0000000000000000
(1493280934.395071) can0 751#DB9FFA108AFC3175
(1493280934.405072) can0 6C7#04051101020001
(1493280934.405294) can0 30B#5F00110000000098
(1493280934.405418) can0 5F2#C500
(1493280934.426181) can0 3C0#6A7E1335
(1493280934.443825) can0 1FD#0000000000000000
(1493280934.445243) can0 162#B848C94344127370
(1493280934.454810) can0 30B#5F00110000000098
(1493280934.495313) can0 4AA#630D71
(1493280934.505061) can0 1FD#0000000000000000
(1493280934.505265) can0 30B#5F00110000000098
(1493280934.530066) can0 3C0#6A7E1335
(1493280934.545516) can0 2A0#0DE2B63A63D5427F
(1493280934.546186) can0 1BFC38B1#0000000000000000
(1493280934.546566) can0 1BFC38BB#FFFFFFFFFFFFFFFF
(1493280934.546950) can0 1BFC38BA#535553500000001A
(1493280934.547181) can0 1BFC38B9#070296408005A3F4
(1493280934.547452) can0 1BFC38B8#0000000800000000
(1493280934.547790) can0 1BFC38B7#80016484250202FE
(1493280934.548196) can0 1BFC38B6#000008C100000000
(1493280934.548419) can0 1BFC38B5#0502FF9202028292
(1493280934.548790) can0 1BFC38B4#110F01010000A327
(1493280934.549040) can0 1BFC38B3#800164843100FFEE
(1493280934.549416) can0 1BFC38B2#800164848383805B
(1493280934.555437) can0 30B#5F00110000000098
(1493280934.564313) can0 1FD#0000000000000000
(1493280934.574086) can0 630#33C414
(1493280934.595728) can0 35A#E83BE82731BC
(1493280934.604963) can0 6C7#04051101020001
(1493280934.605182) can0 30B#5F00110000000098
(1493280934.605431) can0 5F2#C500
(1493280934.623942) can0 1FD#0000000000000000
(1493280934.633399) can0 3C0#6A7E1335
(1493280934.645893) can0 1ED#3DA6
(1493280934.654817) can0 30B#5F00110000000098
(1493280934.684010) can0 1FD#0000000000000000
(1493280934.695957) can0 7B9#B1AF433463A9BE16
(1493280934.705203) can0 30B#5F00110000000098
(1493280934.736693) can0 3C0#6A7E1335
(1493280934.744076) can0 1FD#0000000000000000
(1493280934.746240) can0 74D#8DB7DF
(1493280934.754844) can0 30B#5F00110000000098
(1493280934.796368) can0 061#289B3D33C3197611
(1493280934.797571) can0 1BFC38B1#0000000000000000
(1493280934.797820) can0 1BFC38BB#FFFFFFFFFFFFFFFF
(1493280934.798193) can0 1BFC38BA#535553500000001A
(1493280934.798405) can0 1BFC38B9#070296408005A3F4
(1493280934.798811) can0 1BFC38B8#0000000800000000
(1493280934.799070) can0 1BFC38B7#80016484250202FE
(1493280934.799439) can0 1BFC38B6#000008C40000A327
(1493280934.799692) can0 1BFC38B5#0502FF9202028292
(1493280934.800072) can0 1BFC38B4#110F01010000A327
(1493280934.800312) can0 1BFC38B3#8001648432404433
(1493280934.800682) can0 1BFC38B2#8001648483830063
(1493280934.803907) can0 6C7#04051101020001
(1493280934.804190) can0 1FD#0000000000000000
(1493280934.804469) can0 30B#5F00110000000098
(1493280934.804667) can0 5F2#C500
(1493280934.804794) can0 643#000200
(1493280934.805159) can0 64E#00A3270000000000
(1493280934.805405) can0 65E#8808F8648B990700
(1493280934.805662) can0 6B8#6D08000000000000
(1493280934.806073) can0 6BC#7A822E51324C078E
(1493280934.814832) can0 62D#349220C900
(1493280934.840653) can0 3C0#6A7E1335
(1493280934.846597) can0 396#
(1493280934.854823) can0 30B#5F00110000000098
(1493280934.864021) can0 1FD#0000000000000000
(1493280934.896596) can0 7A3#7F07FB434472E36B
(1493280934.905099) can0 30B#5F00110000000098
(1493280934.905568) can0 631#34D100
(1493280934.914200) can0 6B6#390C1C00032C
(1493280934.914415) can0 6B7#BEB4000008FF80FE
(1493280934.923949) can0 1FD#0000000000000000
(1493280934.944065) can0 3C0#6A7E1335
(1493280934.946707) can0 4E5#A747266B3F18672E
(1493280934.954852) can0 30B#5F00110000000098
(1493280934.983950) can0 1FD#0000000000000000
(1493280934.996853) can0 0D3#
(1493280935.005072) can0 6C7#04051101020001
(1493280935.005325) can0 30B#5F00110000000098
(1493280935.005437) can0 5F2#C500
(1493280935.043954) can0 1FD#0000000000000000
(1493280935.046157) can0 1BFC38B1#0000000000000000
(1493280935.046532) can0 1BFC38BB#FFFFFFFFFFFFFFFF
(1493280935.046786) can0 1BFC38BA#535553500000001A
(1493280935.046901) can0 482#F3D57E323BCC4725
(1493280935.047153) can0 1BFC38B9#070296408005A3F4
(1493280935.047411) can0 3C0#6A7E1335
(1493280935.047664) can0 1BFC38B8#0000000800000000
(1493280935.048032) can0 1BFC38B7#80016484250202FE
(1493280935.048445) can0 1BFC38B6#000008C6000034A8
(1493280935.048698) can0 1BFC38B5#0502FF9202028292
(1493280935.049065) can0 1BFC38B4#110F01010000A327
(1493280935.049342) can0 1BFC38B3#8001648432404433
(1493280935.049707) can0 1BFC38B2#8001648483830063
(1493280935.055497) can0 30B#5F00110000000098
(1493280935.097219) can0 268#9E75063C
(1493280935.104457) can0 1FD#0000000000000000
(1493280935.104842) can0 30B#5F00110000000098
(1493280935.147339) can0 2C7#53202D38284B9075
(1493280935.151189) can0 3C0#6A7E1335
(1493280935.154837) can0 30B#5F00110000000098
(1493280935.164333) can0 1FD#0000000000000000
(1493280935.197465) can0 494#EB6406072A68D06B
(1493280935.205075) can0 6C7#04051101020001
(1493280935.205344) can0 30B#5F00110000000098
(1493280935.205447) can0 5F2#C500
(1493280935.223970) can0 1FD#0000000000000000
(1493280935.247760) can0 75B#6B1063
(1493280935.254782) can0 30B#5F00110000000098
(1493280935.255167) can0 3C0#6A7E1335
(1493280935.283983) can0 1FD#0000000000000000
(1493280935.297459) can0 1BFC38B1#0000000000000000
(1493280935.297693) can0 25E#4229523E43D77674
(1493280935.297696) can0 1BFC38BB#FFFFFFFFFFFFFFFF
(1493280935.298119) can0 1BFC38BA#535553500000001A
(1493280935.298580) can0 1BFC38B9#000096408008FC68
(1493280935.298824) can0 1BFC38B8#0000000800000000
(1493280935.299219) can0 1BFC38B7#800164842502023A
(1493280935.299589) can0 1BFC38B6#000008C900000000
(1493280935.299837) can0 1BFC38B5#0502FF9202028292
(1493280935.300220) can0 1BFC38B4#110F01010000A327
(1493280935.300424) can0 1BFC38B3#8001648432404433
(1493280935.300810) can0 1BFC38B2#8001648483830063
(1493280935.305592) can0 30B#5F00110000000098
(1493280935.305965) can0 65E#88081272BAFC0800
(1493280935.315102) can0 62F#445100032D
(1493280935.343992) can0 1FD#0000000000000000
(1493280935.347972) can0 176#83EFDD2249EA1212
(1493280935.354836) can0 30B#5F00110000000098
(1493280935.358803) can0 3C0#6A7E1335
(1493280935.398145) can0 47A#0A5D1373
(1493280935.405086) can0 6C7#04051101020001
(1493280935.405327) can0 1FD#0000000000000000
(1493280935.405736) can0 30B#5F00110000000098
(1493280935.405809) can0 5F2#C500
(1493280935.448369) can0 6A2#385D3E0A0A493701
(1493280935.454835) can0 30B#5F00110000000098
(1493280935.462458) can0 3C0#6A7E1335
(1493280935.464083) can0 1FD#0000000000000000
(1493280935.498473) can0 0A1#BFCA587B699B
(1493280935.505086) can0 30B#5F00110000000098
(1493280935.523963) can0 1FD#0000000000000000
(1493280935.546219) can0 1BFC38B1#0000000000000000
(1493280935.546587) can0 1BFC38BB#FFFFFFFFFFFFFFFF
(1493280935.546979) can0 1BFC38BA#0000000700000014
(1493280935.547196) can0 1BFC38B9#000096408008FC68
(1493280935.547574) can0 1BFC38B8#0000000800000000
(1493280935.547833) can0 1BFC38B7#800164842502023A
(1493280935.548193) can0 1BFC38B6#000008CB00000000
(1493280935.548415) can0 1BFC38B5#0502FF9202028292
(1493280935.548554) can0 002#91E6
(1493280935.548830) can0 1BFC38B4#110F01010000A327
(1493280935.549191) can0 1BFC38B3#8001648432404433
(1493280935.549439) can0 1BFC38B2#8001648483830063
(1493280935.555492) can0 30B#5F00110000000098
(1493280935.566298) can0 3C0#6A7E1335
(1493280935.583981) can0 1FD#0000000000000000
(1493280935.598714) can0 68D#C0ECBB1CE8456201
(1493280935.604084) can0 6C7#04051101020001
(1493280935.604340) can0 30B#5F00110000000098
(1493280935.604450) can0 5F2#C600
(1493280935.643991) can0 1FD#0000000000000000
(1493280935.648979) can0 470#E7FCD053CEA6B326
(1493280935.654838) can0 30B#5F00110000000098
(1493280935.669841) can0 3C0#6A7E1335
(1493280935.699111) can0 515#117E2A1B8C168D13
(1493280935.705214) can0 1FD#0000000000000000
(1493280935.705458) can0 30B#5F00110000000098
(1493280935.749243) can0 713#D500A025
(1493280935.754844) can0 30B#5F00110000000098
(1493280935.764342) can0 1FD#0000000000000000
(1493280935.773202) can0 3C0#6A7E1335
(1493280935.797494) can0 1BFC38B1#0000000000000000
(1493280935.797870) can0 1BFC38BB#FFFFFFFFFFFFFFFF
(1493280935.798091) can0 1BFC38BA#0000000700000014
(1493280935.798469) can0 1BFC38B9#000096408008FC68
(1493280935.798716) can0 1BFC38B8#0000000800000000
(1493280935.799109) can0 1BFC38B7#800164842502023A
(1493280935.799339) can0 188#8A1C195D2B705156
(1493280935.799341) can0 1BFC38B6#000008CE0000A327
(1493280935.799730) can0 1BFC38B5#0502FF9202028292
(1493280935.800247) can0 1BFC38B4#110F01010000A327
(1493280935.800472) can0 1BFC38B3#8001648431009988
(1493280935.800852) can0 1BFC38B2#80016484838300F9
(1493280935.803981) can0 6C7#04051101020001
(1493280935.804258) can0 30B#5F00110000000098
(1493280935.804467) can0 5F2#C600
(1493280935.804555) can0 643#000200
(1493280935.804948) can0 64E#00A3270000000000
(1493280935.805197) can0 65E#8808A083BB570700
(1493280935.805447) can0 6B8#6D08000000000000
(1493280935.805822) can0 6BC#7A822E51324C0792
(1493280935.823989) can0 1FD#0000000000000000
(1493280935.849468) can0 0DC#35B9
(1493280935.854852) can0 30B#5F00110000000098
(1493280935.876586) can0 3C0#6A7E1335
(1493280935.883929) can0 1FD#0000000000000000
(1493280935.899751) can0 498#E7E47D039A
(1493280935.905095) can0 30B#5F00110000000098
(1493280935.914377) can0 6B6#390C1C00032D
(1493280935.914721) can0 6B7#BEB4000008FF80FE
(1493280935.944109) can0 1FD#0000000000000000
(1493280935.949862) can0 707#30D1B25695155825
(1493280935.954880) can0 30B#5F00110000000098
(1493280935.979689) can0 3C0#6A7E1335
(1493280935.999969) can0 6F5#7D
(1493280936.005098) can0 6C7#04051101020001
(1493280936.005351) can0 1FD#0000000000000000
(1493280936.005600) can0 30B#5F00110000000098
(1493280936.005863) can0 5F2#C600
(1493280936.046389) can0 1BFC38B1#0000000000000000
(1493280936.046612) can0 1BFC38BB#FFFFFFFFFFFFFFFF
(1493280936.047006) can0 1BFC38BA#0000000700000014
(1493280936.047223) can0 1BFC38B9#000096408008FC68
(1493280936.047599) can0 1BFC38B8#0000000800000000
(1493280936.047849) can0 1BFC38B7#800164842502023A
(1493280936.048236) can0 1BFC38B6#000008D002028292
(1493280936.048470) can0 1BFC38B5#0502FF9202028292
(1493280936.048859) can0 1BFC38B4#110F01010000A327
(1493280936.049120) can0 1BFC38B3#8001648431009988
(1493280936.049482) can0 1BFC38B2#80016484838300F9
(1493280936.050105) can0 31C#339A894C
(1493280936.055614) can0 30B#5F00110000000098
(1493280936.064384) can0 1FD#0000000000000000
(1493280936.083311) can0 3C0#6A7E1335
(1493280936.100240) can0 68E#BEE69774A1
(1493280936.104727) can0 30B#5F00110000000098
(1493280936.124145) can0 1FD#0000000000000000
(1493280936.150498) can0 5D9#2FA16C
(1493280936.154857) can0 30B#5F00110000000098
(1493280936.184105) can0 1FD#0000000000000000
(1493280936.187356) can0 3C0#6A7E1335
(1493280936.200505) can0 573#8D275D574FD63071
(1493280936.205478) can0 6C7#04051101020001
(1493280936.205741) can0 30B#5F00110000000098
(1493280936.205845) can0 5F2#C600
(1493280936.244109) can0 1FD#0000000000000000
(1493280936.250769) can0 77B#CD1F
(1493280936.254896) can0 30B#5F00110000000098
(1493280936.290976) can0 3C0#6A7E1335
(1493280936.297730) can0 1BFC38B1#0000000000000000
(1493280936.298113) can0 1BFC38BB#FFFFFFFFFFFFFFFF
(1493280936.298325) can0 1BFC38BA#0000000700000014
(1493280936.298712) can0 1BFC38B9#010296408005A3F4
(1493280936.299085) can0 1BFC38B8#0000000800000000
(1493280936.299352) can0 1BFC38B7#8001648425020276
(1493280936.299585) can0 1BFC38B6#000008D300000000
(1493280936.299972) can0 1BFC38B5#0502FF9202028292
(1493280936.300226) can0 1BFC38B4#110F01010000A327
(1493280936.300585) can0 1BFC38B3#8001648431009988
(1493280936.300840) can0 4B7#AED04058
(1493280936.300843) can0 1BFC38B2#80016484838300F9
(1493280936.304231) can0 1FD#0000000000000000
(1493280936.304607) can0 30B#5F00110000000098
(1493280936.304899) can0 65E#8808E36270530700
(1493280936.315518) can0 62F#445100032E
(1493280936.350999) can0 02D#54E9862D22E7A658
(1493280936.354869) can0 30B#5F00110000000098
(1493280936.364108) can0 1FD#0000000000000000
(1493280936.394729) can0 3C0#6A7E1335
(1493280936.404234) can0 7CF#88
(1493280936.405484) can0 6C7#04051101020001
(1493280936.405734) can0 30B#5F00110000000098
(1493280936.405849) can0 5F2#C600
(1493280936.424127) can0 1FD#0000000000000000
(1493280936.451239) can0 536#1EEBFA38C41B7B5B
(1493280936.454989) can0 30B#5F00110000000098
(1493280936.484112) can0 1FD#0000000000000000
(1493280936.498192) can0 3C0#6A7E1335
(1493280936.501384) can0 500#6531C523DA127758
(1493280936.505410) can0 30B#5F00110000000098
(1493280936.544111) can0 1FD#0000000000000000
(1493280936.546362) can0 1BFC38B1#0000000000000000
(1493280936.546600) can0 1BFC38BB#FFFFFFFFFFFFFFFF
(1493280936.546985) can0 1BFC38BA#535553500000001A
(1493280936.547237) can0 1BFC38B9#010296408005A3F4
(1493280936.547612) can0 1BFC38B8#0000000800000000
(1493280936.548000) can0 1BFC38B7#8001648425020276
(1493280936.548206) can0 1BFC38B6#000008D500000000
(1493280936.548591) can0 1BFC38B5#0502FF9202028292
(1493280936.548846) can0 1BFC38B4#110F01010000A327
(1493280936.549222) can0 1BFC38B3#8001648431009988
(1493280936.549467) can0 1BFC38B2#80016484838300F9
(1493280936.551540) can0 16F#3CCA8259
(1493280936.555616) can0 30B#5F00110000000098
(1493280936.574273) can0 630#33CE1300
(1493280936.601614) can0 04D#32D5E66BC8C79406
(1493280936.602226) can0 3C0#6A7E1335
(1493280936.604170) can0 6C7#04051101020001
(1493280936.604366) can0 1FD#0000000000000000
(1493280936.604642) can0 30B#5F00110000000098
(1493280936.604885) can0 5F2#C600
(1493280936.651739) can0 28B#DC4B0E3943378D61
(1493280936.654987) can0 30B#5F00110000000098
(1493280936.664271) can0 1FD#0000000000000000
(1493280936.702157) can0 1B4#020BBC69E1C93558
(1493280936.705235) can0 30B#5F00110000000098
(1493280936.706076) can0 3C0#6A7E1335
(1493280936.724118) can0 1FD#0000000000000000
(1493280936.752283) can0 668#03B1DC30381E
(1493280936.754992) can0 30B#5F00110000000098
(1493280936.784121) can0 1FD#0000000000000000
(1493280936.797508) can0 1BFC38B1#0000000000000000
(1493280936.797870) can0 1BFC38BB#FFFFFFFFFFFFFFFF
(1493280936.798261) can0 1BFC38BA#535553500000001A
(1493280936.798485) can0 1BFC38B9#010296408005A3F4
(1493280936.798870) can0 1BFC38B8#0000000800000000
(1493280936.799119) can0 1BFC38B7#8001648425020276
(1493280936.799494) can0 1BFC38B6#000008D80000A327
(1493280936.799744) can0 1BFC38B5#0502FF9202028292
(1493280936.800119) can0 1BFC38B4#110F01010000A327
(1493280936.800405) can0 1BFC38B3#800164843100BBAA
(1493280936.800771) can0 1BFC38B2#800164848383806D
(1493280936.802396) can0 127#2439953A5DD6503A
(1493280936.804134) can0 6C7#04051101020001
(1493280936.804371) can0 30B#5F00110000000098
(1493280936.804458) can0 5F2#C600
(1493280936.804738) can0 643#000200
(1493280936.804985) can0 64E#00A3270000000000
(1493280936.805243) can0 65E#88088AC3C1AA0800
(1493280936.805473) can0 6B8#6D08000000000000
(1493280936.805849) can0 6BC#7A822E51324C0798
(1493280936.809859) can0 3C0#6A7E1335
(1493280936.815256) can0 62D#349302E900
(1493280936.844113) can0 1FD#0000000000000000
(1493280936.852479) can0 047#21F2
(1493280936.855028) can0 30B#5F00110000000098
(1493280936.902740) can0 61E#21A091058DAFED
(1493280936.905200) can0 1FD#0000000000000000
(1493280936.905449) can0 30B#5F00110000000098
(1493280936.905698) can0 631#34D200
(1493280936.913699) can0 3C0#6A7E1335
(1493280936.914458) can0 6B6#390C1C00032E
(1493280936.914745) can0 6B7#BEB4000008FF80FE
(1493280936.952958) can0 61B#70AEA36369867A1F
(1493280936.954999) can0 30B#5F00110000000098
(1493280936.964261) can0 1FD#0000000000000000
(1493280937.003137) can0 426#314E
(1493280937.005127) can0 6C7#04051101020001
(1493280937.005516) can0 30B#5F00110000000098
(1493280937.005519) can0 5F2#C600
(1493280937.017740) can0 3C0#6A7E1335
(1493280937.024176) can0 1FD#0000000000000000
(1493280937.046376) can0 1BFC38B1#0000000000000000
(1493280937.046751) can0 1BFC38BB#FFFFFFFFFFFFFFFF
(1493280937.047031) can0 1BFC38BA#535553500000001A
(1493280937.047370) can0 1BFC38B9#010296408005A3F4
(1493280937.047616) can0 1BFC38B8#0000000800000000
(1493280937.047981) can0 1BFC38B7#8001648425020276
(1493280937.048290) can0 1BFC38B6#000008DA000034A8
(1493280937.048648) can0 1BFC38B5#0502FF9202028292
(1493280937.048878) can0 1BFC38B4#110F01010000A327
(1493280937.049272) can0 1BFC38B3#800164843100BBAA
(1493280937.049496) can0 1BFC38B2#800164848383806D
(1493280937.053135) can0 0A1#F56547515572375E
(1493280937.055635) can0 30B#5F00110000000098
(1493280937.084161) can0 1FD#0000000000000000
(1493280937.103394) can0 697#363C6D360075AF
(1493280937.104775) can0 30B#5F00110000000098
(1493280937.121840) can0 3C0#6A7E1335
(1493280937.144144) can0 1FD#0000000000000000
(1493280937.153507) can0 54D#38935413749ECA3D
(1493280937.155004) can0 30B#5F00110000000098
(1493280937.203665) can0 0C5#D2741B780C790311
(1493280937.205420) can0 6C7#04051101020001
(1493280937.205800) can0 1FD#0000000000000000
(1493280937.206170) can0 30B#5F00110000000098
(1493280937.206173) can0 5F2#C600
(1493280937.225379) can0 3C0#6A7E1335
(1493280937.253739) can0 09E#54061E
(1493280937.255003) can0 30B#5F00110000000098
(1493280937.264393) can0 1FD#0000000000000000
(1493280937.297634) can0 1BFC38B1#0000000000000000
(1493280937.297882) can0 1BFC38BB#FFFFFFFFFFFFFFFF
(1493280937.298253) can0 1BFC38BA#535553500000001A
(1493280937.298533) can0 1BFC38B9#020096408008FC68
(1493280937.298905) can0 1BFC38B8#0000000800000000
(1493280937.299136) can0 1BFC38B7#80016484250202B2
(1493280937.299520) can0 1BFC38B6#000008DD00000000
(1493280937.299746) can0 1BFC38B5#0502FF9202028292
(1493280937.300126) can0 1BFC38B4#110F01010000A327
(1493280937.300378) can0 1BFC38B3#800164843100BBAA
(1493280937.300736) can0 1BFC38B2#800164848383806D
(1493280937.303914) can0 27A#49968A4B96
(1493280937.305756) can0 30B#5F00110000000098
(1493280937.306158) can0 65E#880853B58A1C0A00
(1493280937.315293) can0 62F#445100032F
(1493280937.324127) can0 1FD#0000000000000000
(1493280937.329344) can0 3C0#6A7E1335
(1493280937.354009) can0 0D3#FF06B604F96CB832
(1493280937.355040) can0 30B#5F00110000000098
(1493280937.384136) can0 1FD#0000000000000000
(1493280937.404278) can0 05B#
(1493280937.405147) can0 6C7#04051101020001
(1493280937.405548) can0 30B#5F00110000000098
(1493280937.405647) can0 5F2#C700
(1493280937.432634) can0 3C0#6A7E1335
(1493280937.444154) can0 1FD#0000000000000000
(1493280937.454437) can0 73E#
(1493280937.455020) can0 30B#5F00110000000098
(1493280937.504526) can0 297#D51AFF2AE4D70301
(1493280937.505259) can0 1FD#0000000000000000
(1493280937.505503) can0 30B#5F00110000000098
(1493280937.535964) can0 3C0#6A7E1335
(1493280937.546420) can0 1BFC38B1#0000000000000000
(1493280937.546792) can0 1BFC38BB#FFFFFFFFFFFFFFFF
(1493280937.547167) can0 1BFC38BA#0000000700000014
(1493280937.547359) can0 1BFC38B9#020096408008FC68
(1493280937.547747) can0 1BFC38B8#0000000800000000
(1493280937.548021) can0 1BFC38B7#80016484250202B2
(1493280937.548401) can0 1BFC38B6#000008DF00000000
(1493280937.548636) can0 1BFC38B5#0502FF9202028292
(1493280937.548993) can0 1BFC38B4#110F01010000A327
(1493280937.549246) can0 1BFC38B3#800164843100BBAA
(1493280937.549618) can0 1BFC38B2#800164848383806D
(1493280937.554679) can0 4C3#5976CE3E88558708
(1493280937.555621) can0 30B#5F00110000000098
(1493280937.564546) can0 1FD#0000000000000000
(1493280937.604262) can0 6C7#04051101020001
(1493280937.604503) can0 30B#5F00110000000098
(1493280937.604772) can0 269#95CE8A19076BB74D
(1493280937.604775) can0 5F2#C700
(1493280937.624130) can0 1FD#0000000000000000
(1493280937.639611) can0 3C0#6A7E1335
(1493280937.654872) can0 21E#C351543099DC490C
(1493280937.654969) can0 30B#5F00110000000098
(1493280937.684148) can0 1FD#0000000000000000
(1493280937.705034) can0 35E#2F5D8571318C1C3E
(1493280937.705267) can0 30B#5F00110000000098
(1493280937.743350) can0 3C0#6A7E1335
(1493280937.744113) can0 1FD#0000000000000000
(1493280937.755045) can0 30B#5F00110000000098
(1493280937.755132) can0 4C6#2BF9D47022F5C529
(1493280937.797615) can0 1BFC38B1#0000000000000000
(1493280937.797891) can0 1BFC38BB#FFFFFFFFFFFFFFFF
(1493280937.798293) can0 1BFC38BA#0000000700000014
(1493280937.798517) can0 1BFC38B9#020096408008FC68
(1493280937.798929) can0 1BFC38B8#0000000800000000
(1493280937.799276) can0 1BFC38B7#80016484250202B2
(1493280937.799533) can0 1BFC38B6#000008E20000A327
(1493280937.799904) can0 1BFC38B5#0502FF9202028292
(1493280937.800152) can0 1BFC38B4#110F01010000A327
(1493280937.800502) can0 1BFC38B3#80016484324000FF
(1493280937.800750) can0 1BFC38B2#8001648483830075
(1493280937.804128) can0 6C7#04051101020001
(1493280937.804394) can0 1FD#0000000000000000
(1493280937.804623) can0 30B#5F00110000000098
(1493280937.804890) can0 5F2#C700
(1493280937.805121) can0 643#000200
(1493280937.805411) can0 15E#1F36BB1F9CA8
(1493280937.805414) can0 64E#00A3270000000000
(1493280937.805612) can0 65E#8808A7B672260500
(1493280937.806157) can0 6B8#6D08000000000000
(1493280937.806258) can0 6BC#7A822E51324C07BA
(1493280937.847258) can0 3C0#6A7E1335
(1493280937.855031) can0 30B#5F00110000000098
(1493280937.855536) can0 677#72
(1493280937.864555) can0 1FD#0000000000000000
(1493280937.905301) can0 30B#5F00110000000098
(1493280937.905662) can0 0FA#F3E0C236BDB565
(1493280937.914395) can0 6B6#390C1C00032F
(1493280937.914649) can0 6B7#BEB4000008FF80FE
(1493280937.924150) can0 1FD#0000000000000000
(1493280937.950641) can0 3C0#6A7E1335
(1493280937.955054) can0 30B#5F00110000000098
(1493280937.955673) can0 755#460BED78BE91C31A
(1493280937.984146) can0 1FD#0000000000000000
(1493280938.005277) can0 6C7#04051101020001
(1493280938.005649) can0 30B#5F00110000000098
(1493280938.005761) can0 5F2#C700
(1493280938.005852) can0 277#C6FC7A6895944C71
(1493280938.044152) can0 1FD#0000000000000000
(1493280938.046554) can0 1BFC38B1#0000000000000000
(1493280938.046767) can0 1BFC38BB#FFFFFFFFFFFFFFFF
(1493280938.047151) can0 1BFC38BA#0000000700000014
(1493280938.047401) can0 1BFC38B9#020096408008FC68
(1493280938.047803) can0 1BFC38B8#0000000800000000
(1493280938.048151) can0 1BFC38B7#80016484250202B2
(1493280938.048404) can0 1BFC38B6#000008E402028292
(1493280938.048653) can0 1BFC38B5#0502FF9202028292
(1493280938.049027) can0 1BFC38B4#110F01010000A327
(1493280938.049295) can0 1BFC38B3#80016484324000FF
(1493280938.049634) can0 1BFC38B2#8001648483830075
(1493280938.053997) can0 3C0#6A7E1335
(1493280938.055633) can0 30B#5F00110000000098
(1493280938.055995) can0 6C4#2E71967D222A7905
(1493280938.104794) can0 1FD#0000000000000000
(1493280938.104988) can0 30B#5F00110000000098
(1493280938.106213) can0 696#54B695435D63BB3F
(1493280938.155034) can0 30B#5F00110000000098
(1493280938.156105) can0 28B#7F588169EAEB5706
(1493280938.157525) can0 3C0#6A7E1335
(1493280938.164314) can0 1FD#0000000000000000
(1493280938.205278) can0 6C7#04051101020001
(1493280938.205548) can0 30B#5F00110000000098
(1493280938.205626) can0 5F2#C700
(1493280938.206308) can0 455#86943B31CCDAB34E
(1493280938.224160) can0 1FD#0000000000000000
(1493280938.255034) can0 30B#5F00110000000098
(1493280938.256402) can0 00F#DBE372040A51A67B
(1493280938.261025) can0 3C0#6A7E1335
(1493280938.284161) can0 1FD#0000000000000000
(1493280938.297660) can0 1BFC38B1#0000000000000000
(1493280938.297892) can0 1BFC38BB#FFFFFFFFFFFFFFFF
(1493280938.298280) can0 1BFC38BA#0000000700000014
(1493280938.298540) can0 1BFC38B9#030296408005A3F4
(1493280938.298920) can0 1BFC38B8#0000000800000000
(1493280938.299291) can0 1BFC38B7#80016484250202EE
(1493280938.299559) can0 1BFC38B6#000008E700000000
(1493280938.299937) can0 1BFC38B5#0502FF9202028292
(1493280938.300179) can0 1BFC38B4#110F01010000A327
(1493280938.300552) can0 1BFC38B3#80016484324000FF
(1493280938.300773) can0 1BFC38B2#8001648483830075
(1493280938.305797) can0 30B#5F00110000000098
(1493280938.306187) can0 65E#8808AB5588BE0500
(1493280938.306548) can0 440#C7060C6C95632735
(1493280938.315286) can0 62F#4451000330
(1493280938.344153) can0 1FD#0000000000000000
(1493280938.355039) can0 30B#5F00110000000098
(1493280938.356825) can0 41A#53F5EA4F915E425D
(1493280938.364403) can0 3C0#6A7E1335
(1493280938.405791) can0 6C7#04051101020001
(1493280938.406041) can0 1FD#0000000000000000
(1493280938.406251) can0 30B#5F00110000000098
(1493280938.406532) can0 5F2#C700
(1493280938.406936) can0 3E8#26F38E4EAC9A9161
(1493280938.414663) can0 64E#00A4530000000000
(1493280938.455172) can0 30B#5F00110000000098
(1493280938.457020) can0 0A3#CFC40A6739
(1493280938.464281) can0 1FD#0000000000000000
(1493280938.468414) can0 3C0#6A7E1335
(1493280938.505663) can0 30B#5F00110000000098
(1493280938.507242) can0 2B2#96DA9E
(1493280938.524174) can0 1FD#0000000000000000
(1493280938.546575) can0 1BFC38B1#0000000000000000
(1493280938.546790) can0 1BFC38BB#FFFFFFFFFFFFFFFF
(1493280938.547195) can0 1BFC38BA#535553500000001A
(1493280938.547367) can0 1BFC38B9#030296408005A3F4
(1493280938.547784) can0 1BFC38B8#0000000800000000
(1493280938.548165) can0 1BFC38B7#80016484250202EE
(1493280938.548415) can0 1BFC38B6#000008E900000000
(1493280938.548666) can0 1BFC38B5#0502FF9202028292
(1493280938.549021) can0 1BFC38B4#110F01010000A327
(1493280938.549393) can0 1BFC38B3#80016484324000FF
(1493280938.549658) can0 1BFC38B2#8001648483830075
(1493280938.555825) can0 30B#5F00110000000098
(1493280938.557274) can0 2A2#2851F026F7
(1493280938.572166) can0 3C0#6A7E1335
(1493280938.574396) can0 630#33CF00
(1493280938.584196) can0 1FD#0000000000000000
(1493280938.604293) can0 6C7#04051101020001
(1493280938.604667) can0 30B#5F00110000000098
(1493280938.604780) can0 5F2#C700
(1493280938.607420) can0 1B3#C4497175C3398115
(1493280938.644183) can0 1FD#0000000000000000
(1493280938.655166) can0 30B#5F00110000000098
(1493280938.657701) can0 0A7#CD8A2711E7143C55
(1493280938.675635) can0 3C0#6A7E1335
(1493280938.705556) can0 1FD#0000000000000000
(1493280938.705915) can0 30B#5F00110000000098
(1493280938.707811) can0 26D#7C78630A
(1493280938.755206) can0 30B#5F00110000000098
(1493280938.757954) can0 3A2#186D23438A8F9D59
(1493280938.764327) can0 1FD#0000000000000000
(1493280938.779171) can0 3C0#6A7E1335
(1493280938.798050) can0 1BFC38B1#0000000000000000
(1493280938.798448) can0 1BFC38BB#FFFFFFFFFFFFFFFF
(1493280938.798663) can0 1BFC38BA#535553500000001A
(1493280938.799045) can0 1BFC38B9#030296408005A3F4
(1493280938.799294) can0 1BFC38B8#0000000800000000
(1493280938.799665) can0 1BFC38B7#80016484250202EE
(1493280938.799946) can0 1BFC38B6#000008EC0000A453
(1493280938.800318) can0 1BFC38B5#0502FF9202028292
(1493280938.800543) can0 1BFC38B4#110F01010000A453
(1493280938.800929) can0 1BFC38B3#8001648431005544
(1493280938.801184) can0 1BFC38B2#80016484838300FB
(1493280938.804454) can0 6C7#04051101020001
(1493280938.804827) can0 30B#5F00110000000098
(1493280938.804933) can0 5F2#C700
(1493280938.805152) can0 643#000200
(1493280938.805415) can0 64E#00A4530000000000
(1493280938.805638) can0 65E#8808E5B6A6DE0800
(1493280938.805900) can0 6B8#6D08000000000000
(1493280938.806277) can0 6BC#7A822E51324C07CA
(1493280938.808041) can0 7E9#372A2F3B8CA0E963
(1493280938.815416) can0 62D#3482030012000300
(1493280938.824331) can0 1FD#0000000000000000
(1493280938.854335) can0 30B#5F00110000000098
(1493280938.858167) can0 493#C517CD4946F7
(1493280938.882389) can0 3C0#6A7E1335
(1493280938.884457) can0 1FD#0000000000000000
(1493280938.906673) can0 30B#5F00110000000098
(1493280938.907062) can0 631#34D300
(1493280938.908323) can0 229#845CB139CB94E52B
(1493280938.914331) can0 6B6#390C1C000330
(1493280938.914552) can0 6B7#BEB4000008FF80FE
(1493280938.944187) can0 1FD#0000000000000000
(1493280938.955216) can0 30B#5F00110000000098
(1493280938.958569) can0 571#C203A35225E7E816
(1493280938.985535) can0 3C0#6A7E1335
(1493280939.006333) can0 6C7#04051101020001
(1493280939.006554) can0 1FD#0000000000000000
(1493280939.006806) can0 30B#5F00110000000098
(1493280939.007035) can0 5F2#C800
(1493280939.008757) can0 35A#E8206A2C015C
(1493280939.046675) can0 1BFC38B1#0000000000000000
(1493280939.047052) can0 1BFC38BA#535553500000001A
(1493280939.047445) can0 1BFC38BB#FFFFFFFFFFFFFFFF
(1493280939.047664) can0 1BFC38B9#030296408005A3F4
(1493280939.048079) can0 1BFC38B8#0000000800000000
(1493280939.048304) can0 1BFC38B7#80016484250202EE
(1493280939.048684) can0 1BFC38B6#000008EE000034A8
(1493280939.048954) can0 1BFC38B5#0502FF9202028292
(1493280939.049299) can0 1BFC38B4#110F01010000A453
(1493280939.049565) can0 1BFC38B3#8001648431005544
(1493280939.049803) can0 1BFC38B2#80016484838300FB
(1493280939.055690) can0 30B#5F00110000000098
(1493280939.058831) can0 325#E870A43C92
(1493280939.065435) can0 1FD#0000000000000000
(1493280939.089059) can0 3C0#6A7E1335
(1493280939.105177) can0 30B#5F00110000000098
(1493280939.108828) can0 549#197CF35C
(1493280939.124200) can0 1FD#0000000000000000
(1493280939.155182) can0 30B#5F00110000000098
(1493280939.159096) can0 734#76
(1493280939.184428) can0 1FD#0000000000000000
(1493280939.192169) can0 3C0#6A7E1335
(1493280939.206430) can0 6C7#04051101020001
(1493280939.206682) can0 30B#5F00110000000098
(1493280939.206764) can0 5F2#C800
(1493280939.209140) can0 170#A957F417030EA10F
(1493280939.244312) can0 1FD#0000000000000000
(1493280939.255181) can0 30B#5F00110000000098
(1493280939.259314) can0 1B3#4905BA28DCF3D220
(1493280939.295936) can0 3C0#6A7E1335
(1493280939.297965) can0 1BFC38B1#0000000000000000
(1493280939.298319) can0 1BFC38BA#535553500000001A
(1493280939.298558) can0 1BFC38BB#FFFFFFFFFFFFFFFF
(1493280939.298910) can0 1BFC38B9#040096408008FC68
(1493280939.299161) can0 1BFC38B8#0000000800000000
(1493280939.299538) can0 1BFC38B7#8001648425020229
(1493280939.299784) can0 1BFC38B6#000008F100000000
(1493280939.300194) can0 1BFC38B5#0502FF9202028292
(1493280939.300417) can0 1BFC38B4#110F01010000A453
(1493280939.300820) can0 1BFC38B3#8001648431005544
(1493280939.301164) can0 1BFC38B2#80016484838300FB
(1493280939.306962) can0 1FD#0000000000000000
(1493280939.307184) can0 30B#5F00110000000098
(1493280939.307454) can0 65E#8808C913CE5E0A00
(1493280939.309494) can0 1CA#A788B84C3C87B94F
(1493280939.324693) can0 62F#4451000331
(1493280939.355189) can0 30B#5F00110000000098
(1493280939.359575) can0 779#616EA266D4A2DA7B
(1493280939.364730) can0 1FD#0000000000000000
(1493280939.399912) can0 3C0#6A7E1335
(1493280939.405963) can0 6C7#04051101020001
(1493280939.406314) can0 30B#5F00110000000098
(1493280939.406545) can0 5F2#C800
(1493280939.409737) can0 1F0#D5FE426315556829
(1493280939.424343) can0 1FD#0000000000000000
(1493280939.455188) can0 30B#5F00110000000098
(1493280939.459827) can0 2FE#A8C27A204778630B
(1493280939.484442) can0 1FD#0000000000000000
(1493280939.503397) can0 3C0#6A7E1335
(1493280939.506470) can0 30B#5F00110000000098
(1493280939.509982) can0 122#33
(1493280939.544317) can0 1FD#0000000000000000
(1493280939.546939) can0 1BFC38B1#0000000000000000
(1493280939.547191) can0 1BFC38BA#0000000700000014
(1493280939.547593) can0 1BFC38BB#FFFFFFFFFFFFFFFF
(1493280939.547842) can0 1BFC38B9#040096408008FC68
(1493280939.548208) can0 1BFC38B8#0000000800000000
(1493280939.548437) can0 1BFC38B7#8001648425020229
(1493280939.548824) can0 1BFC38B6#000008F300000000
(1493280939.549174) can0 1BFC38B5#0502FF9202028292
(1493280939.549432) can0 1BFC38B4#110F01010000A453
(1493280939.549669) can0 1BFC38B3#8001648431005544
(1493280939.550045) can0 1BFC38B2#80016484838300FB
(1493280939.555722) can0 30B#5F00110000000098
(1493280939.560209) can0 7F3#7367503C63714E4F
(1493280939.604608) can0 6C7#04051101020001
(1493280939.604814) can0 1FD#0000000000000000
(1493280939.605188) can0 30B#5F00110000000098
(1493280939.605192) can0 5F2#C800
(1493280939.607155) can0 3C0#6A7E1335
(1493280939.610359) can0 456#667FEF5E09EE9B24
(1493280939.655190) can0 30B#5F00110000000098
(1493280939.660484) can0 68B#
(1493280939.664571) can0 1FD#0000000000000000
(1493280939.706319) can0 30B#5F00110000000098
(1493280939.710563) can0 67D#9117ED56F7F5212D
(1493280939.710565) can0 3C0#6A7E1335
(1493280939.724322) can0 1FD#0000000000000000
(1493280939.755194) can0 30B#5F00110000000098
(1493280939.760742) can0 6F5#CB98
(1493280939.784446) can0 1FD#0000000000000000
(1493280939.797820) can0 1BFC38B1#0000000000000000
(1493280939.798197) can0 1BFC38BB#FFFFFFFFFFFFFFFF
(1493280939.798439) can0 1BFC38BA#0000000700000014
(1493280939.798682) can0 1BFC38B9#040096408008FC68
(1493280939.799099) can0 1BFC38B8#0000000800000000
(1493280939.799448) can0 1BFC38B7#8001648425020229
(1493280939.799695) can0 1BFC38B6#000008F60000A453
(1493280939.799944) can0 1BFC38B5#0502FF9202028292
(1493280939.800333) can0 1BFC38B4#110F01010000A453
(1493280939.800589) can0 1BFC38B3#8001648431007766
(1493280939.800955) can0 1BFC38B2#800164848383807F
(1493280939.804210) can0 6C7#04051101020001
(1493280939.804585) can0 30B#5F00110000000098
(1493280939.804659) can0 5F2#C800
(1493280939.804813) can0 643#000200
(1493280939.805230) can0 64E#00A4530000000000
(1493280939.805454) can0 65E#88085318CE9F0B00
(1493280939.805717) can0 6B8#6D08000000000000
(1493280939.806083) can0 6BC#7A822E51324C0701
(1493280939.810973) can0 53B#
(1493280939.814037) can0 3C0#6A7E1335
(1493280939.844352) can0 1FD#0000000000000000
(1493280939.855196) can0 30B#5F00110000000098
(1493280939.861089) can0 75E#81C89D
(1493280939.905481) can0 1FD#0000000000000000
(1493280939.905691) can0 30B#5F00110000000098
(1493280939.911198) can0 764#D7105C1B
(1493280939.914703) can0 6B6#390C1C000331
(1493280939.914966) can0 6B7#BEB4000008FF80FE
(1493280939.917543) can0 3C0#6A7E1335
(1493280939.955202) can0 30B#5F00110000000098
(1493280939.961351) can0 35D#BAC0174DB34F7B44
(1493280939.964823) can0 1FD#0000000000000000
(1493280940.005457) can0 6C7#04051101020001
(1493280940.005668) can0 30B#5F00110000000098
(1493280940.005779) can0 5F2#C800
(1493280940.011592) can0 767#BC
(1493280940.020671) can0 3C0#6A7E1335
(1493280940.024361) can0 1FD#0000000000000000
(1493280940.046589) can0 1BFC38B1#0000000000000000
(1493280940.046951) can0 1BFC38BB#FFFFFFFFFFFFFFFF
(1493280940.047310) can0 1BFC38BA#0000000700000014
(1493280940.047567) can0 1BFC38B9#040096408008FC68
(1493280940.047965) can0 1BFC38B8#0000000800000000
(1493280940.048206) can0 1BFC38B7#8001648425020229
(1493280940.048586) can0 1BFC38B6#000008F802028292
(1493280940.048842) can0 1BFC38B5#0502FF9202028292
(1493280940.049208) can0 1BFC38B4#110F01010000A453
(1493280940.049476) can0 1BFC38B3#8001648431007766
(1493280940.049839) can0 1BFC38B2#800164848383807F
(1493280940.055862) can0 30B#5F00110000000098
(1493280940.061703) can0 4D1#48
(1493280940.084336) can0 1FD#0000000000000000
(1493280940.104956) can0 30B#5F00110000000098
(1493280940.111975) can0 22D#45A1E74A22813072
(1493280940.124330) can0 3C0#6A7E1335
(1493280940.144328) can0 1FD#0000000000000000
(1493280940.155206) can0 30B#5F00110000000098
(1493280940.162099) can0 3CC#
(1493280940.205474) can0 6C7#04051101020001
(1493280940.205709) can0 1FD#0000000000000000
(1493280940.205947) can0 30B#5F00110000000098
(1493280940.206207) can0 5F2#C800
(1493280940.212203) can0 1B1#41F97D
(1493280940.228418) can0 3C0#6A7E1335
(1493280940.255208) can0 30B#5F00110000000098
(1493280940.262498) can0 0A6#9039
(1493280940.264611) can0 1FD#0000000000000000
(1493280940.297840) can0 1BFC38B1#0000000000000000
(1493280940.298227) can0 1BFC38BB#FFFFFFFFFFFFFFFF
(1493280940.298445) can0 1BFC38BA#0000000700000014
(1493280940.298711) can0 1BFC38B9#050296408005A3F4
(1493280940.299087) can0 1BFC38B8#0000000800000000
(1493280940.299461) can0 1BFC38B7#8001648425020265
(1493280940.299727) can0 1BFC38B6#000008FB00000000
(1493280940.300109) can0 1BFC38B5#0502FF9202028292
(1493280940.300319) can0 1BFC38B4#110F01010000A453
(1493280940.300692) can0 1BFC38B3#8001648431007766
(1493280940.300953) can0 1BFC38B2#800164848383807F
(1493280940.306114) can0 30B#5F00110000000098
(1493280940.306287) can0 65E#8808AEC677EF0600
(1493280940.312632) can0 376#62D7610ED3CEE664
(1493280940.315712) can0 62F#4451000332
(1493280940.324338) can0 1FD#0000000000000000
(1493280940.331828) can0 3C0#6A7E1335
(1493280940.355213) can0 30B#5F00110000000098
(1493280940.362712) can0 2B3#861E62291AFA5A5E
(1493280940.384336) can0 1FD#0000000000000000
(1493280940.405967) can0 6C7#04051101020001
(1493280940.406165) can0 30B#5F00110000000098
(1493280940.406312) can0 5F2#C800
(1493280940.412840) can0 03D#0D60
(1493280940.414735) can0 64E#00A3190000000000
(1493280940.435207) can0 3C0#6A7E1335
(1493280940.444369) can0 1FD#0000000000000000
(1493280940.455242) can0 30B#5F00110000000098
(1493280940.463128) can0 3E3#5D48F75810
(1493280940.505854) can0 1FD#0000000000000000
(1493280940.506234) can0 30B#5F00110000000098
(1493280940.513255) can0 42E#3287
(1493280940.538596) can0 3C0#6A7E1335
(1493280940.546746) can0 1BFC38B1#0000000000000000
(1493280940.546974) can0 1BFC38BB#FFFFFFFFFFFFFFFF
(1493280940.547351) can0 1BFC38BA#535553500000001A
(1493280940.547602) can0 1BFC38B9#050296408005A3F4
(1493280940.548006) can0 1BFC38B8#0000000800000000
(1493280940.548212) can0 1BFC38B7#8001648425020265
(1493280940.548573) can0 1BFC38B6#000008FD00000000
(1493280940.548821) can0 1BFC38B5#0502FF9202028292
(1493280940.549197) can0 1BFC38B4#110F01010000A453
(1493280940.549445) can0 1BFC38B3#8001648431007766
(1493280940.549819) can0 1BFC38B2#800164848383807F
(1493280940.556013) can0 30B#5F00110000000098
(1493280940.563334) can0 3B3#02A1803564F5E617
(1493280940.564846) can0 1FD#0000000000000000
(1493280940.574592) can0 630#33D03F0102
(1493280940.604721) can0 6C7#04051101020001
(1493280940.604956) can0 30B#5F00110000000098
(1493280940.605207) can0 5F2#C800
(1493280940.613482) can0 13D#73CE31
(1493280940.624348) can0 1FD#0000000000000000
(1493280940.642219) can0 3C0#6A7E1335
(1493280940.655222) can0 30B#5F00110000000098
(1493280940.663624) can0 405#EE396C0D
(1493280940.684358) can0 1FD#0000000000000000
(1493280940.705725) can0 30B#5F00110000000098
(1493280940.713734) can0 26C#
(1493280940.744332) can0 1FD#0000000000000000
(1493280940.745712) can0 3C0#6A7E1335
(1493280940.755346) can0 30B#5F00110000000098
(1493280940.763859) can0 16C#390F156F
(1493280940.797852) can0 1BFC38B1#0000000000000000
(1493280940.798225) can0 1BFC38BB#FFFFFFFFFFFFFFFF
(1493280940.798499) can0 1BFC38BA#535553500000001A
(1493280940.798861) can0 1BFC38B9#050296408005A3F4
(1493280940.799224) can0 1BFC38B8#0000000800000000
(1493280940.799473) can0 1BFC38B7#8001648425020265
(1493280940.799723) can0 1BFC38B6#000009000000A319
(1493280940.800112) can0 1BFC38B5#0502FF9202028292
(1493280940.800316) can0 1BFC38B4#110F01010000A319
(1493280940.800705) can0 1BFC38B3#800164843240CCBB
(1493280940.800950) can0 1BFC38B2#8001648483830087
(1493280940.804332) can0 6C7#04051101020001
(1493280940.804701) can0 1FD#0000000000000000
(1493280940.804964) can0 30B#5F00110000000098
(1493280940.805239) can0 5F2#C800
(1493280940.805338) can0 643#000200
(1493280940.805622) can0 64E#00A3190000000000
(1493280940.805852) can0 65E#880856089CB60A00
(1493280940.806232) can0 6B8#6D08000000000000
(1493280940.806489) can0 6BC#7A822E51324C0702
(1493280940.813966) can0 116#B81EFA39F904
(1493280940.815453) can0 62D#34837801F8000000
(1493280940.849096) can0 3C0#6A7E1335
(1493280940.855380) can0 30B#5F00110000000098
(1493280940.864250) can0 59B#090B9815CA
(1493280940.864722) can0 1FD#0000000000000000
(1493280940.905621) can0 30B#5F00110000000098
(1493280940.906348) can0 631#34D400
(1493280940.914408) can0 0B8#C421B7296B74934E
(1493280940.914863) can0 6B6#390C1C000332
(1493280940.915249) can0 6B7#BEB4000008FF80FE
(1493280940.924368) can0 1FD#0000000000000000
(1493280940.953074) can0 3C0#6A7E1335
(1493280940.955338) can0 30B#5F00110000000098
(1493280940.964489) can0 376#CF697A66B3BC
(1493280940.984382) can0 1FD#0000000000000000
(1493280941.005487) can0 6C7#04051101020001
(1493280941.005891) can0 30B#5F00110000000098
(1493280941.005995) can0 5F2#C800
(1493280941.014603) can0 509#976E
(1493280941.044352) can0 1FD#0000000000000000
(1493280941.046755) can0 1BFC38B1#0000000000000000
(1493280941.047121) can0 1BFC38BB#FFFFFFFFFFFFFFFF
(1493280941.047345) can0 1BFC38BA#535553500000001A
(1493280941.047605) can0 1BFC38B9#050296408005A3F4
(1493280941.047979) can0 1BFC38B8#0000000800000000
(1493280941.048354) can0 1BFC38B7#8001648425020265
(1493280941.048605) can0 1BFC38B6#00000902000034A8
(1493280941.048980) can0 1BFC38B5#0502FF9202028292
(1493280941.049230) can0 1BFC38B4#110F01010000A319
(1493280941.049601) can0 1BFC38B3#800164843240CCBB
(1493280941.049870) can0 1BFC38B2#8001648483830087
(1493280941.055973) can0 30B#5F00110000000098
(1493280941.056591) can0 3C0#6A7E1335
(1493280941.064746) can0 046#89F87977B2
(1493280941.105109) can0 1FD#0000000000000000
(1493280941.105357) can0 30B#5F00110000000098
(1493280941.115012) can0 1D5#D1A7491D41634B
(1493280941.155365) can0 30B#5F00110000000098
(1493280941.159981) can0 3C0#6A7E1335
(1493280941.164616) can0 1FD#0000000000000000
