(1493280460.187958) can0 1FD#0000000000000000
(1493280460.198607) can0 30B#5F00110000000098
(1493280460.221876) can0 3C0#6A7E1335
(1493280460.249128) can0 6C7#04051101020001
(1493280460.249357) can0 1FD#0000000000000000
(1493280460.249612) can0 30B#5F00110000000098
(1493280460.249842) can0 5F2#CB00
(1493280460.290264) can0 1BFC38B1#0000000000000000
(1493280460.290478) can0 1BFC38BB#FFFFFFFFFFFFFFFF
(1493280460.290862) can0 1BFC38BA#535553500000001A
(1493280460.291245) can0 1BFC38B9#070296408005A3F4
(1493280460.291501) can0 1BFC38B8#0000000800000000
(1493280460.291741) can0 1BFC38B7#8001648425020223
(1493280460.292125) can0 1BFC38B6#000011D6001F34A8
(1493280460.292509) can0 1BFC38B5#0502FF9202048292
(1493280460.292699) can0 1BFC38B4#00010101001F0003
(1493280460.293094) can0 1BFC38B3#8001648431005544
(1493280460.293340) can0 1BFC38B2#80016484838380D3
(1493280460.299344) can0 30B#5F00110000000098
(1493280460.308118) can0 1FD#0000000000000000
(1493280460.326253) can0 3C0#6A7E1335
(1493280460.349119) can0 30B#5F00110000000098
(1493280460.367988) can0 1FD#0000000000000000
(1493280460.398659) can0 30B#5F00110000000098
(1493280460.428046) can0 1FD#0000000000000000
(1493280460.429739) can0 3C0#6A7E1335
(1493280460.449247) can0 6C7#04051101020001
(1493280460.449495) can0 30B#5F00110000000098
(1493280460.449734) can0 5F2#CB00
(1493280460.488027) can0 1FD#0000000000000000
(1493280460.498619) can0 30B#5F00110000000098
(1493280460.533251) can0 3C0#6A7E1335
(1493280460.541623) can0 1BFC38B1#0000000000000000
(1493280460.542002) can0 1BFC38BB#FFFFFFFFFFFFFFFF
(1493280460.542246) can0 1BFC38BA#535553500000001A
(1493280460.542606) can0 1BFC38B9#000096408008FC68
(1493280460.542854) can0 1BFC38B8#0000000800000000
(1493280460.543228) can0 1BFC38B7#800164842502025F
(1493280460.543479) can0 1BFC38B6#000011D900000000
(1493280460.543854) can0 1BFC38B5#0502FF9202048292
(1493280460.544270) can0 1BFC38B4#00010101001F0003
(1493280460.544514) can0 1BFC38B3#8001648431005544
(1493280460.544759) can0 1BFC38B2#80016484838380D3
(1493280460.548147) can0 1FD#0000000000000000
(1493280460.548376) can0 30B#5F00110000000098
(1493280460.548636) can0 65E#880827F7724C0800
(1493280460.559248) can0 62F#4451000D26
(1493280460.598632) can0 30B#5F00110000000098
(1493280460.608377) can0 1FD#0000000000000000
(1493280460.636497) can0 3C0#6A7E1335
(1493280460.649255) can0 6C7#04051101020001
(1493280460.649529) can0 30B#5F00110000000098
(1493280460.649634) can0 5F2#CB00
(1493280460.668011) can0 1FD#0000000000000000
(1493280460.698634) can0 30B#5F00110000000098
(1493280460.728136) can0 1FD#0000000000000000
(1493280460.740395) can0 3C0#6A7E1335
(1493280460.749296) can0 30B#5F00110000000098
(1493280460.788134) can0 1FD#0000000000000000
(1493280460.790296) can0 1BFC38B1#0000000000000000
(1493280460.790649) can0 1BFC38BB#FFFFFFFFFFFFFFFF
(1493280460.790897) can0 1BFC38BA#0000000700000014
(1493280460.791267) can0 1BFC38B9#000096408008FC68
(1493280460.791525) can0 1BFC38B8#0000000800000000
(1493280460.791894) can0 1BFC38B7#800164842502025F
(1493280460.792285) can0 1BFC38B6#000011DB00000000
(1493280460.792487) can0 1BFC38B5#0502FF9202048292
(1493280460.792755) can0 1BFC38B4#00010101001F0003
(1493280460.793151) can0 1BFC38B3#8001648431005544
(1493280460.793353) can0 1BFC38B2#80016484838380D3
(1493280460.799350) can0 30B#5F00110000000098
(1493280460.844228) can0 3C0#6A7E1335
(1493280460.849147) can0 6C7#04051101020001
(1493280460.849357) can0 1FD#0000000000000000
(1493280460.849788) can0 30B#5F00110000000098
(1493280460.849897) can0 5F2#CC00
(1493280460.898662) can0 30B#5F00110000000098
(1493280460.908296) can0 1FD#0000000000000000
(1493280460.947860) can0 3C0#6A7E1335
(1493280460.949260) can0 30B#5F00110000000098
(1493280460.968163) can0 1FD#0000000000000000
(1493280460.998669) can0 30B#5F00110000000098
(1493280461.028159) can0 1FD#0000000000000000
(1493280461.041527) can0 1BFC38B1#0000000000000000
(1493280461.041911) can0 1BFC38BB#FFFFFFFFFFFFFFFF
(1493280461.042277) can0 1BFC38BA#0000000700000014
(1493280461.042579) can0 1BFC38B9#000096408008FC68
(1493280461.042936) can0 1BFC38B8#0000000800000000
(1493280461.043318) can0 1BFC38B7#800164842502025F
(1493280461.043524) can0 1BFC38B6#000011DE001F0003
(1493280461.043775) can0 1BFC38B5#0502FF9202048292
(1493280461.044138) can0 1BFC38B4#00010101001F0003
(1493280461.044506) can0 1BFC38B3#8001648431007766
(1493280461.044771) can0 1BFC38B2#80016484838300F8
(1493280461.049664) can0 6C7#04051101020001
(1493280461.049851) can0 30B#5F00110000000098
(1493280461.050147) can0 5F2#CC00
(1493280461.050285) can0 643#000200
(1493280461.050614) can0 64E#00B1040000000000
(1493280461.050861) can0 65E#8808505564B30500
(1493280461.051106) can0 6B8#6D08000000000000
(1493280461.051357) can0 6BC#92823651324C0792
(1493280461.052394) can0 3C0#6A7E1335
(1493280461.088167) can0 1FD#0000000000000000
(1493280461.098674) can0 30B#5F00110000000098
(1493280461.149317) can0 1FD#0000000000000000
(1493280461.149523) can0 30B#5F00110000000098
(1493280461.157288) can0 3C0#6A7E1335
(1493280461.158542) can0 6B6#390C1C000D26
(1493280461.158730) can0 6B7#BEB4000008FF80FE
(1493280461.198711) can0 30B#5F00110000000098
(1493280461.208268) can0 1FD#0000000000000000
(1493280461.249288) can0 6C7#04051101020001
(1493280461.249404) can0 30B#5F00110000000098
(1493280461.249671) can0 5F2#CC00
(1493280461.261675) can0 3C0#6A7E1335
(1493280461.268217) can0 1FD#0000000000000000
(1493280461.290289) can0 1BFC38B1#0000000000000000
(1493280461.290672) can0 1BFC38BB#FFFFFFFFFFFFFFFF
(1493280461.291019) can0 1BFC38BA#0000000700000014
(1493280461.291279) can0 1BFC38B9#000096408008FC68
(1493280461.291641) can0 1BFC38B8#0000000800000000
(1493280461.291891) can0 1BFC38B7#800164842502025F
(1493280461.292317) can0 1BFC38B6#000011E002048292
(1493280461.292568) can0 1BFC38B5#0502FF9202048292
(1493280461.292940) can0 1BFC38B4#00010101001F0003
(1493280461.293325) can0 1BFC38B3#8001648431007766
(1493280461.293535) can0 1BFC38B2#80016484838300F8
(1493280461.299545) can0 30B#5F00110000000098
(1493280461.328183) can0 1FD#0000000000000000
(1493280461.349325) can0 30B#5F00110000000098
(1493280461.365153) can0 3C0#6A7E1335
(1493280461.388197) can0 1FD#0000000000000000
(1493280461.398791) can0 30B#5F00110000000098
(1493280461.449171) can0 6C7#04051101020001
(1493280461.449408) can0 1FD#0000000000000000
(1493280461.449696) can0 30B#5F00110000000098
(1493280461.449917) can0 5F2#CC00
(1493280461.468526) can0 3C0#6A7E1335
(1493280461.498809) can0 30B#5F00110000000098
(1493280461.508419) can0 1FD#0000000000000000
(1493280461.541679) can0 1BFC38B1#0000000000000000
(1493280461.541922) can0 1BFC38BB#FFFFFFFFFFFFFFFF
(1493280461.542298) can0 1BFC38BA#0000000700000014
(1493280461.542548) can0 1BFC38B9#010296408005A3F4
(1493280461.542923) can0 1BFC38B8#0000000800000000
(1493280461.543296) can0 1BFC38B7#800164842502029B
(1493280461.543547) can0 1BFC38B6#000011E300000000
(1493280461.543783) can0 1BFC38B5#0502FF9202048292
(1493280461.544164) can0 1BFC38B4#00010101001F0003
(1493280461.544436) can0 1BFC38B3#8001648431007766
(1493280461.544806) can0 1BFC38B2#80016484838300F8
(1493280461.549815) can0 30B#5F00110000000098
(1493280461.550063) can0 65E#88085045B96D0700
(1493280461.559308) can0 62F#4451000D27
(1493280461.568214) can0 1FD#0000000000000000
(1493280461.571880) can0 3C0#6A7E1335
(1493280461.598801) can0 30B#5F00110000000098
(1493280461.628184) can0 1FD#0000000000000000
(1493280461.649303) can0 6C7#04051101020001
(1493280461.649417) can0 30B#5F00110000000098
(1493280461.649624) can0 5F2#CC00
(1493280461.649929) can0 630#33EB0103010000
(1493280461.675427) can0 3C0#6A7E1335
(1493280461.688212) can0 1FD#0000000000000000
(1493280461.698830) can0 30B#5F00110000000098
(1493280461.749345) can0 1FD#0000000000000000
(1493280461.749563) can0 30B#5F00110000000098
(1493280461.779160) can0 3C0#6A7E1335
(1493280461.790425) can0 1BFC38B1#0000000000000000
(1493280461.790677) can0 1BFC38BB#FFFFFFFFFFFFFFFF
(1493280461.791042) can0 1BFC38BA#535553500000001A
(1493280461.791288) can0 1BFC38B9#010296408005A3F4
(1493280461.791663) can0 1BFC38B8#0000000800000000
(1493280461.791903) can0 1BFC38B7#800164842502029B
(1493280461.792331) can0 1BFC38B6#000011E500000000
(1493280461.792568) can0 1BFC38B5#0502FF9202048292
(1493280461.792918) can0 1BFC38B4#00010101001F0003
(1493280461.793289) can0 1BFC38B3#8001648431007766
(1493280461.793554) can0 1BFC38B2#80016484838300F8
(1493280461.799546) can0 30B#5F00110000000098
(1493280461.808313) can0 1FD#0000000000000000
(1493280461.849238) can0 6C7#04051101020001
(1493280461.849431) can0 30B#5F00110000000098
(1493280461.849697) can0 5F2#CC00
(1493280461.868186) can0 1FD#0000000000000000
(1493280461.882815) can0 3C0#6A7E1335
(1493280461.898820) can0 30B#5F00110000000098
(1493280461.928197) can0 1FD#0000000000000000
(1493280461.949355) can0 30B#5F00110000000098
(1493280461.986661) can0 3C0#6A7E1335
(1493280461.988204) can0 1FD#0000000000000000
(1493280461.998801) can0 30B#5F00110000000098
(1493280462.041701) can0 1BFC38B1#0000000000000000
(1493280462.041948) can0 1BFC38BB#FFFFFFFFFFFFFFFF
(1493280462.042320) can0 1BFC38BA#535553500000001A
(1493280462.042575) can0 1BFC38B9#010296408005A3F4
(1493280462.042947) can0 1BFC38B8#0000000800000000
(1493280462.043335) can0 1BFC38B7#800164842502029B
(1493280462.043583) can0 1BFC38B6#000011E8001F0003
(1493280462.043829) can0 1BFC38B5#0502FF9202048292
(1493280462.044208) can0 1BFC38B4#00010101001F0003
(1493280462.044457) can0 1BFC38B3#800164843240CCBB
(1493280462.044831) can0 1BFC38B2#800164848383805F
(1493280462.049692) can0 6C7#04051101020001
(1493280462.050039) can0 1FD#0000000000000000
(1493280462.050318) can0 30B#5F00110000000098
(1493280462.050450) can0 5F2#CC00
(1493280462.050719) can0 643#000200
(1493280462.050926) can0 64E#00B1040000000000
(1493280462.051305) can0 65E#880841D8491C0500
(1493280462.051568) can0 6B8#6D08000000000000
(1493280462.051813) can0 6BC#92823651324C0798
(1493280462.059430) can0 62D#348F00
(1493280462.090324) can0 3C0#6A7E1335
(1493280462.098859) can0 30B#5F00110000000098
(1493280462.108450) can0 1FD#0000000000000000
(1493280462.149331) can0 30B#5F00110000000098
(1493280462.149829) can0 631#34D100
(1493280462.158460) can0 6B6#390C1C000D27
(1493280462.158659) can0 6B7#BEB4000008FF80FE
(1493280462.168328) can0 1FD#0000000000000000
(1493280462.194049) can0 3C0#6A7E1335
(1493280462.198861) can0 30B#5F00110000000098
(1493280462.228332) can0 1FD#0000000000000000
(1493280462.249331) can0 6C7#04051101020001
(1493280462.249576) can0 30B#5F00110000000098
(1493280462.249825) can0 5F2#CC00
(1493280462.288228) can0 1FD#0000000000000000
(1493280462.290460) can0 1BFC38B1#0000000000000000
(1493280462.290835) can0 1BFC38BB#FFFFFFFFFFFFFFFF
(1493280462.291076) can0 1BFC38BA#535553500000001A
(1493280462.291318) can0 1BFC38B9#010296408005A3F4
(1493280462.291688) can0 1BFC38B8#0000000800000000
(1493280462.291956) can0 1BFC38B7#800164842502029B
(1493280462.292365) can0 1BFC38B6#000011EA001F34A8
(1493280462.292730) can0 1BFC38B5#0502FF9202048292
(1493280462.292979) can0 1BFC38B4#00010101001F0003
(1493280462.293333) can0 1BFC38B3#800164843240CCBB
(1493280462.293565) can0 1BFC38B2#800164848383805F
(1493280462.297933) can0 3C0#6A7E1335
(1493280462.299544) can0 30B#5F00110000000098
(1493280462.349346) can0 1FD#0000000000000000
(1493280462.349577) can0 30B#5F00110000000098
(1493280462.398853) can0 30B#5F00110000000098
(1493280462.401682) can0 3C0#6A7E1335
(1493280462.408471) can0 1FD#0000000000000000
(1493280462.449357) can0 6C7#04051101020001
(1493280462.449576) can0 30B#5F00110000000098
(1493280462.449686) can0 5F2#CC00
(1493280462.468374) can0 1FD#0000000000000000
(1493280462.498844) can0 30B#5F00110000000098
(1493280462.505340) can0 3C0#6A7E1335
(1493280462.528343) can0 1FD#0000000000000000
(1493280462.541721) can0 1BFC38B1#0000000000000000
(1493280462.542129) can0 1BFC38BB#FFFFFFFFFFFFFFFF
(1493280462.542346) can0 1BFC38BA#535553500000001A
(1493280462.542718) can0 1BFC38B9#020096408008FC68
(1493280462.542969) can0 1BFC38B8#0000000800000000
(1493280462.543304) can0 1BFC38B7#80016484250202D7
(1493280462.543586) can0 1BFC38B6#000011ED00000000
(1493280462.543931) can0 1BFC38B5#0502FF9202048292
(1493280462.544357) can0 1BFC38B4#00010101001F0003
(1493280462.544609) can0 1BFC38B3#800164843240CCBB
(1493280462.544858) can0 1BFC38B2#800164848383805F
(1493280462.549864) can0 30B#5F00110000000098
(1493280462.550253) can0 65E#880862C75CF10300
(1493280462.559481) can0 62F#4451000D28
(1493280462.588365) can0 1FD#0000000000000000
(1493280462.598896) can0 30B#5F00110000000098
(1493280462.609353) can0 3C0#6A7E1335
(1493280462.649379) can0 6C7#04051101020001
(1493280462.649621) can0 1FD#0000000000000000
(1493280462.649854) can0 30B#5F00110000000098
(1493280462.649965) can0 5F2#CC00
(1493280462.698861) can0 30B#5F00110000000098
(1493280462.708484) can0 1FD#0000000000000000
(1493280462.712873) can0 3C0#6A7E1335
(1493280462.749360) can0 30B#5F00110000000098
(1493280462.768356) can0 1FD#0000000000000000
(1493280462.790486) can0 1BFC38B1#0000000000000000
(1493280462.790860) can0 1BFC38BB#FFFFFFFFFFFFFFFF
(1493280462.791106) can0 1BFC38BA#0000000700000014
(1493280462.791486) can0 1BFC38B9#020096408008FC68
(1493280462.791731) can0 1BFC38B8#0000000800000000
(1493280462.792094) can0 1BFC38B7#80016484250202D7
(1493280462.792382) can0 1BFC38B6#000011EF00000000
(1493280462.792722) can0 1BFC38B5#0502FF9202048292
(1493280462.792985) can0 1BFC38B4#00010101001F0003
(1493280462.793356) can0 1BFC38B3#800164843240CCBB
(1493280462.793633) can0 1BFC38B2#800164848383805F
(1493280462.799631) can0 30B#5F00110000000098
(1493280462.816603) can0 3C0#6A7E1335
(1493280462.828360) can0 1FD#0000000000000000
(1493280462.849360) can0 6C7#04051101020001
(1493280462.849595) can0 30B#5F00110000000098
(1493280462.849728) can0 5F2#CC00
(1493280462.888365) can0 1FD#0000000000000000
(1493280462.898866) can0 30B#5F00110000000098
(1493280462.920504) can0 3C0#6A7E1335
(1493280462.949518) can0 1FD#0000000000000000
(1493280462.949738) can0 30B#5F00110000000098
(1493280462.999005) can0 30B#5F00110000000098
(1493280463.008761) can0 1FD#0000000000000000
(1493280463.023857) can0 3C0#6A7E1335
(1493280463.041748) can0 1BFC38B1#0000000000000000
(1493280463.042122) can0 1BFC38BB#FFFFFFFFFFFFFFFF
(1493280463.042372) can0 1BFC38BA#0000000700000014
(1493280463.042728) can0 1BFC38B9#020096408008FC68
(1493280463.043098) can0 1BFC38B8#0000000800000000
(1493280463.043363) can0 1BFC38B7#80016484250202D7
(1493280463.043727) can0 1BFC38B6#000011F2001F0003
(1493280463.043973) can0 1BFC38B5#0502FF9202048292
(1493280463.044381) can0 1BFC38B4#00010101001F0003
(1493280463.044630) can0 1BFC38B3#8001648431001100
(1493280463.045009) can0 1BFC38B2#80016484838380F5
(1493280463.049879) can0 6C7#04051101020001
(1493280463.050268) can0 30B#5F00110000000098
(1493280463.050376) can0 5F2#CC00
(1493280463.050501) can0 643#000200
(1493280463.050883) can0 64E#00B1040000000000
(1493280463.051105) can0 65E#88085AE5754C0800
(1493280463.051352) can0 6B8#6D08000000000000
(1493280463.051724) can0 6BC#92823651324C079D
(1493280463.068389) can0 1FD#0000000000000000
(1493280463.098904) can0 30B#5F00110000000098
(1493280463.127105) can0 3C0#6A7E1335
(1493280463.128365) can0 1FD#0000000000000000
(1493280463.149500) can0 30B#5F00110000000098
(1493280463.158627) can0 6B6#390C1C000D28
(1493280463.158876) can0 6B7#BEB4000008FF80FE
(1493280463.188378) can0 1FD#0000000000000000
(1493280463.198878) can0 30B#5F00110000000098
(1493280463.230752) can0 3C0#6A7E1335
(1493280463.249633) can0 6C7#04051101020001
(1493280463.250002) can0 1FD#0000000000000000
(1493280463.250262) can0 30B#5F00110000000098
(1493280463.250364) can0 5F2#CC00
(1493280463.290506) can0 1BFC38B1#0000000000000000
(1493280463.290882) can0 1BFC38BB#FFFFFFFFFFFFFFFF
(1493280463.291159) can0 1BFC38BA#0000000700000014
(1493280463.291522) can0 1BFC38B9#020096408008FC68
(1493280463.291743) can0 1BFC38B8#0000000800000000
(1493280463.292117) can0 1BFC38B7#80016484250202D7
(1493280463.292337) can0 1BFC38B6#000011F402028292
(1493280463.292784) can0 1BFC38B5#0502FF9202028292
(1493280463.293149) can0 1BFC38B4#00010101001F0003
(1493280463.293382) can0 1BFC38B3#8001648431001100
(1493280463.293628) can0 1BFC38B2#80016484838380F5
(1493280463.299768) can0 30B#5F00110000000098
(1493280463.308396) can0 1FD#0000000000000000
(1493280463.334372) can0 3C0#6A7E1335
(1493280463.349635) can0 30B#5F00110000000098
(1493280463.368384) can0 1FD#0000000000000000
(1493280463.398933) can0 30B#5F00110000000098
(1493280463.428392) can0 1FD#0000000000000000
(1493280463.438131) can0 3C0#6A7E1335
(1493280463.449390) can0 6C7#04051101020001
(1493280463.449645) can0 30B#5F00110000000098
(1493280463.449891) can0 5F2#CC00
(1493280463.488392) can0 1FD#0000000000000000
(1493280463.499048) can0 30B#5F00110000000098
(1493280463.541747) can0 1BFC38B1#0000000000000000
(1493280463.542113) can0 3C0#6A7E1335
(1493280463.542116) can0 1BFC38BB#FFFFFFFFFFFFFFFF
(1493280463.542498) can0 1BFC38BA#0000000700000014
(1493280463.542855) can0 1BFC38B9#030296408005A3F4
(1493280463.543232) can0 1BFC38B8#0000000800000000
(1493280463.543477) can0 1BFC38B7#8001648425020213
(1493280463.543896) can0 1BFC38B6#000011F700000000
(1493280463.544159) can0 1BFC38B5#0502FF9202028292
(1493280463.544546) can0 1BFC38B4#00010101001F0003
(1493280463.544802) can0 1BFC38B3#8001648431001100
(1493280463.545175) can0 1BFC38B2#80016484838380F5
(1493280463.550038) can0 1FD#0000000000000000
(1493280463.550256) can0 30B#5F00110000000098
(1493280463.550514) can0 65E#880833C2847E0B00
(1493280463.559518) can0 62F#4451000D29
(1493280463.598905) can0 30B#5F00110000000098
(1493280463.608398) can0 1FD#0000000000000000
(1493280463.645601) can0 3C0#6A7E1335
(1493280463.649556) can0 6C7#04051101020001
(1493280463.649791) can0 30B#5F00110000000098
(1493280463.649903) can0 5F2#CC00
(1493280463.650412) can0 630#33C203000F000403
(1493280463.668400) can0 1FD#0000000000000000
(1493280463.699031) can0 30B#5F00110000000098
(1493280463.728403) can0 1FD#0000000000000000
(1493280463.748860) can0 3C0#6A7E1335
(1493280463.749626) can0 30B#5F00110000000098
(1493280463.788405) can0 1FD#0000000000000000
(1493280463.790530) can0 1BFC38B1#0000000000000000
(1493280463.790906) can0 1BFC38BB#FFFFFFFFFFFFFFFF
(1493280463.791136) can0 1BFC38BA#535553500000001A
(1493280463.791532) can0 1BFC38B9#030296408005A3F4
(1493280463.791905) can0 1BFC38B8#0000000800000000
(1493280463.792157) can0 1BFC38B7#8001648425020213
(1493280463.792532) can0 1BFC38B6#000011F900000000
(1493280463.792781) can0 1BFC38B5#0502FF9202028292
(1493280463.793155) can0 1BFC38B4#00010101001F0003
(1493280463.793422) can0 1BFC38B3#8001648431001100
(1493280463.793789) can0 1BFC38B2#80016484838380F5
(1493280463.799762) can0 30B#5F00110000000098
(1493280463.849521) can0 6C7#04051101020001
(1493280463.849750) can0 1FD#0000000000000000
(1493280463.850181) can0 30B#5F00110000000098
(1493280463.850184) can0 5F2#CC00
(1493280463.852533) can0 3C0#6A7E1335
(1493280463.899041) can0 30B#5F00110000000098
(1493280463.908415) can0 1FD#0000000000000000
(1493280463.949542) can0 30B#5F00110000000098
(1493280463.955756) can0 3C0#6A7E1335
(1493280463.968415) can0 1FD#0000000000000000
(1493280463.999046) can0 30B#5F00110000000098
(1493280464.028422) can0 1FD#0000000000000000
(1493280464.041921) can0 1BFC38B1#0000000000000000
(1493280464.042327) can0 1BFC38BB#FFFFFFFFFFFFFFFF
(1493280464.042530) can0 1BFC38BA#535553500000001A
(1493280464.042920) can0 1BFC38B9#030296408005A3F4
(1493280464.043169) can0 1BFC38B8#0000000800000000
(1493280464.043543) can0 1BFC38B7#8001648425020213
(1493280464.043795) can0 1BFC38B6#000011FC001F0003
(1493280464.044170) can0 1BFC38B5#0502FF9202028292
(1493280464.044544) can0 1BFC38B4#00010101001F0003
(1493280464.044811) can0 1BFC38B3#8001648431003322
(1493280464.045043) can0 1BFC38B2#800164848383006A
(1493280464.050028) can0 6C7#04051101020001
(1493280464.050400) can0 30B#5F00110000000098
(1493280464.050508) can0 5F2#CC00
(1493280464.050629) can0 643#000200
(1493280464.051050) can0 64E#00B1040000000000
(1493280464.051318) can0 65E#8808FF4472620800
(1493280464.051523) can0 6B8#6D08000000000000
(1493280464.051803) can0 6BC#92823651324C07BA
(1493280464.059134) can0 3C0#6A7E1335
(1493280464.059639) can0 62D#3490205200
(1493280464.088420) can0 1FD#0000000000000000
(1493280464.099047) can0 30B#5F00110000000098
(1493280464.149680) can0 1FD#0000000000000000
(1493280464.149876) can0 30B#5F00110000000098
(1493280464.150176) can0 631#34D200
(1493280464.159578) can0 6B6#390C1C000D29
(1493280464.159973) can0 6B7#BEB4000008FF80FE
(1493280464.163133) can0 3C0#6A7E1335
(1493280464.199073) can0 30B#5F00110000000098
(1493280464.208421) can0 1FD#0000000000000000
(1493280464.249567) can0 6C7#04051101020001
(1493280464.249925) can0 30B#5F00110000000098
(1493280464.250024) can0 5F2#CC00
(1493280464.267059) can0 3C0#6A7E1335
(1493280464.268440) can0 1FD#0000000000000000
(1493280464.290680) can0 1BFC38B1#0000000000000000
(1493280464.290910) can0 1BFC38BB#FFFFFFFFFFFFFFFF
(1493280464.291306) can0 1BFC38BA#535553500000001A
(1493280464.291524) can0 1BFC38B9#030296408005A3F4
(1493280464.291912) can0 1BFC38B8#0000000800000000
(1493280464.292206) can0 1BFC38B7#8001648425020213
(1493280464.292571) can0 1BFC38B6#000011FE001F34A8
(1493280464.292804) can0 1BFC38B5#0502FF9202028292
(1493280464.293189) can0 1BFC38B4#00010101001F0003
(1493280464.293427) can0 1BFC38B3#8001648431003322
(1493280464.293814) can0 1BFC38B2#800164848383006A
(1493280464.299837) can0 30B#5F00110000000098
(1493280464.328435) can0 1FD#0000000000000000
(1493280464.349561) can0 30B#5F00110000000098
(1493280464.370422) can0 3C0#6A7E1335
(1493280464.388433) can0 1FD#0000000000000000
(1493280464.399091) can0 30B#5F00110000000098
(1493280464.449439) can0 6C7#04051101020001
(1493280464.449677) can0 1FD#0000000000000000
(1493280464.450064) can0 30B#5F00110000000098
(1493280464.450149) can0 5F2#CC00
(1493280464.474053) can0 3C0#6A7E1335
(1493280464.499068) can0 30B#5F00110000000098
(1493280464.508688) can0 1FD#0000000000000000
(1493280464.541973) can0 1BFC38B1#0000000000000000
(1493280464.542183) can0 1BFC38BB#FFFFFFFFFFFFFFFF
(1493280464.542563) can0 1BFC38BA#535553500000001A
(1493280464.542800) can0 1BFC38B9#040096408008FC68
(1493280464.543193) can0 1BFC38B8#0000000800000000
(1493280464.543568) can0 1BFC38B7#800164842502024F
(1493280464.543814) can0 1BFC38B6#0000120100000000
(1493280464.544194) can0 1BFC38B5#0502FF9202028292
(1493280464.544440) can0 1BFC38B4#00010101001F0003
(1493280464.544815) can0 1BFC38B3#8001648431003322
(1493280464.545070) can0 1BFC38B2#800164848383006A
(1493280464.550080) can0 30B#5F00110000000098
(1493280464.550436) can0 65E#8808D7456F5D0B00
(1493280464.559726) can0 62F#4451000D2A
(1493280464.568450) can0 1FD#0000000000000000
(1493280464.577439) can0 3C0#6A7E1335
(1493280464.599102) can0 30B#5F00110000000098
(1493280464.628451) can0 1FD#0000000000000000
(1493280464.649449) can0 6C7#04051101020001
(1493280464.649685) can0 30B#5F00110000000098
(1493280464.649948) can0 5F2#CC00
(1493280464.680702) can0 3C0#6A7E1335
(1493280464.688456) can0 1FD#0000000000000000
(1493280464.699074) can0 30B#5F00110000000098
(1493280464.749618) can0 1FD#0000000000000000
(1493280464.749835) can0 30B#5F00110000000098
(1493280464.784457) can0 3C0#6A7E1335
(1493280464.790736) can0 1BFC38B1#0000000000000000
(1493280464.790963) can0 1BFC38BB#FFFFFFFFFFFFFFFF
(1493280464.791311) can0 1BFC38BA#0000000700000014
(1493280464.791566) can0 1BFC38B9#040096408008FC68
(1493280464.791985) can0 1BFC38B8#0000000800000000
(1493280464.792356) can0 1BFC38B7#800164842502024F
(1493280464.792572) can0 1BFC38B6#0000120300000000
(1493280464.792965) can0 1BFC38B5#0502FF9202028292
(1493280464.793194) can0 1BFC38B4#00010101001F0003
(1493280464.793561) can0 1BFC38B3#8001648431003322
(1493280464.793810) can0 1BFC38B2#800164848383006A
(1493280464.799860) can0 30B#5F00110000000098
(1493280464.808457) can0 1FD#0000000000000000
(1493280464.849486) can0 6C7#04051101020001
(1493280464.849843) can0 30B#5F00110000000098
(1493280464.849964) can0 5F2#CC00
(1493280464.868494) can0 1FD#0000000000000000
(1493280464.887675) can0 3C0#6A7E1335
(1493280464.899117) can0 30B#5F00110000000098
(1493280464.928459) can0 1FD#0000000000000000
(1493280464.949584) can0 30B#5F00110000000098
(1493280464.982578) can0 592#9B222672
(1493280464.988428) can0 1FD#0000000000000000
(1493280464.993548) can0 3C0#6A7E1335
(1493280464.999097) can0 30B#5F00110000000098
(1493280465.032782) can0 5FE#2C7D7B556B520537
(1493280465.041971) can0 1BFC38B1#0000000000000000
(1493280465.042339) can0 1BFC38BB#FFFFFFFFFFFFFFFF
(1493280465.042584) can0 1BFC38BA#0000000700000014
(1493280465.042976) can0 1BFC38B9#040096408008FC68
(1493280465.043224) can0 1BFC38B8#0000000800000000
(1493280465.043604) can0 1BFC38B7#800164842502024F
(1493280465.043982) can0 1BFC38B6#00001206001F0003
(1493280465.044209) can0 1BFC38B5#0502FF9202028292
(1493280465.044615) can0 1BFC38B4#00010101001F0003
(1493280465.044857) can0 1BFC38B3#8001648432408877
(1493280465.045243) can0 1BFC38B2#8001648483838071
(1493280465.050124) can0 6C7#04051101020001
(1493280465.050473) can0 1FD#0000000000000000
(1493280465.050593) can0 30B#5F00110000000098
(1493280465.050789) can0 5F2#CC00
(1493280465.050920) can0 643#000200
(1493280465.051296) can0 64E#00B1040000000000
(1493280465.051569) can0 65E#88081CE58D500700
(1493280465.051793) can0 6B8#6D08000000000000
(1493280465.052046) can0 6BC#92823651324C07BC
(1493280465.082998) can0 171#69B1C860ADA7C96E
(1493280465.097109) can0 3C0#6A7E1335
(1493280465.099078) can0 30B#5F00110000000098
(1493280465.108747) can0 1FD#0000000000000000
(1493280465.133155) can0 776#8F733649082DB91F
(1493280465.149736) can0 30B#5F00110000000098
(1493280465.159007) can0 6B6#390C1C000D2A
(1493280465.159344) can0 6B7#BEB4000008FF80FE
(1493280465.168598) can0 1FD#0000000000000000
(1493280465.183249) can0 25D#D3D97E4DEE9F67
(1493280465.199101) can0 30B#5F00110000000098
(1493280465.200476) can0 3C0#6A7E1335
(1493280465.228517) can0 1FD#0000000000000000
(1493280465.233498) can0 200#FC126F18CD2D8858
(1493280465.249604) can0 6C7#04051101020001
(1493280465.249842) can0 30B#5F00110000000098
(1493280465.250069) can0 5F2#CC00
(1493280465.283630) can0 0DD#96
(1493280465.288600) can0 1FD#0000000000000000
(1493280465.290727) can0 1BFC38B1#0000000000000000
(1493280465.291105) can0 1BFC38BB#FFFFFFFFFFFFFFFF
(1493280465.291487) can0 1BFC38BA#0000000700000014
(1493280465.291743) can0 1BFC38B9#040096408008FC68
(1493280465.292161) can0 1BFC38B8#0000000800000000
(1493280465.292348) can0 1BFC38B7#800164842502024F
(1493280465.292726) can0 1BFC38B6#0000120802028292
(1493280465.292979) can0 1BFC38B5#0502FF9202028292
(1493280465.293354) can0 1BFC38B4#00010101001F0003
(1493280465.293602) can0 1BFC38B3#8001648432408877
(1493280465.293975) can0 1BFC38B2#8001648483838071
(1493280465.300011) can0 30B#5F00110000000098
(1493280465.304943) can0 3C0#6A7E1335
(1493280465.333814) can0 6A6#7C
(1493280465.349623) can0 1FD#0000000000000000
(1493280465.349859) can0 30B#5F00110000000098
(1493280465.383873) can0 276#00A4BD59744819
(1493280465.399108) can0 30B#5F00110000000098
(1493280465.408862) can0 3C0#6A7E1335
(1493280465.408866) can0 1FD#0000000000000000
(1493280465.433991) can0 5C4#E09A1E533567F273
(1493280465.449624) can0 6C7#04051101020001
(1493280465.449850) can0 30B#5F00110000000098
(1493280465.450105) can0 5F2#CC00
(1493280465.468611) can0 1FD#0000000000000000
(1493280465.484257) can0 278#E30EBC62EED93336
(1493280465.499371) can0 30B#5F00110000000098
(1493280465.512233) can0 3C0#6A7E1335
(1493280465.528626) can0 1FD#0000000000000000
(1493280465.534388) can0 334#F606
(1493280465.541997) can0 1BFC38B1#0000000000000000
(1493280465.542349) can0 1BFC38BB#FFFFFFFFFFFFFFFF
(1493280465.542722) can0 1BFC38BA#0000000700000014
(1493280465.542982) can0 1BFC38B9#050296408005A3F4
(1493280465.543347) can0 1BFC38B8#0000000800000000
(1493280465.543609) can0 1BFC38B7#800164842502028B
(1493280465.543984) can0 1BFC38B6#0000120B00000000
(1493280465.544258) can0 1BFC38B5#0502FF9202028292
(1493280465.544634) can0 1BFC38B4#00010101001F0003
(1493280465.544883) can0 1BFC38B3#8001648432408877
(1493280465.545235) can0 1BFC38B2#8001648483838071
(1493280465.550253) can0 30B#5F00110000000098
(1493280465.550474) can0 65E#8808D70689D40500
(1493280465.559753) can0 62F#4451000D2B
(1493280465.584537) can0 5DA#7F0D9B3ADA8F6B18
(1493280465.588618) can0 1FD#0000000000000000
(1493280465.599152) can0 30B#5F00110000000098
(1493280465.615843) can0 3C0#6A7E1335
(1493280465.634615) can0 7A1#A7BDF3707FC8A22E
(1493280465.649623) can0 6C7#04051101020001
(1493280465.649862) can0 1FD#0000000000000000
(1493280465.650249) can0 30B#5F00110000000098
(1493280465.650360) can0 5F2#CC00
(1493280465.650615) can0 630#33C37803E0080272
(1493280465.684919) can0 7BC#5E2F8B4063E62F2F
(1493280465.699164) can0 30B#5F00110000000098
(1493280465.708781) can0 1FD#0000000000000000
(1493280465.719086) can0 3C0#6A7E1335
(1493280465.735005) can0 68F#9B3246270519FE38
(1493280465.749751) can0 30B#5F00110000000098
(1493280465.768662) can0 1FD#0000000000000000
(1493280465.785268) can0 6F2#79611755B6949722
(1493280465.790784) can0 1BFC38B1#0000000000000000
(1493280465.791154) can0 1BFC38BB#FFFFFFFFFFFFFFFF
(1493280465.791503) can0 1BFC38BA#535553500000001A
(1493280465.791753) can0 1BFC38B9#050296408005A3F4
(1493280465.792145) can0 1BFC38B8#0000000800000000
(1493280465.792379) can0 1BFC38B7#800164842502028B
(1493280465.792753) can0 1BFC38B6#0000120D00000000
(1493280465.793029) can0 1BFC38B5#0502FF9202028292
(1493280465.793392) can0 1BFC38B4#00010101001F0003
(1493280465.793658) can0 1BFC38B3#8001648432408877
(1493280465.794014) can0 1BFC38B2#8001648483838071
(1493280465.800038) can0 30B#5F00110000000098
(1493280465.822859) can0 3C0#6A7E1335
(1493280465.828659) can0 1FD#0000000000000000
(1493280465.835388) can0 7C8#ECFB89164082F937
(1493280465.849628) can0 6C7#04051101020001
(1493280465.849893) can0 30B#5F00110000000098
(1493280465.849966) can0 5F2#CD00
(1493280465.885681) can0 0A3#2E5C2D6ED783B052
(1493280465.888663) can0 1FD#0000000000000000
(1493280465.899258) can0 30B#5F00110000000098
(1493280465.926635) can0 3C0#6A7E1335
(1493280465.935771) can0 541#68F1E37E1B
(1493280465.949761) can0 1FD#0000000000000000
(1493280465.950012) can0 30B#5F00110000000098
(1493280465.986082) can0 3EE#F5EAFC1990E3CE
(1493280465.999287) can0 30B#5F00110000000098
(1493280466.008795) can0 1FD#0000000000000000
(1493280466.030125) can0 3C0#6A7E1335
(1493280466.036148) can0 762#0FAC71211EFF4367
(1493280466.042288) can0 1BFC38B1#0000000000000000
(1493280466.042476) can0 1BFC38BB#FFFFFFFFFFFFFFFF
(1493280466.042872) can0 1BFC38BA#535553500000001A
(1493280466.043123) can0 1BFC38B9#050296408005A3F4
(1493280466.043495) can0 1BFC38B8#0000000800000000
(1493280466.043742) can0 1BFC38B7#800164842502028B
(1493280466.044162) can0 1BFC38B6#00001210001F0003
(1493280466.044534) can0 1BFC38B5#0502FF9202028292
(1493280466.044762) can0 1BFC38B4#00010101001F0003
(1493280466.045024) can0 1BFC38B3#800164843100DDCC
(1493280466.045375) can0 1BFC38B2#80016484838380F7
(1493280466.048651) can0 6C7#04051101020001
(1493280466.048883) can0 30B#5F00110000000098
(1493280466.049167) can0 5F2#CD00
(1493280466.049237) can0 643#000200
(1493280466.049491) can0 64E#00B1040000000000
(1493280466.049868) can0 65E#8808A4F3A18E0800
(1493280466.050132) can0 6B8#6D08000000000000
(1493280466.050378) can0 6BC#92823651324C07BE
(1493280466.059679) can0 62D#3491023601
(1493280466.068673) can0 1FD#0000000000000000
(1493280466.086402) can0 6DA#81E57316695D7273
(1493280466.099157) can0 30B#5F00110000000098
(1493280466.128682) can0 1FD#0000000000000000
(1493280466.133977) can0 3C0#6A7E1335
(1493280466.136486) can0 548#6E76702C3A24B22E
(1493280466.149933) can0 30B#5F00110000000098
(1493280466.150115) can0 631#34D300
(1493280466.158891) can0 6B6#390C1C000D2B
(1493280466.159147) can0 6B7#BEB4000008FF80FE
(1493280466.186641) can0 6B8#F0B8495180E6FA
(1493280466.188631) can0 1FD#0000000000000000
(1493280466.199300) can0 30B#5F00110000000098
(1493280466.236744) can0 441#C068F426E41CDB05
(1493280466.237867) can0 3C0#6A7E1335
(1493280466.249776) can0 6C7#04051101020001
(1493280466.250149) can0 1FD#0000000000000000
(1493280466.250384) can0 30B#5F00110000000098
(1493280466.250482) can0 5F2#CD00
(1493280466.286856) can0 7AB#BBA08B58ED4C5206
(1493280466.290932) can0 1BFC38B1#0000000000000000
(1493280466.291194) can0 1BFC38BB#FFFFFFFFFFFFFFFF
(1493280466.291554) can0 1BFC38BA#535553500000001A
(1493280466.291787) can0 1BFC38B9#050296408005A3F4
(1493280466.292151) can0 1BFC38B8#0000000800000000
(1493280466.292525) can0 1BFC38B7#800164842502028B
(1493280466.292738) can0 1BFC38B6#00001212001F34A8
(1493280466.293003) can0 1BFC38B5#0502FF9202028292
(1493280466.293383) can0 1BFC38B4#00010101001F0003
(1493280466.293634) can0 1BFC38B3#800164843100DDCC
(1493280466.294057) can0 1BFC38B2#80016484838380F7
(1493280466.300058) can0 30B#5F00110000000098
(1493280466.308689) can0 1FD#0000000000000000
(1493280466.337019) can0 014#08A8E3
(1493280466.341140) can0 3C0#6A7E1335
(1493280466.349690) can0 30B#5F00110000000098
(1493280466.368655) can0 1FD#0000000000000000
(1493280466.387124) can0 10A#924F91336CB0771D
(1493280466.399309) can0 30B#5F00110000000098
(1493280466.428657) can0 1FD#0000000000000000
(1493280466.437450) can0 39A#8A
(1493280466.444770) can0 3C0#6A7E1335
(1493280466.449664) can0 6C7#04051101020001
(1493280466.450033) can0 30B#5F00110000000098
(1493280466.450150) can0 5F2#CD00
(1493280466.487564) can0 70F#DD8F10685724B04C
(1493280466.488662) can0 1FD#0000000000000000
(1493280466.499319) can0 30B#5F00110000000098
(1493280466.537830) can0 529#9148627BE19BA717
(1493280466.542164) can0 1BFC38B1#0000000000000000
(1493280466.542539) can0 1BFC38BB#FFFFFFFFFFFFFFFF
(1493280466.542793) can0 1BFC38BA#535553500000001A
(1493280466.543037) can0 1BFC38B9#060096408008FC68
(1493280466.543439) can0 1BFC38B8#0000000800000000
(1493280466.543672) can0 1BFC38B7#80016484250202C7
(1493280466.544022) can0 1BFC38B6#0000121500000000
(1493280466.544270) can0 1BFC38B5#0502FF9202028292
(1493280466.544642) can0 1BFC38B4#00010101001F0003
(1493280466.544892) can0 1BFC38B3#800164843100DDCC
(1493280466.545288) can0 1BFC38B2#80016484838380F7
(1493280466.548541) can0 3C0#6A7E1335
(1493280466.550308) can0 1FD#0000000000000000
(1493280466.550674) can0 30B#5F00110000000098
(1493280466.550908) can0 65E#88081935A2490900
(1493280466.560027) can0 62F#4451000D2C
(1493280466.587950) can0 633#62
(1493280466.599305) can0 30B#5F00110000000098
(1493280466.608824) can0 1FD#0000000000000000
(1493280466.638226) can0 65E#58CF
(1493280466.649698) can0 6C7#04051101020001
(1493280466.650061) can0 30B#5F00110000000098
(1493280466.650165) can0 5F2#CD00
(1493280466.652169) can0 3C0#6A7E1335
(1493280466.668675) can0 1FD#0000000000000000
(1493280466.688281) can0 011#F6C2EB
(1493280466.699283) can0 30B#5F00110000000098
(1493280466.728690) can0 1FD#0000000000000000
(1493280466.738503) can0 236#2844B75C40938B06
(1493280466.749801) can0 30B#5F00110000000098
(1493280466.756168) can0 3C0#6A7E1335
(1493280466.788572) can0 5FD#AC43032497398172
(1493280466.788647) can0 1FD#0000000000000000
(1493280466.790960) can0 1BFC38B1#0000000000000000
(1493280466.791176) can0 1BFC38BB#FFFFFFFFFFFFFFFF
(1493280466.791579) can0 1BFC38BA#0000000700000014
(1493280466.791779) can0 1BFC38B9#060096408008FC68
(1493280466.792174) can0 1BFC38B8#0000000800000000
(1493280466.792552) can0 1BFC38B7#80016484250202C7
(1493280466.792801) can0 1BFC38B6#0000121700000000
(1493280466.793142) can0 1BFC38B5#0502FF9202028292
(1493280466.793531) can0 1BFC38B4#00010101001F0003
(1493280466.793792) can0 1BFC38B3#800164843100DDCC
(1493280466.794033) can0 1BFC38B2#80016484838380F7
(1493280466.800054) can0 30B#5F00110000000098
(1493280466.838692) can0 75C#0C6C1F676B66
(1493280466.849678) can0 6C7#04051101020001
(1493280466.850055) can0 1FD#0000000000000000
(1493280466.850293) can0 30B#5F00110000000098
(1493280466.850573) can0 5F2#CD00
(1493280466.860304) can0 3C0#6A7E1335
(1493280466.888837) can0 042#C28AFB686B35D81C
(1493280466.899315) can0 30B#5F00110000000098
(1493280466.908935) can0 1FD#0000000000000000
(1493280466.938959) can0 235#4DD17F
(1493280466.949822) can0 30B#5F00110000000098
(1493280466.963774) can0 3C0#6A7E1335
(1493280466.968685) can0 1FD#0000000000000000
(1493280466.989121) can0 4D4#DC928039328B8965
(1493280466.999307) can0 30B#5F00110000000098
(1493280467.028689) can0 1FD#0000000000000000
(1493280467.039193) can0 6D1#3C01237B
(1493280467.042191) can0 1BFC38B1#0000000000000000
(1493280467.042561) can0 1BFC38BB#FFFFFFFFFFFFFFFF
(1493280467.042810) can0 1BFC38BA#0000000700000014
(1493280467.043181) can0 1BFC38B9#060096408008FC68
(1493280467.043562) can0 1BFC38B8#0000000800000000
(1493280467.043811) can0 1BFC38B7#80016484250202C7
(1493280467.044184) can0 1BFC38B6#0000121A001F0003
(1493280467.044439) can0 1BFC38B5#0502FF9202028292
(1493280467.044810) can0 1BFC38B4#00010101001F0003
(1493280467.045058) can0 1BFC38B3#800164843100FFEE
(1493280467.045450) can0 1BFC38B2#800164848383007C
(1493280467.050345) can0 6C7#04051101020001
(1493280467.050735) can0 30B#5F00110000000098
(1493280467.050832) can0 5F2#CD00
(1493280467.051053) can0 643#000200
(1493280467.051327) can0 64E#00B1040000000000
(1493280467.051591) can0 65E#88083A374BDB0300
(1493280467.051776) can0 6B8#6D08000000000000
(1493280467.052170) can0 6BC#92823651324C07BF
(1493280467.067566) can0 3C0#6A7E1335
(1493280467.088701) can0 1FD#0000000000000000
(1493280467.089457) can0 247#08C7
(1493280467.099326) can0 30B#5F00110000000098
(1493280467.139581) can0 731#
(1493280467.149974) can0 1FD#0000000000000000
(1493280467.150180) can0 30B#5F00110000000098
(1493280467.159054) can0 6B6#390C1C000D2C
(1493280467.159313) can0 6B7#BEB4000008FF80FE
(1493280467.171329) can0 3C0#6A7E1335
(1493280467.189682) can0 6EB#C6660F73472EB219
(1493280467.199323) can0 30B#5F00110000000098
(1493280467.208808) can0 1FD#0000000000000000
(1493280467.239825) can0 69F#B294
(1493280467.249854) can0 6C7#04051101020001
(1493280467.250230) can0 30B#5F00110000000098
(1493280467.250232) can0 5F2#CD00
(1493280467.268711) can0 1FD#0000000000000000
(1493280467.274823) can0 3C0#6A7E1335
(1493280467.289964) can0 6BB#4D5C0147
(1493280467.290932) can0 1BFC38B1#0000000000000000
(1493280467.291307) can0 1BFC38BB#FFFFFFFFFFFFFFFF
(1493280467.291555) can0 1BFC38BA#0000000700000014
(1493280467.291950) can0 1BFC38B9#060096408008FC68
(1493280467.292224) can0 1BFC38B8#0000000800000000
(1493280467.292608) can0 1BFC38B7#80016484250202C7
(1493280467.292834) can0 1BFC38B6#0000121C02028292
(1493280467.293197) can0 1BFC38B5#0502FF9202028292
(1493280467.293588) can0 1BFC38B4#00010101001F0003
(1493280467.293810) can0 1BFC38B3#800164843100FFEE
(1493280467.294052) can0 1BFC38B2#800164848383007C
(1493280467.300027) can0 30B#5F00110000000098
(1493280467.328705) can0 1FD#0000000000000000
(1493280467.340244) can0 2C7#58B1C9069BC76034
(1493280467.349857) can0 30B#5F00110000000098
(1493280467.378035) can0 3C0#6A7E1335
(1493280467.388700) can0 1FD#0000000000000000
(1493280467.390164) can0 149#CE52EA19
(1493280467.399427) can0 30B#5F00110000000098
(1493280467.440473) can0 668#FEAECE4AAF78BC5C
(1493280467.449862) can0 6C7#04051101020001
(1493280467.450082) can0 1FD#0000000000000000
(1493280467.450323) can0 30B#5F00110000000098
(1493280467.450569) can0 5F2#CD00
(1493280467.483308) can0 3C0#6A7E1335
(1493280467.493719) can0 03C#2C4DA96F6E47
(1493280467.499463) can0 30B#5F00110000000098
(1493280467.509212) can0 1FD#0000000000000000
(1493280467.540724) can0 137#9C7488672220BA6A
(1493280467.542225) can0 1BFC38B1#0000000000000000
(1493280467.542597) can0 1BFC38BB#FFFFFFFFFFFFFFFF
(1493280467.542968) can0 1BFC38BA#0000000700000014
(1493280467.543223) can0 1BFC38B9#070296408005A3F4
(1493280467.543596) can0 1BFC38B8#0000000800000000
(1493280467.543852) can0 1BFC38B7#8001648425020203
(1493280467.544222) can0 1BFC38B6#0000121F00000000
(1493280467.544594) can0 1BFC38B5#0502FF9202028292
(1493280467.544820) can0 1BFC38B4#00010101001F0003
(1493280467.545072) can0 1BFC38B3#800164843100FFEE
(1493280467.545468) can0 1BFC38B2#800164848383007C
(1493280467.550469) can0 30B#5F00110000000098
(1493280467.550725) can0 65E#88080EE45AAE0900
(1493280467.559974) can0 62F#4451000D2D
(1493280467.568847) can0 1FD#0000000000000000
(1493280467.587062) can0 3C0#6A7E1335
(1493280467.590850) can0 052#694E
(1493280467.599469) can0 30B#5F00110000000098
(1493280467.628868) can0 1FD#0000000000000000
(1493280467.640971) can0 634#D4250157F07C255E
(1493280467.649870) can0 6C7#04051101020001
(1493280467.650079) can0 30B#5F00110000000098
(1493280467.650193) can0 5F2#CD00
(1493280467.650494) can0 630#33C414
(1493280467.688792) can0 1FD#0000000000000000
(1493280467.690588) can0 3C0#6A7E1335
(1493280467.691046) can0 28F#E0
(1493280467.699471) can0 30B#5F00110000000098
(1493280467.741227) can0 7BC#F1BC1A1105312750
(1493280467.749972) can0 1FD#0000000000000000
(1493280467.750213) can0 30B#5F00110000000098
(1493280467.790979) can0 1BFC38B1#0000000000000000
(1493280467.791345) can0 1BFC38BB#FFFFFFFFFFFFFFFF
(1493280467.791456) can0 36D#20F1836FD6E9B571
(1493280467.791549) can0 1BFC38BA#535553500000001A
(1493280467.792107) can0 1BFC38B9#070296408005A3F4
(1493280467.792487) can0 1BFC38B8#0000000800000000
(1493280467.792836) can0 1BFC38B7#8001648425020203
(1493280467.793096) can0 1BFC38B6#0000122100000000
(1493280467.793440) can0 1BFC38B5#0502FF9202028292
(1493280467.793683) can0 1BFC38B4#00010101001F0003
(1493280467.794057) can0 1BFC38B3#800164843100FFEE
(1493280467.794313) can0 1BFC38B2#800164848383007C
(1493280467.794547) can0 3C0#6A7E1335
(1493280467.800113) can0 30B#5F00110000000098
(1493280467.808879) can0 1FD#0000000000000000
(1493280467.841601) can0 3C9#8562724E067C2E6C
(1493280467.849860) can0 6C7#04051101020001
(1493280467.850097) can0 30B#5F00110000000098
(1493280467.850214) can0 5F2#CD00
(1493280467.868869) can0 1FD#0000000000000000
(1493280467.891874) can0 625#74C3
(1493280467.897965) can0 3C0#6A7E1335
(1493280467.899438) can0 30B#5F00110000000098
(1493280467.928855) can0 1FD#0000000000000000
(1493280467.941995) can0 49B#
(1493280467.950120) can0 30B#5F00110000000098
(1493280467.988856) can0 1FD#0000000000000000
(1493280467.992275) can0 373#E0C3B23AA7C10F
(1493280467.999507) can0 30B#5F00110000000098
(1493280468.002112) can0 3C0#6A7E1335
(1493280468.042364) can0 102#973E3528
(1493280468.042367) can0 1BFC38B1#0000000000000000
(1493280468.042602) can0 1BFC38BB#FFFFFFFFFFFFFFFF
(1493280468.043112) can0 1BFC38BA#535553500000001A
(1493280468.043485) can0 1BFC38B9#070296408005A3F4
(1493280468.043734) can0 1BFC38B8#0000000800000000
(1493280468.044149) can0 1BFC38B7#8001648425020203
(1493280468.044358) can0 1BFC38B6#00001224001F0003
(1493280468.044762) can0 1BFC38B5#0502FF9202028292
(1493280468.044987) can0 1BFC38B4#00010101001F0003
(1493280468.045371) can0 1BFC38B3#8001648432404433
(1493280468.045622) can0 1BFC38B2#8001648483838063
(1493280468.048870) can0 6C7#04051101020001
(1493280468.049117) can0 1FD#0000000000000000
(1493280468.049376) can0 30B#5F00110000000098
(1493280468.049614) can0 5F2#CD00
(1493280468.049702) can0 643#000200
(1493280468.050003) can0 64E#00B1040000000000
(1493280468.050356) can0 65E#8808F73943740300
(1493280468.050601) can0 6B8#6D08000000000000
(1493280468.050856) can0 6BC#92823651324C07C0
(1493280468.059878) can0 62D#349220C900
(1493280468.092615) can0 3D5#E7E08862911B3A49
(1493280468.099518) can0 30B#5F00110000000098
(1493280468.105609) can0 3C0#6A7E1335
(1493280468.109027) can0 1FD#0000000000000000
(1493280468.142760) can0 3B1#974C61191ECFB237
(1493280468.150034) can0 30B#5F00110000000098
(1493280468.150518) can0 631#34D400
(1493280468.159254) can0 6B6#390C1C000D2D
(1493280468.159497) can0 6B7#BEB4000008FF80FE
(1493280468.168884) can0 1FD#0000000000000000
(1493280468.192870) can0 598#F4B868296111BB
(1493280468.199496) can0 30B#5F00110000000098
(1493280468.208957) can0 3C0#6A7E1335
(1493280468.228907) can0 1FD#0000000000000000
(1493280468.243151) can0 5D6#678DE94AFBF3BF0F
(1493280468.250006) can0 6C7#04051101020001
(1493280468.250246) can0 30B#5F00110000000098
(1493280468.250374) can0 5F2#CD00
(1493280468.288877) can0 1FD#0000000000000000
(1493280468.291002) can0 1BFC38B1#0000000000000000
(1493280468.291374) can0 1BFC38BB#FFFFFFFFFFFFFFFF
(1493280468.291614) can0 1BFC38BA#535553500000001A
(1493280468.292000) can0 1BFC38B9#070296408005A3F4
(1493280468.292373) can0 1BFC38B8#0000000800000000
(1493280468.292621) can0 1BFC38B7#8001648425020203
(1493280468.292998) can0 1BFC38B6#00001226001F34A8
(1493280468.293114) can0 32C#578B9B12C72F347D
(1493280468.293241) can0 1BFC38B5#0502FF9202028292
(1493280468.293622) can0 1BFC38B4#00010101001F0003
(1493280468.294130) can0 1BFC38B3#8001648432404433
(1493280468.294387) can0 1BFC38B2#8001648483838063
(1493280468.300261) can0 30B#5F00110000000098
(1493280468.312879) can0 3C0#6A7E1335
(1493280468.343374) can0 0EC#B5F40E0B5F
(1493280468.350013) can0 1FD#0000000000000000
(1493280468.350254) can0 30B#5F00110000000098
(1493280468.393528) can0 0BC#065E1C38BE
(1493280468.399502) can0 30B#5F00110000000098
(1493280468.409254) can0 1FD#0000000000000000
(1493280468.416246) can0 3C0#6A7E1335
(1493280468.443643) can0 249#4F1D6E241F0E2C07
(1493280468.449880) can0 6C7#04051101020001
(1493280468.450141) can0 30B#5F00110000000098
(1493280468.450365) can0 5F2#CD00
(1493280468.468883) can0 1FD#0000000000000000
(1493280468.493923) can0 116#B0296650C7B4
(1493280468.499509) can0 30B#5F00110000000098
(1493280468.519603) can0 3C0#6A7E1335
(1493280468.528917) can0 1FD#0000000000000000
(1493280468.542414) can0 1BFC38B1#0000000000000000
(1493280468.542632) can0 1BFC38BB#FFFFFFFFFFFFFFFF
(1493280468.542991) can0 1BFC38BA#535553500000001A
(1493280468.543241) can0 1BFC38B9#000096408008FC68
(1493280468.543615) can0 1BFC38B8#0000000800000000
(1493280468.543880) can0 40E#E583D830A64943
(1493280468.543883) can0 1BFC38B7#800164842502023F
(1493280468.544282) can0 1BFC38B6#0000122900000000
(1493280468.544792) can0 1BFC38B5#0502FF9202028292
(1493280468.545163) can0 1BFC38B4#00010101001F0003
(1493280468.545427) can0 1BFC38B3#8001648432404433
(1493280468.545793) can0 1BFC38B2#8001648483838063
(1493280468.550665) can0 30B#5F00110000000098
(1493280468.550880) can0 65E#8808BC5686110A00
(1493280468.560019) can0 62F#4451000D2E
(1493280468.588882) can0 1FD#0000000000000000
(1493280468.594137) can0 3FF#085BFE77D591E435
(1493280468.599639) can0 30B#5F00110000000098
(1493280468.623226) can0 3C0#6A7E1335
(1493280468.644144) can0 054#D085A44580231308
(1493280468.649890) can0 6C7#04051101020001
(1493280468.650266) can0 1FD#0000000000000000
(1493280468.650544) can0 30B#5F00110000000098
(1493280468.650613) can0 5F2#CD00
(1493280468.694415) can0 14B#4753470537C2BD
(1493280468.699549) can0 30B#5F00110000000098
(1493280468.709150) can0 1FD#0000000000000000
(1493280468.726723) can0 3C0#6A7E1335
(1493280468.744582) can0 3FC#965ECA27B89CA44A
(1493280468.750047) can0 30B#5F00110000000098
(1493280468.768906) can0 1FD#0000000000000000
(1493280468.791149) can0 1BFC38B1#0000000000000000
(1493280468.791386) can0 1BFC38BB#FFFFFFFFFFFFFFFF
(1493280468.791799) can0 1BFC38BA#0000000700000014
(1493280468.792013) can0 1BFC38B9#000096408008FC68
(1493280468.792396) can0 1BFC38B8#0000000800000000
(1493280468.792649) can0 1BFC38B7#800164842502023F
(1493280468.793049) can0 1BFC38B6#0000122B00000000
(1493280468.793269) can0 1BFC38B5#0502FF9202028292
(1493280468.793647) can0 1BFC38B4#00010101001F0003
(1493280468.794024) can0 1BFC38B3#8001648432404433
(1493280468.794272) can0 1BFC38B2#8001648483838063
(1493280468.794677) can0 092#76CE4369DCA28D2D
(1493280468.800283) can0 30B#5F00110000000098
(1493280468.828892) can0 1FD#0000000000000000
(1493280468.830398) can0 3C0#6A7E1335
(1493280468.844853) can0 13A#FBB0B93450
(1493280468.850177) can0 6C7#04051101020001
(1493280468.850403) can0 30B#5F00110000000098
(1493280468.850626) can0 5F2#CD00
(1493280468.888908) can0 1FD#0000000000000000
(1493280468.894899) can0 1FB#17371A2D0986430F
(1493280468.899651) can0 30B#5F00110000000098
(1493280468.933889) can0 3C0#6A7E1335
(1493280468.945084) can0 0F3#B0CF8628F2049461
(1493280468.950182) can0 1FD#0000000000000000
(1493280468.950403) can0 30B#5F00110000000098
(1493280468.995301) can0 7D7#C79678172B50500A
(1493280468.999531) can0 30B#5F00110000000098
(1493280469.009191) can0 1FD#0000000000000000
(1493280469.037789) can0 3C0#6A7E1335
(1493280469.042565) can0 1BFC38B1#0000000000000000
(1493280469.042939) can0 1BFC38BB#FFFFFFFFFFFFFFFF
(1493280469.043124) can0 1BFC38BA#0000000700000014
(1493280469.043543) can0 1BFC38B9#000096408008FC68
(1493280469.043797) can0 1BFC38B8#0000000800000000
(1493280469.044174) can0 1BFC38B7#800164842502023F
(1493280469.044423) can0 1BFC38B6#0000122E001F0003
(1493280469.044798) can0 1BFC38B5#0502FF9202028292
(1493280469.045026) can0 1BFC38B4#00010101001F0003
(1493280469.045297) can0 327#AB736312724C67
(1493280469.045374) can0 1BFC38B3#8001648431009988
(1493280469.045664) can0 1BFC38B2#80016484838380B9
(1493280469.048942) can0 6C7#04051101020001
(1493280469.049160) can0 30B#5F00110000000098
(1493280469.049436) can0 5F2#CD00
(1493280469.049667) can0 643#000200
(1493280469.049900) can0 64E#00B1040000000000
(1493280469.050140) can0 65E#8808AE168F980900
(1493280469.050389) can0 6B8#6D08000000000000
(1493280469.050640) can0 6BC#92823651324C07C1
(1493280469.068913) can0 1FD#0000000000000000
(1493280469.095551) can0 5BE#A90E
(1493280469.099564) can0 30B#5F00110000000098
(1493280469.128932) can0 1FD#0000000000000000
(1493280469.141670) can0 3C0#6A7E1335
(1493280469.145723) can0 6EF#721E7358820F197E
(1493280469.150072) can0 30B#5F00110000000098
(1493280469.159444) can0 6B6#390C1C000D2E
(1493280469.159676) can0 6B7#BEB4000008FF80FE
(1493280469.188910) can0 1FD#0000000000000000
(1493280469.195803) can0 1DC#5EB2A62B16830E46
(1493280469.199665) can0 30B#5F00110000000098
(1493280469.245384) can0 3C0#6A7E1335
(1493280469.245880) can0 0AD#6705037AA8C21164
(1493280469.250073) can0 6C7#04051101020001
(1493280469.250424) can0 1FD#0000000000000000
(1493280469.250699) can0 30B#5F00110000000098
(1493280469.250776) can0 5F2#CD00
(1493280469.291174) can0 1BFC38B1#0000000000000000
(1493280469.291404) can0 1BFC38BB#FFFFFFFFFFFFFFFF
(1493280469.291814) can0 1BFC38BA#0000000700000014
(1493280469.292043) can0 1BFC38B9#000096408008FC68
(1493280469.292453) can0 1BFC38B8#0000000800000000
(1493280469.292822) can0 1BFC38B7#800164842502023F
(1493280469.293085) can0 1BFC38B6#0000123002038292
(1493280469.293470) can0 1BFC38B5#0502FF9202038292
(1493280469.293670) can0 1BFC38B4#00010101001F0003
(1493280469.294048) can0 1BFC38B3#8001648431009988
(1493280469.294293) can0 1BFC38B2#80016484838380B9
(1493280469.296038) can0 604#B1485573F78E6754
(1493280469.300431) can0 30B#5F00110000000098
(1493280469.309065) can0 1FD#0000000000000000
(1493280469.346199) can0 77B#E9
(1493280469.349307) can0 3C0#6A7E1335
(1493280469.350178) can0 30B#5F00110000000098
(1493280469.368927) can0 1FD#0000000000000000
(1493280469.396341) can0 319#
(1493280469.399674) can0 30B#5F00110000000098
(1493280469.428948) can0 1FD#0000000000000000
(1493280469.446428) can0 747#B3A235640575EE5F
(1493280469.450055) can0 6C7#04051101020001
(1493280469.450290) can0 30B#5F00110000000098
(1493280469.450550) can0 5F2#CC00
(1493280469.452631) can0 3C0#6A7E1335
(1493280469.488932) can0 1FD#0000000000000000
(1493280469.496634) can0 21B#BFF6BC6D0A89A319
(1493280469.499679) can0 30B#5F00110000000098
(1493280469.542439) can0 1BFC38B1#0000000000000000
(1493280469.542821) can0 1BFC38BB#FFFFFFFFFFFFFFFF
(1493280469.543047) can0 1BFC38BA#0000000700000014
(1493280469.543433) can0 1BFC38B9#010296408005A3F4
(1493280469.543674) can0 1BFC38B8#0000000800000000
(1493280469.544047) can0 1BFC38B7#800164842502027B
(1493280469.544297) can0 1BFC38B6#0000123300000000
(1493280469.544674) can0 1BFC38B5#0502FF9202038292
(1493280469.545044) can0 1BFC38B4#00010101001F0003
(1493280469.545275) can0 1BFC38B3#8001648431009988
(1493280469.545649) can0 1BFC38B2#80016484838380B9
(1493280469.546642) can0 69C#8C
(1493280469.550693) can0 1FD#0000000000000000
(1493280469.550944) can0 30B#5F00110000000098
(1493280469.551219) can0 65E#8808C7A6A02B0700
(1493280469.556278) can0 3C0#6A7E1335
(1493280469.560320) can0 62F#4451000D2F
(1493280469.596812) can0 219#8FCB2E54C6DA4F57
(1493280469.599685) can0 30B#5F00110000000098
(1493280469.609065) can0 1FD#0000000000000000
(1493280469.647102) can0 643#6E9D613B48EC
(1493280469.650065) can0 6C7#04051101020001
(1493280469.650455) can0 30B#5F00110000000098
(1493280469.650457) can0 5F2#CC00
(1493280469.650824) can0 630#33CE1300
(1493280469.659396) can0 3C0#6A7E1335
(1493280469.668972) can0 1FD#0000000000000000
(1493280469.697205) can0 574#
(1493280469.699688) can0 30B#5F00110000000098
(1493280469.728952) can0 1FD#0000000000000000
(1493280469.747320) can0 681#42F4A2379B41F406
(1493280469.750197) can0 30B#5F00110000000098
(1493280469.762687) can0 3C0#6A7E1335
(1493280469.789083) can0 1FD#0000000000000000
(1493280469.791195) can0 1BFC38B1#0000000000000000
(1493280469.791570) can0 1BFC38BB#FFFFFFFFFFFFFFFF
(1493280469.791823) can0 1BFC38BA#535553500000001A
(1493280469.792216) can0 1BFC38B9#010296408005A3F4
(1493280469.792446) can0 1BFC38B8#0000000800000000
(1493280469.792899) can0 1BFC38B7#800164842502027B
(1493280469.793075) can0 1BFC38B6#0000123500000000
(1493280469.793453) can0 1BFC38B5#0502FF9202038292
(1493280469.793710) can0 1BFC38B4#00010101001F0003
(1493280469.794077) can0 1BFC38B3#8001648431009988
(1493280469.794294) can0 1BFC38B2#80016484838380B9
(1493280469.797477) can0 1D9#
(1493280469.800475) can0 30B#5F00110000000098
(1493280469.847737) can0 6E8#26F69A6B0361D14A
(1493280469.850071) can0 6C7#04051101020001
(1493280469.850313) can0 1FD#0000000000000000
(1493280469.850702) can0 30B#5F00110000000098
(1493280469.850811) can0 5F2#CC00
(1493280469.866402) can0 3C0#6A7E1335
(1493280469.897832) can0 3EC#0EEA7464890A
(1493280469.899732) can0 30B#5F00110000000098
(1493280469.909329) can0 1FD#0000000000000000
(1493280469.948093) can0 217#0153BD0331046F27
(1493280469.950229) can0 30B#5F00110000000098
(1493280469.969071) can0 1FD#0000000000000000
(1493280469.969539) can0 3C0#6A7E1335
(1493280469.998224) can0 585#
(1493280469.999704) can0 30B#5F00110000000098
(1493280470.029086) can0 1FD#0000000000000000
(1493280470.042463) can0 1BFC38B1#0000000000000000
(1493280470.042824) can0 1BFC38BB#FFFFFFFFFFFFFFFF
(1493280470.043081) can0 1BFC38BA#535553500000001A
(1493280470.043489) can0 1BFC38B9#010296408005A3F4
(1493280470.043863) can0 1BFC38B8#0000000800000000
(1493280470.044079) can0 1BFC38B7#800164842502027B
(1493280470.044457) can0 1BFC38B6#00001238001F0003
(1493280470.044708) can0 1BFC38B5#0502FF9202038292
(1493280470.045080) can0 1BFC38B4#00010101001F0003
(1493280470.045332) can0 1BFC38B3#800164843100BBAA
(1493280470.045699) can0 1BFC38B2#800164848383002E
(1493280470.048295) can0 786#10689C6CFBFC
(1493280470.050737) can0 6C7#04051101020001
(1493280470.051000) can0 30B#5F00110000000098
(1493280470.051112) can0 5F2#CC00
(1493280470.051329) can0 643#000200
(1493280470.051593) can0 64E#00B1040000000000
(1493280470.051795) can0 65E#8808ED6673990800
(1493280470.052166) can0 6B8#6D08000000000000
(1493280470.052418) can0 6BC#92823651324C07C3
(1493280470.060315) can0 62D#349302E900
(1493280470.073333) can0 3C0#6A7E1335
(1493280470.089099) can0 1FD#0000000000000000
(1493280470.098475) can0 286#
(1493280470.099708) can0 30B#5F00110000000098
(1493280470.148731) can0 279#A2A25E3A522C0A3F
(1493280470.150210) can0 1FD#0000000000000000
(1493280470.150462) can0 30B#5F00110000000098
(1493280470.150699) can0 631#34D500
(1493280470.159338) can0 6B6#390C1C000D2F
(1493280470.159738) can0 6B7#BEB4000008FF80FE
(1493280470.176708) can0 3C0#6A7E1335
(1493280470.198878) can0 1ED#73ADB64AD610D525
(1493280470.199713) can0 30B#5F00110000000098
(1493280470.209199) can0 1FD#0000000000000000
(1493280470.248999) can0 50E#D971A670FA606C59
(1493280470.250075) can0 6C7#04051101020001
(1493280470.250333) can0 30B#5F00110000000098
(1493280470.250582) can0 5F2#CC00
(1493280470.269094) can0 1FD#0000000000000000
(1493280470.280349) can0 3C0#6A7E1335
(1493280470.291250) can0 1BFC38B1#0000000000000000
(1493280470.291634) can0 1BFC38BB#FFFFFFFFFFFFFFFF
(1493280470.291807) can0 1BFC38BA#535553500000001A
(1493280470.292222) can0 1BFC38B9#010296408005A3F4
(1493280470.292622) can0 1BFC38B8#0000000800000000
(1493280470.292831) can0 1BFC38B7#800164842502027B
(1493280470.293095) can0 1BFC38B6#0000123A001F34A8
(1493280470.293451) can0 1BFC38B5#0502FF9202038292
(1493280470.293824) can0 1BFC38B4#00010101001F0003
(1493280470.294087) can0 1BFC38B3#800164843100BBAA
(1493280470.294447) can0 1BFC38B2#800164848383002E
(1493280470.298954) can0 080#836B094F979231
(1493280470.300527) can0 30B#5F00110000000098
(1493280470.329111) can0 1FD#0000000000000000
(1493280470.349240) can0 682#C896A05607
(1493280470.350220) can0 30B#5F00110000000098
(1493280470.383690) can0 3C0#6A7E1335
(1493280470.389138) can0 1FD#0000000000000000
(1493280470.399350) can0 515#
(1493280470.399708) can0 30B#5F00110000000098
(1493280470.449495) can0 226#
(1493280470.450250) can0 6C7#04051101020001
(1493280470.450602) can0 1FD#0000000000000000
(1493280470.450840) can0 30B#5F00110000000098
(1493280470.450950) can0 5F2#CC00
(1493280470.487822) can0 3C0#6A7E1335
(1493280470.499618) can0 330#B3B5
(1493280470.499622) can0 30B#5F00110000000098
(1493280470.509384) can0 1FD#0000000000000000
(1493280470.542612) can0 1BFC38B1#0000000000000000
(1493280470.542859) can0 1BFC38BB#FFFFFFFFFFFFFFFF
(1493280470.543233) can0 1BFC38BA#535553500000001A
(1493280470.543448) can0 1BFC38B9#020096408008FC68
(1493280470.543853) can0 1BFC38B8#0000000800000000
(1493280470.544097) can0 1BFC38B7#80016484250202B7
(1493280470.544507) can0 1BFC38B6#0000123D00000000
(1493280470.544729) can0 1BFC38B5#0502FF9202038292
(1493280470.545120) can0 1BFC38B4#00010101001F0003
(1493280470.545365) can0 1BFC38B3#800164843100BBAA
(1493280470.545744) can0 1BFC38B2#800164848383002E
(1493280470.549755) can0 1AF#FB9117489DEB
(1493280470.550765) can0 30B#5F00110000000098
(1493280470.551103) can0 65E#8808911889920500
(1493280470.560230) can0 62F#4451000D30
(1493280470.569106) can0 1FD#0000000000000000
(1493280470.591325) can0 3C0#6A7E1335
(1493280470.599695) can0 30B#5F00110000000098
(1493280470.599825) can0 2D4#73FCF341E2075B33
(1493280470.629111) can0 1FD#0000000000000000
(1493280470.649991) can0 309#DD68C70C8973C958
(1493280470.650079) can0 6C7#04051101020001
(1493280470.650362) can0 30B#5F00110000000098
(1493280470.650726) can0 5F2#CC00
(1493280470.689117) can0 1FD#0000000000000000
(1493280470.694874) can0 3C0#6A7E1335
(1493280470.699771) can0 30B#5F00110000000098
(1493280470.700124) can0 234#
(1493280470.750214) can0 1FD#0000000000000000
(1493280470.750332) can0 2E5#BD54E469FB6F4A59
(1493280470.750444) can0 30B#5F00110000000098
(1493280470.791384) can0 1BFC38B1#0000000000000000
(1493280470.791755) can0 1BFC38BB#FFFFFFFFFFFFFFFF
(1493280470.792007) can0 1BFC38BA#0000000700000014
(1493280470.792240) can0 1BFC38B9#020096408008FC68
(1493280470.792613) can0 1BFC38B8#0000000800000000
(1493280470.792880) can0 1BFC38B7#80016484250202B7
(1493280470.793228) can0 1BFC38B6#0000123F00000000
(1493280470.793479) can0 1BFC38B5#0502FF9202038292
(1493280470.793879) can0 1BFC38B4#00010101001F0003
(1493280470.794265) can0 1BFC38B3#800164843100BBAA
(1493280470.794495) can0 1BFC38B2#800164848383002E
(1493280470.798590) can0 3C0#6A7E1335
(1493280470.800386) can0 2A9#973C1B2ACF047B43
(1493280470.800456) can0 30B#5F00110000000098
(1493280470.809492) can0 1FD#0000000000000000
(1493280470.850122) can0 6C7#04051101020001
(1493280470.850369) can0 30B#5F00110000000098
(1493280470.850454) can0 46C#7B59D23B9C7F136A
(1493280470.850583) can0 5F2#CC00
(1493280470.869154) can0 1FD#0000000000000000
(1493280470.899749) can0 30B#5F00110000000098
(1493280470.900741) can0 1B0#45E520735F93DB67
(1493280470.901982) can0 3C0#6A7E1335
(1493280470.929140) can0 1FD#0000000000000000
(1493280470.950278) can0 30B#5F00110000000098
(1493280470.950810) can0 784#FC
(1493280470.989162) can0 1FD#0000000000000000
(1493280470.999754) can0 30B#5F00110000000098
(1493280471.000938) can0 6B0#3B025148B9992617
(1493280471.005772) can0 3C0#6A7E1335
(1493280471.042630) can0 1BFC38B1#0000000000000000
(1493280471.043001) can0 1BFC38BB#FFFFFFFFFFFFFFFF
(1493280471.043249) can0 1BFC38BA#0000000700000014
(1493280471.043630) can0 1BFC38B9#020096408008FC68
(1493280471.043882) can0 1BFC38B8#0000000800000000
(1493280471.044246) can0 1BFC38B7#80016484250202B7
(1493280471.044496) can0 1BFC38B6#00001242001F0003
(1493280471.044893) can0 1BFC38B5#0502FF9202038292
(1493280471.045263) can0 1BFC38B4#00010101001F0003
(1493280471.045531) can0 1BFC38B3#80016484324000FF
(1493280471.045894) can0 1BFC38B2#8001648483838075
(1493280471.050771) can0 6C7#04051101020001
(1493280471.050963) can0 1BC#420DF06FF0B33E00
(1493280471.050966) can0 1FD#0000000000000000
(1493280471.051256) can0 30B#5F00110000000098
(1493280471.051763) can0 5F2#CC00
(1493280471.051873) can0 643#000200
(1493280471.052080) can0 64E#00B1040000000000
(1493280471.052525) can0 65E#8808472564830800
(1493280471.052742) can0 6B8#6D08000000000000
(1493280471.053025) can0 6BC#92823651324C07C6
(1493280471.099771) can0 30B#5F00110000000098
(1493280471.101273) can0 779#A65C
(1493280471.109242) can0 1FD#0000000000000000
(1493280471.109498) can0 3C0#6A7E1335
(1493280471.150397) can0 30B#5F00110000000098
(1493280471.151386) can0 04B#5942CB
(1493280471.159745) can0 6B6#390C1C000D30
(1493280471.159963) can0 6B7#BEB4000008FF80FE
(1493280471.169136) can0 1FD#0000000000000000
(1493280471.199763) can0 30B#5F00110000000098
(1493280471.201513) can0 5EF#
(1493280471.213509) can0 3C0#6A7E1335
(1493280471.229144) can0 1FD#0000000000000000
(1493280471.250416) can0 6C7#04051101020001
(1493280471.250623) can0 30B#5F00110000000098
(1493280471.250753) can0 5F2#CC00
(1493280471.251788) can0 51E#F8B94C4ACE56A211
(1493280471.289141) can0 1FD#0000000000000000
(1493280471.291381) can0 1BFC38B1#0000000000000000
(1493280471.291794) can0 1BFC38BB#FFFFFFFFFFFFFFFF
(1493280471.292019) can0 1BFC38BA#0000000700000014
(1493280471.292264) can0 1BFC38B9#020096408008FC68
(1493280471.292643) can0 1BFC38B8#0000000800000000
(1493280471.292886) can0 1BFC38B7#80016484250202B7
(1493280471.293252) can0 1BFC38B6#0000124402028292
(1493280471.293505) can0 1BFC38B5#0502FF9202028292
(1493280471.293890) can0 1BFC38B4#00010101001F0003
(1493280471.294283) can0 1BFC38B3#80016484324000FF
(1493280471.294491) can0 1BFC38B2#8001648483838075
(1493280471.300532) can0 30B#5F00110000000098
(1493280471.301938) can0 06D#2EEA7D79F197173F
(1493280471.317010) can0 3C0#6A7E1335
(1493280471.350273) can0 1FD#0000000000000000
(1493280471.350644) can0 30B#5F00110000000098
(1493280471.351850) can0 67F#4A920D542FCDAC46
(1493280471.399790) can0 30B#5F00110000000098
(1493280471.402208) can0 49A#E866D35D56CE
(1493280471.409416) can0 1FD#0000000000000000
(1493280471.420268) can0 3C0#6A7E1335
(1493280471.450161) can0 6C7#04051101020001
(1493280471.450386) can0 30B#5F00110000000098
(1493280471.450678) can0 5F2#CC00
(1493280471.452273) can0 79E#46822E3C173F6022
(1493280471.469187) can0 1FD#0000000000000000
(1493280471.499807) can0 30B#5F00110000000098
(1493280471.502443) can0 78C#7611E101D837351C
(1493280471.524142) can0 3C0#6A7E1335
(1493280471.529157) can0 1FD#0000000000000000
(1493280471.542680) can0 1BFC38B1#0000000000000000
(1493280471.542998) can0 1BFC38BB#FFFFFFFFFFFFFFFF
(1493280471.543271) can0 1BFC38BA#0000000700000014
(1493280471.543630) can0 1BFC38B9#030296408005A3F4
(1493280471.543890) can0 1BFC38B8#0000000800000000
(1493280471.544300) can0 1BFC38B7#80016484250202F3
(1493280471.544526) can0 1BFC38B6#0000124700000000
(1493280471.544923) can0 1BFC38B5#0502FF9202028292
(1493280471.545165) can0 1BFC38B4#00010101001F0003
(1493280471.545541) can0 1BFC38B3#80016484324000FF
(1493280471.545768) can0 1BFC38B2#8001648483838075
(1493280471.550807) can0 30B#5F00110000000098
(1493280471.551058) can0 65E#8808C483B6740A00
(1493280471.552614) can0 04F#CCFAB6263EBED979
(1493280471.560401) can0 62F#4451000D31
(1493280471.589149) can0 1FD#0000000000000000
(1493280471.599787) can0 30B#5F00110000000098
(1493280471.602662) can0 2C0#
(1493280471.628042) can0 3C0#6A7E1335
(1493280471.650161) can0 6C7#04051101020001
(1493280471.650533) can0 1FD#0000000000000000
(1493280471.650771) can0 30B#5F00110000000098
(1493280471.650859) can0 5F2#CC00
(1493280471.651154) can0 630#33CF00
(1493280471.652812) can0 3CE#ADAE74
(1493280471.699785) can0 30B#5F00110000000098
(1493280471.702915) can0 1D1#2DACFD2E5068735A
(1493280471.709416) can0 1FD#0000000000000000
(1493280471.731518) can0 3C0#6A7E1335
(1493280471.750410) can0 30B#5F00110000000098
(1493280471.753070) can0 205#7F3520219FE6D1
(1493280471.769171) can0 1FD#0000000000000000
(1493280471.791381) can0 1BFC38B1#0000000000000000
(1493280471.791790) can0 1BFC38BB#FFFFFFFFFFFFFFFF
(1493280471.792035) can0 1BFC38BA#535553500000001A
(1493280471.792272) can0 1BFC38B9#030296408005A3F4
(1493280471.792615) can0 1BFC38B8#0000000800000000
(1493280471.792999) can0 1BFC38B7#80016484250202F3
(1493280471.793258) can0 1BFC38B6#0000124900000000
(1493280471.793628) can0 1BFC38B5#0502FF9202028292
(1493280471.793872) can0 1BFC38B4#00010101001F0003
(1493280471.794274) can0 1BFC38B3#80016484324000FF
(1493280471.794519) can0 1BFC38B2#8001648483838075
(1493280471.800556) can0 30B#5F00110000000098
(1493280471.803246) can0 2FD#F5B4C11E9CD2E0
(1493280471.829211) can0 1FD#0000000000000000
(1493280471.835167) can0 3C0#6A7E1335
(1493280471.850296) can0 6C7#04051101020001
(1493280471.850668) can0 30B#5F00110000000098
(1493280471.850755) can0 5F2#CC00
(1493280471.853284) can0 091#B31141331D986512
(1493280471.889180) can0 1FD#0000000000000000
(1493280471.899827) can0 30B#5F00110000000098
(1493280471.903566) can0 627#F5CF9A2E76A6F548
(1493280471.938534) can0 3C0#6A7E1335
(1493280471.950550) can0 1FD#0000000000000000
(1493280471.950764) can0 30B#5F00110000000098
(1493280471.953560) can0 6F9#B564
(1493280471.999804) can0 30B#5F00110000000098
(1493280472.003815) can0 552#97A1332420718848
(1493280472.009554) can0 1FD#0000000000000000
(1493280472.041914) can0 3C0#6A7E1335
(1493280472.042768) can0 1BFC38B1#0000000000000000
(1493280472.043140) can0 1BFC38BB#FFFFFFFFFFFFFFFF
(1493280472.043386) can0 1BFC38BA#535553500000001A
(1493280472.043766) can0 1BFC38B9#030296408005A3F4
(1493280472.044060) can0 1BFC38B8#0000000800000000
(1493280472.044485) can0 1BFC38B7#80016484250202F3
(1493280472.044672) can0 1BFC38B6#0000124C001F0003
(1493280472.045062) can0 1BFC38B5#0502FF9202028292
(1493280472.045284) can0 1BFC38B4#00010101001F0003
(1493280472.045656) can0 1BFC38B3#8001648431005544
(1493280472.045906) can0 1BFC38B2#80016484838380DB
(1493280472.050960) can0 6C7#04051101020001
(1493280472.051154) can0 30B#5F00110000000098
(1493280472.051272) can0 5F2#CC00
(1493280472.051535) can0 643#000200
(1493280472.051779) can0 64E#00B1040000000000
(1493280472.052004) can0 65E#8808E6F1B9950A00
(1493280472.052408) can0 6B8#6D08000000000000
(1493280472.052673) can0 6BC#92823651324C07C9
(1493280472.053921) can0 7E2#5C856E38
(1493280472.060303) can0 62D#3482030012000300
(1493280472.069200) can0 1FD#0000000000000000
(1493280472.099807) can0 30B#5F00110000000098
(1493280472.104095) can0 11F#03CA827D25EB050E
(1493280472.129311) can0 1FD#0000000000000000
(1493280472.145420) can0 3C0#6A7E1335
(1493280472.150592) can0 30B#5F00110000000098
(1493280472.151066) can0 631#34D602
(1493280472.154207) can0 000#C4D1
(1493280472.159459) can0 6B6#390C1C000D31
(1493280472.159835) can0 6B7#BEB4000008FF80FE
(1493280472.189318) can0 1FD#0000000000000000
(1493280472.199821) can0 30B#5F00110000000098
(1493280472.204324) can0 3E9#9A15C21A7AAC4D6A
(1493280472.249436) can0 3C0#6A7E1335
(1493280472.250399) can0 6C7#04051101020001
(1493280472.250780) can0 1FD#0000000000000000
(1493280472.251023) can0 30B#5F00110000000098
(1493280472.251134) can0 5F2#CC00
(1493280472.254408) can0 5F5#9844B37C1DD4E95A
(1493280472.291441) can0 1BFC38B1#0000000000000000
(1493280472.291839) can0 1BFC38BB#FFFFFFFFFFFFFFFF
(1493280472.292064) can0 1BFC38BA#535553500000001A
(1493280472.292518) can0 1BFC38B9#030296408005A3F4
(1493280472.292854) can0 1BFC38B8#0000000800000000
(1493280472.293062) can0 1BFC38B7#80016484250202F3
(1493280472.293314) can0 1BFC38B6#0000124E001F34A8
(1493280472.293680) can0 1BFC38B5#0502FF9202028292
(1493280472.293926) can0 1BFC38B4#00010101001F0003
(1493280472.294294) can0 1BFC38B3#8001648431005544
(1493280472.294546) can0 1BFC38B2#80016484838380DB
(1493280472.300706) can0 30B#5F00110000000098
(1493280472.304576) can0 277#937ADF2370C1F372
(1493280472.309317) can0 1FD#0000000000000000
(1493280472.350445) can0 30B#5F00110000000098
(1493280472.353428) can0 3C0#6A7E1335
(1493280472.354770) can0 74F#290B5500A16CA54A
(1493280472.369348) can0 1FD#0000000000000000
(1493280472.399826) can0 30B#5F00110000000098
(1493280472.404848) can0 498#
(1493280472.429323) can0 1FD#0000000000000000
(1493280472.450329) can0 6C7#04051101020001
(1493280472.450569) can0 30B#5F00110000000098
(1493280472.450821) can0 5F2#CC00
(1493280472.454940) can0 505#2EAEE26724E6CB5F
(1493280472.457054) can0 3C0#6A7E1335
(1493280472.489328) can0 1FD#0000000000000000
(1493280472.499952) can0 30B#5F00110000000098
(1493280472.505218) can0 4A7#49
(1493280472.542859) can0 1BFC38B1#0000000000000000
(1493280472.543077) can0 1BFC38BB#FFFFFFFFFFFFFFFF
(1493280472.543450) can0 1BFC38BA#535553500000001A
(1493280472.543831) can0 1BFC38B9#040096408008FC68
(1493280472.544078) can0 1BFC38B8#0000000800000000
(1493280472.544479) can0 1BFC38B7#800164842502022F
(1493280472.544834) can0 1BFC38B6#0000125100000000
(1493280472.545102) can0 1BFC38B5#0502FF9202028292
(1493280472.545341) can0 1BFC38B4#00010101001F0003
(1493280472.545728) can0 1BFC38B3#8001648431005544
(1493280472.545916) can0 1BFC38B2#80016484838380DB
(1493280472.550960) can0 1FD#0000000000000000
(1493280472.551162) can0 30B#5F00110000000098
(1493280472.551538) can0 65E#880870F39CCB0C00
(1493280472.555200) can0 7B4#A54761279D139F21
(1493280472.560452) can0 62F#4451000D32
(1493280472.560704) can0 3C0#6A7E1335
(1493280472.599954) can0 30B#5F00110000000098
(1493280472.605494) can0 1C8#18C0EC0BBDE7CC58
(1493280472.609355) can0 1FD#0000000000000000
(1493280472.650369) can0 6C7#04051101020001
(1493280472.650576) can0 30B#5F00110000000098
(1493280472.650874) can0 5F2#CC00
(1493280472.655587) can0 48D#
(1493280472.663780) can0 3C0#6A7E1335
(1493280472.669332) can0 1FD#0000000000000000
(1493280472.699836) can0 30B#5F00110000000098
(1493280472.705836) can0 13D#74903F068DF88D34
(1493280472.729338) can0 1FD#0000000000000000
(1493280472.750466) can0 30B#5F00110000000098
(1493280472.755835) can0 5B6#2E65337F4E52D641
(1493280472.767433) can0 3C0#6A7E1335
(1493280472.789326) can0 1FD#0000000000000000
(1493280472.791553) can0 1BFC38B1#0000000000000000
(1493280472.791806) can0 1BFC38BB#FFFFFFFFFFFFFFFF
(1493280472.792217) can0 1BFC38BA#0000000700000014
(1493280472.792452) can0 1BFC38B9#040096408008FC68
(1493280472.792870) can0 1BFC38B8#0000000800000000
(1493280472.793120) can0 1BFC38B7#800164842502022F
(1493280472.793474) can0 1BFC38B6#0000125300000000
(1493280472.793845) can0 1BFC38B5#0502FF9202028292
(1493280472.794114) can0 1BFC38B4#00010101001F0003
(1493280472.794309) can0 1BFC38B3#8001648431005544
(1493280472.794690) can0 1BFC38B2#80016484838380DB
(1493280472.800721) can0 30B#5F00110000000098
(1493280472.806118) can0 05D#
(1493280472.850344) can0 6C7#04051101020001
(1493280472.850755) can0 1FD#0000000000000000
(1493280472.850956) can0 30B#5F00110000000098
(1493280472.851068) can0 5F2#CC00
(1493280472.856078) can0 60E#872B1A7CB53A06
(1493280472.871211) can0 3C0#6A7E1335
(1493280472.899987) can0 30B#5F00110000000098
(1493280472.906221) can0 528#
(1493280472.909626) can0 1FD#0000000000000000
(1493280472.950472) can0 30B#5F00110000000098
(1493280472.956331) can0 7DE#7A50
(1493280472.969379) can0 1FD#0000000000000000
(1493280472.974595) can0 3C0#6A7E1335
(1493280473.000036) can0 30B#5F00110000000098
(1493280473.006636) can0 442#64B1
(1493280473.029360) can0 1FD#0000000000000000
(1493280473.042861) can0 1BFC38B1#0000000000000000
(1493280473.043097) can0 1BFC38BB#FFFFFFFFFFFFFFFF
(1493280473.043488) can0 1BFC38BA#0000000700000014
(1493280473.043860) can0 1BFC38B9#040096408008FC68
(1493280473.044101) can0 1BFC38B8#0000000800000000
(1493280473.044359) can0 1BFC38B7#800164842502022F
(1493280473.044684) can0 1BFC38B6#00001256001F0003
(1493280473.045059) can0 1BFC38B5#0502FF9202028292
(1493280473.045319) can0 1BFC38B4#00010101001F0003
(1493280473.045673) can0 1BFC38B3#8001648431007766
(1493280473.045939) can0 1BFC38B2#8001648483830030
(1493280473.050875) can0 6C7#04051101020001
(1493280473.051248) can0 30B#5F00110000000098
(1493280473.051350) can0 5F2#CC00
(1493280473.051644) can0 643#000200
(1493280473.051848) can0 64E#00B1040000000000
(1493280473.052087) can0 65E#88083AC28F630600
(1493280473.052371) can0 6B8#6D08000000000000
(1493280473.052784) can0 6BC#92823651324C07CB
(1493280473.056719) can0 542#D3377D3B7F2E1442
(1493280473.078607) can0 3C0#6A7E1335
(1493280473.089384) can0 1FD#0000000000000000
(1493280473.100045) can0 30B#5F00110000000098
(1493280473.106866) can0 3AC#0C27A27663B937
(1493280473.150488) can0 1FD#0000000000000000
(1493280473.150868) can0 30B#5F00110000000098
(1493280473.157044) can0 3E4#B10B0E1B41AC6E73
(1493280473.159854) can0 6B6#390C1C000D32
(1493280473.160107) can0 6B7#BEB4000008FF80FE
(1493280473.182093) can0 3C0#6A7E1335
(1493280473.200024) can0 30B#5F00110000000098
(1493280473.207127) can0 72B#A4F1BC0F3A753466
(1493280473.209600) can0 1FD#0000000000000000
(1493280473.250376) can0 6C7#04051101020001
(1493280473.250760) can0 30B#5F00110000000098
(1493280473.250880) can0 5F2#CC00
(1493280473.257267) can0 771#EFAF3A779ABC3564
(1493280473.269369) can0 1FD#0000000000000000
(1493280473.285726) can0 3C0#6A7E1335
(1493280473.291639) can0 1BFC38B1#0000000000000000
(1493280473.291885) can0 1BFC38BB#FFFFFFFFFFFFFFFF
(1493280473.292272) can0 1BFC38BA#0000000700000014
(1493280473.292529) can0 1BFC38B9#040096408008FC68
(1493280473.292859) can0 1BFC38B8#0000000800000000
(1493280473.293115) can0 1BFC38B7#800164842502022F
(1493280473.293469) can0 1BFC38B6#0000125802028292
(1493280473.293845) can0 1BFC38B5#0502FF9202028292
(1493280473.294089) can0 1BFC38B4#00010101001F0003
(1493280473.294347) can0 1BFC38B3#8001648431007766
(1493280473.294717) can0 1BFC38B2#8001648483830030
(1493280473.300738) can0 30B#5F00110000000098
(1493280473.307499) can0 1FB#76F92F3CDAB9583E
(1493280473.329366) can0 1FD#0000000000000000
(1493280473.350493) can0 30B#5F00110000000098
(1493280473.357606) can0 64F#
(1493280473.389198) can0 3C0#6A7E1335
(1493280473.389315) can0 1FD#0000000000000000
(1493280473.400018) can0 30B#5F00110000000098
(1493280473.407830) can0 282#60C3E43B
(1493280473.450371) can0 6C7#04051101020001
(1493280473.450605) can0 1FD#0000000000000000
(1493280473.450998) can0 30B#5F00110000000098
(1493280473.451110) can0 5F2#CC00
(1493280473.457820) can0 223#449E89
(1493280473.492860) can0 3C0#6A7E1335
(1493280473.499985) can0 30B#5F00110000000098
(1493280473.507958) can0 37A#
(1493280473.509633) can0 1FD#0000000000000000
(1493280473.542874) can0 1BFC38B1#0000000000000000
(1493280473.543266) can0 1BFC38BB#FFFFFFFFFFFFFFFF
(1493280473.543485) can0 1BFC38BA#0000000700000014
(1493280473.543886) can0 1BFC38B9#050296408005A3F4
(1493280473.544130) can0 1BFC38B8#0000000800000000
(1493280473.544521) can0 1BFC38B7#800164842502026B
(1493280473.544896) can0 1BFC38B6#0000125B00000000
(1493280473.545132) can0 1BFC38B5#0502FF9202028292
(1493280473.545424) can0 1BFC38B4#00010101001F0003
(1493280473.545798) can0 1BFC38B3#8001648431007766
(1493280473.546015) can0 1BFC38B2#8001648483830030
(1493280473.551008) can0 30B#5F00110000000098
(1493280473.551245) can0 65E#88082467753A0500
(1493280473.558124) can0 18B#9FD3DE74
(1493280473.560651) can0 62F#4451000D33
(1493280473.569388) can0 1FD#0000000000000000
(1493280473.596616) can0 3C0#6A7E1335
(1493280473.600073) can0 30B#5F00110000000098
(1493280473.608129) can0 55E#F1956C
(1493280473.629382) can0 1FD#0000000000000000
(1493280473.650533) can0 6C7#04051101020001
(1493280473.650896) can0 30B#5F00110000000098
(1493280473.650898) can0 5F2#CC00
(1493280473.651271) can0 630#33D03F0102
(1493280473.658289) can0 26E#
(1493280473.689383) can0 1FD#0000000000000000
(1493280473.699955) can0 30B#5F00110000000098
(1493280473.700249) can0 3C0#6A7E1335
(1493280473.708442) can0 52D#
(1493280473.750504) can0 1FD#0000000000000000
(1493280473.750911) can0 30B#5F00110000000098
(1493280473.758622) can0 4D1#0D06C412
(1493280473.791634) can0 1BFC38B1#0000000000000000
(1493280473.791875) can0 1BFC38BB#FFFFFFFFFFFFFFFF
(1493280473.792259) can0 1BFC38BA#535553500000001A
(1493280473.792674) can0 1BFC38B9#050296408005A3F4
(1493280473.792909) can0 1BFC38B8#0000000800000000
(1493280473.793262) can0 1BFC38B7#800164842502026B
(1493280473.793510) can0 1BFC38B6#0000125D00000000
(1493280473.793882) can0 1BFC38B5#0502FF9202028292
(1493280473.794136) can0 1BFC38B4#00010101001F0003
(1493280473.794512) can0 1BFC38B3#8001648431007766
(1493280473.794774) can0 1BFC38B2#8001648483830030
(1493280473.800871) can0 30B#5F00110000000098
(1493280473.803597) can0 3C0#6A7E1335
(1493280473.808683) can0 6A9#18775B64CC10CB06
(1493280473.809672) can0 1FD#0000000000000000
(1493280473.850355) can0 6C7#04051101020001
(1493280473.850637) can0 30B#5F00110000000098
(1493280473.850884) can0 5F2#CC00
(1493280473.858916) can0 4A0#9B56F1691A88297F
(1493280473.869399) can0 1FD#0000000000000000
(1493280473.900030) can0 30B#5F00110000000098
(1493280473.907862) can0 3C0#6A7E1335
(1493280473.908888) can0 2AC#78AF9900382C126A
(1493280473.929394) can0 1FD#0000000000000000
(1493280473.950522) can0 30B#5F00110000000098
(1493280473.959162) can0 0B2#EF4C4A6A1016DF
(1493280473.989398) can0 1FD#0000000000000000
(1493280474.000024) can0 30B#5F00110000000098
(1493280474.009272) can0 05B#
(1493280474.011473) can0 3C0#6A7E1335
(1493280474.042900) can0 1BFC38B1#0000000000000000
(1493280474.043274) can0 1BFC38BB#FFFFFFFFFFFFFFFF
(1493280474.043517) can0 1BFC38BA#535553500000001A
(1493280474.043911) can0 1BFC38B9#050296408005A3F4
(1493280474.044146) can0 1BFC38B8#0000000800000000
(1493280474.044544) can0 1BFC38B7#800164842502026B
(1493280474.044920) can0 1BFC38B6#00001260001F0003
(1493280474.045154) can0 1BFC38B5#0502FF9202028292
(1493280474.045406) can0 1BFC38B4#00010101001F0003
(1493280474.045787) can0 1BFC38B3#800164843240CCBB
(1493280474.046015) can0 1BFC38B2#80016484838380A7
(1493280474.051054) can0 6C7#04051101020001
(1493280474.051295) can0 1FD#0000000000000000
(1493280474.051676) can0 30B#5F00110000000098
(1493280474.051901) can0 5F2#CC00
(1493280474.051904) can0 643#000200
(1493280474.052286) can0 64E#00B1040000000000
(1493280474.052543) can0 65E#8808110AA1780800
(1493280474.052914) can0 6B8#6D08000000000000
(1493280474.053130) can0 6BC#92823651324C07CC
(1493280474.059411) can0 0C0#3327BD10ED5DC631
(1493280474.060802) can0 62D#34837801F8000000
(1493280474.100038) can0 30B#5F00110000000098
(1493280474.109549) can0 72B#6909D730FC3B48
(1493280474.109552) can0 1FD#0000000000000000
(1493280474.114859) can0 3C0#6A7E1335
(1493280474.150659) can0 30B#5F00110000000098
(1493280474.151288) can0 631#34C2030013000301
(1493280474.159680) can0 73C#4F432E12E585
(1493280474.159683) can0 6B6#390C1C000D33
(1493280474.160030) can0 6B7#BEB4000008FF80FE
(1493280474.169531) can0 1FD#0000000000000000
(1493280474.200033) can0 30B#5F00110000000098
(1493280474.209797) can0 0E3#B1966E54839D4E
(1493280474.218516) can0 3C0#6A7E1335
(1493280474.229565) can0 1FD#0000000000000000
(1493280474.250660) can0 6C7#04051101020001
(1493280474.251043) can0 30B#5F00110000000098
(1493280474.251153) can0 5F2#CC00
(1493280474.259922) can0 7C3#9D25785770AA7F58
(1493280474.289428) can0 1FD#0000000000000000
(1493280474.291657) can0 1BFC38B1#0000000000000000
(1493280474.292076) can0 1BFC38BB#FFFFFFFFFFFFFFFF
(1493280474.292285) can0 1BFC38BA#535553500000001A
(1493280474.292660) can0 1BFC38B9#050296408005A3F4
(1493280474.292911) can0 1BFC38B8#0000000800000000
(1493280474.293284) can0 1BFC38B7#800164842502026B
(1493280474.293535) can0 1BFC38B6#00001262001F34A8
(1493280474.293915) can0 1BFC38B5#0502FF9202028292
(1493280474.294197) can0 1BFC38B4#00010101001F0003
(1493280474.294548) can0 1BFC38B3#800164843240CCBB
(1493280474.294892) can0 1BFC38B2#80016484838380A7
(1493280474.300893) can0 30B#5F00110000000098
(1493280474.310063) can0 31A#A8D69142CC
(1493280474.322167) can0 3C0#6A7E1335
(1493280474.350664) can0 1FD#0000000000000000
(1493280474.350901) can0 30B#5F00110000000098
(1493280474.360177) can0 02D#DDB9495988A09E
(1493280474.400074) can0 30B#5F00110000000098
(1493280474.409662) can0 1FD#0000000000000000
(1493280474.410370) can0 677#51CB2552372FF12B
(1493280474.425535) can0 3C0#6A7E1335
(1493280474.450544) can0 6C7#04051101020001
(1493280474.450918) can0 30B#5F00110000000098
(1493280474.450920) can0 5F2#CC00
(1493280474.460452) can0 108#258DB75D33
(1493280474.469552) can0 1FD#0000000000000000
(1493280474.500050) can0 30B#5F00110000000098
(1493280474.510544) can0 7FC#2F746E5638E73A47
(1493280474.528748) can0 3C0#6A7E1335
(1493280474.529540) can0 1FD#0000000000000000
(1493280474.542928) can0 1BFC38B1#0000000000000000
(1493280474.543297) can0 1BFC38BB#FFFFFFFFFFFFFFFF
(1493280474.543547) can0 1BFC38BA#535553500000001A
(1493280474.543903) can0 1BFC38B9#060096408008FC68
(1493280474.544194) can0 1BFC38B8#0000000800000000
(1493280474.544569) can0 1BFC38B7#80016484250202A7
(1493280474.544943) can0 1BFC38B6#0000126500000000
(1493280474.545192) can0 1BFC38B5#0502FF9202028292
(1493280474.545572) can0 1BFC38B4#00010101001F0003
(1493280474.545763) can0 1BFC38B3#800164843240CCBB
(1493280474.546033) can0 1BFC38B2#80016484838380A7
(1493280474.551180) can0 30B#5F00110000000098
(1493280474.551411) can0 65E#8808622749D30600
(1493280474.560699) can0 605#1D6DDE14E87E6D64
(1493280474.560702) can0 62F#4451000D34
(1493280474.589549) can0 1FD#0000000000000000
(1493280474.600073) can0 30B#5F00110000000098
(1493280474.610949) can0 1E6#6C1CBC3CA9419545
(1493280474.632442) can0 3C0#6A7E1335
(1493280474.650679) can0 6C7#04051101020001
(1493280474.650923) can0 1FD#0000000000000000
(1493280474.651315) can0 30B#5F00110000000098
(1493280474.651410) can0 5F2#CC00
(1493280474.661047) can0 11B#19EC141E35345C0C
(1493280474.700087) can0 30B#5F00110000000098
(1493280474.709683) can0 1FD#0000000000000000
(1493280474.711319) can0 71F#02
(1493280474.736151) can0 3C0#6A7E1335
(1493280474.750809) can0 30B#5F00110000000098
(1493280474.761440) can0 658#D40F6F01CFEC150B
(1493280474.769572) can0 1FD#0000000000000000
(1493280474.791686) can0 1BFC38B1#0000000000000000
(1493280474.792058) can0 1BFC38BB#FFFFFFFFFFFFFFFF
(1493280474.792310) can0 1BFC38BA#0000000700000014
(1493280474.792685) can0 1BFC38B9#060096408008FC68
(1493280474.793059) can0 1BFC38B8#0000000800000000
(1493280474.793305) can0 1BFC38B7#80016484250202A7
(1493280474.793557) can0 1BFC38B6#0000126700000000
(1493280474.793947) can0 1BFC38B5#0502FF9202028292
(1493280474.794302) can0 1BFC38B4#00010101001F0003
(1493280474.794551) can0 1BFC38B3#800164843240CCBB
(1493280474.794914) can0 1BFC38B2#80016484838380A7
(1493280474.800915) can0 30B#5F00110000000098
(1493280474.811726) can0 69C#071C0737A4
(1493280474.829591) can0 1FD#0000000000000000
(1493280474.839769) can0 3C0#6A7E1335
(1493280474.850605) can0 6C7#04051101020001
(1493280474.850947) can0 30B#5F00110000000098
(1493280474.851061) can0 5F2#CC00
(1493280474.861954) can0 5AA#D7EF3B48A79DA66E
(1493280474.889592) can0 1FD#0000000000000000
(1493280474.900063) can0 30B#5F00110000000098
(1493280474.912083) can0 7BA#DF84E135BFE5
(1493280474.943051) can0 3C0#6A7E1335
(1493280474.950702) can0 1FD#0000000000000000
(1493280474.950929) can0 30B#5F00110000000098
(1493280474.962233) can0 385#A864E4596B8D6D66
(1493280475.000072) can0 30B#5F00110000000098
(1493280475.009821) can0 1FD#0000000000000000
(1493280475.012322) can0 5CB#14CF022C
(1493280475.043072) can0 1BFC38B1#0000000000000000
(1493280475.043281) can0 1BFC38BB#FFFFFFFFFFFFFFFF
(1493280475.043681) can0 1BFC38BA#0000000700000014
(1493280475.043899) can0 1BFC38B9#060096408008FC68
(1493280475.044280) can0 1BFC38B8#0000000800000000
(1493280475.044518) can0 1BFC38B7#80016484250202A7
(1493280475.044895) can0 1BFC38B6#0000126A001F0003
(1493280475.045287) can0 1BFC38B5#0502FF9202028292
(1493280475.045563) can0 1BFC38B4#00010101001F0003
(1493280475.045905) can0 1BFC38B3#8001648431001100
(1493280475.046159) can0 1BFC38B2#80016484838380FD
(1493280475.046782) can0 3C0#6A7E1335
(1493280475.051228) can0 6C7#04051101020001
(1493280475.051440) can0 30B#5F00110000000098
(1493280475.051544) can0 5F2#CC00
(1493280475.051797) can0 643#000200
(1493280475.052042) can0 64E#00B1040000000000
(1493280475.052291) can0 65E#880891D691410700
(1493280475.052665) can0 6B8#6D08000000000000
(1493280475.052952) can0 6BC#92823651324C07CF
(1493280475.062527) can0 31D#1C1B16683CDA1A17
(1493280475.069591) can0 1FD#0000000000000000
(1493280475.100199) can0 30B#5F00110000000098
(1493280475.112574) can0 5EF#8849EB5048644138
(1493280475.129579) can0 1FD#0000000000000000
(1493280475.150196) can0 3C0#6A7E1335
(1493280475.150787) can0 30B#5F00110000000098
(1493280475.160053) can0 6B6#390C1C000D34
(1493280475.160186) can0 6B7#BEB4000008FF80FE
(1493280475.162821) can0 4FD#1751574399938E40
(1493280475.189577) can0 1FD#0000000000000000
(1493280475.200226) can0 30B#5F00110000000098
(1493280475.213120) can0 482#3E4BA4292C02675C
(1493280475.250843) can0 6C7#04051101020001
(1493280475.251034) can0 1FD#0000000000000000
(1493280475.251303) can0 30B#5F00110000000098
(1493280475.251406) can0 5F2#CC00
(1493280475.253960) can0 3C0#6A7E1335
(1493280475.263235) can0 64A#D39F0D4B05
(1493280475.291833) can0 1BFC38B1#0000000000000000
(1493280475.292069) can0 1BFC38BB#FFFFFFFFFFFFFFFF
(1493280475.292495) can0 1BFC38BA#0000000700000014
(1493280475.292709) can0 1BFC38B9#060096408008FC68
(1493280475.293082) can0 1BFC38B8#0000000800000000
(1493280475.293331) can0 1BFC38B7#80016484250202A7
(1493280475.293693) can0 1BFC38B6#0000126C02028292
(1493280475.294109) can0 1BFC38B5#0502FF9202028292
(1493280475.294293) can0 1BFC38B4#00010101001F0003
(1493280475.294688) can0 1BFC38B3#8001648431001100
(1493280475.294936) can0 1BFC38B2#80016484838380FD
(1493280475.299564) can0 30B#5F00110000000098
(1493280475.309968) can0 1FD#0000000000000000
(1493280475.313380) can0 71C#C43BE1
(1493280475.319611) can0 64E#00A2050000000000
(1493280475.350961) can0 30B#5F00110000000098
(1493280475.357194) can0 3C0#6A7E1335
(1493280475.363454) can0 6B0#0C483F7E7B0CBC7F
(1493280475.369584) can0 1FD#0000000000000000
(1493280475.400838) can0 30B#5F00110000000098
(1493280475.413590) can0 180#
(1493280475.429600) can0 1FD#0000000000000000
(1493280475.450872) can0 6C7#04051101020001
(1493280475.451062) can0 30B#5F00110000000098
(1493280475.451214) can0 5F2#CC00
(1493280475.461091) can0 3C0#6A7E1335
(1493280475.463688) can0 24E#DABE555A3E50181F
(1493280475.489622) can0 1FD#0000000000000000
(1493280475.500207) can0 30B#5F00110000000098
(1493280475.514002) can0 19C#86B459
(1493280475.543094) can0 1BFC38B1#0000000000000000
(1493280475.543487) can0 1BFC38BB#FFFFFFFFFFFFFFFF
(1493280475.543717) can0 1BFC38BA#0000000700000014
(1493280475.544126) can0 1BFC38B9#070296408005A3F4
(1493280475.544326) can0 1BFC38B8#0000000000000000
(1493280475.544746) can0 1BFC38B7#80016484250202E3
(1493280475.544972) can0 1BFC38B6#0000126F00000000
(1493280475.545324) can0 1BFC38B5#0502FF9202028292
(1493280475.545579) can0 1BFC38B4#00010101001F0003
(1493280475.545966) can0 1BFC38B3#8001648431001100
(1493280475.546180) can0 1BFC38B2#80016484838380FD
(1493280475.549728) can0 1FD#0000000000000000
(1493280475.549961) can0 30B#5F00110000000098
(1493280475.550215) can0 65E#8808D3C68FDE0600
(1493280475.560827) can0 62F#4451000D35
(1493280475.563932) can0 1BF#321AE57941968A23
(1493280475.565219) can0 3C0#6A7E1335
(1493280475.600347) can0 30B#5F00110000000098
(1493280475.609969) can0 1FD#0000000000000000
(1493280475.614241) can0 2BC#
(1493280475.650634) can0 6C7#04051101020001
(1493280475.650986) can0 30B#5F00110000000098
(1493280475.651083) can0 5F2#CC00
(1493280475.651358) can0 630#33D203D2
(1493280475.664350) can0 086#0B
(1493280475.668715) can0 3C0#6A7E1335
(1493280475.669589) can0 1FD#0000000000000000
(1493280475.700236) can0 30B#5F00110000000098
(1493280475.714477) can0 4F4#
(1493280475.729616) can0 1FD#0000000000000000
(1493280475.750884) can0 30B#5F00110000000098
(1493280475.764608) can0 33C#20805917BDDCA318
(1493280475.771959) can0 3C0#6A7E1335
(1493280475.789608) can0 1FD#0000000000000000
(1493280475.791888) can0 1BFC38B1#0000000000000000
(1493280475.792076) can0 1BFC38BB#FFFFFFFFFFFFFFFF
(1493280475.792492) can0 1BFC38BA#535553500000001A
(1493280475.792880) can0 1BFC38B9#070296408005A3F4
(1493280475.793106) can0 1BFC38B8#0000000000000000
(1493280475.793475) can0 1BFC38B7#80016484250202E3
(1493280475.793727) can0 1BFC38B6#0000127100000000
(1493280475.794104) can0 1BFC38B5#0502FF9202028292
(1493280475.794352) can0 1BFC38B4#00010101001F0003
(1493280475.794710) can0 1BFC38B3#8001648431001100
(1493280475.794930) can0 1BFC38B2#80016484838380FD
(1493280475.801101) can0 30B#5F00110000000098
(1493280475.814881) can0 16F#5BC1
(1493280475.850738) can0 6C7#04051101020001
(1493280475.850965) can0 1FD#0000000000000000
(1493280475.851354) can0 30B#5F00110000000098
(1493280475.851464) can0 5F2#CB00
(1493280475.864985) can0 200#FC7BB9799C
(1493280475.875993) can0 3C0#6A7E1335
(1493280475.900389) can0 30B#5F00110000000098
(1493280475.910111) can0 1FD#0000000000000000
(1493280475.915128) can0 098#350A
(1493280475.950988) can0 30B#5F00110000000098
(1493280475.965110) can0 61F#99809B02DBA8D3
(1493280475.969644) can0 1FD#0000000000000000
(1493280475.979326) can0 3C0#6A7E1335
(1493280476.000251) can0 30B#5F00110000000098
(1493280476.015245) can0 1D8#E23100255E2AF3
(1493280476.029626) can0 1FD#0000000000000000
(1493280476.043245) can0 1BFC38B1#0000000000000000
(1493280476.043518) can0 1BFC38BB#FFFFFFFFFFFFFFFF
(1493280476.043867) can0 1BFC38BA#535553500000001A
(1493280476.044114) can0 1BFC38B9#070296408005A3F4
(1493280476.044486) can0 1BFC38B8#0000000000000000
(1493280476.044729) can0 1BFC38B7#80016484250202E3
(1493280476.045107) can0 1BFC38B6#000012740000A205
(1493280476.045366) can0 1BFC38B5#0502FF9202028292
(1493280476.045775) can0 1BFC38B4#110F01010000A205
(1493280476.046040) can0 1BFC38B3#8001648431003322
(1493280476.046380) can0 1BFC38B2#8001648483830072
(1493280476.049631) can0 6C7#04051101020001
(1493280476.050013) can0 30B#5F00110000000098
(1493280476.050016) can0 5F2#CB00
(1493280476.050253) can0 643#000200
(1493280476.050599) can0 64E#00A2050000000000
(1493280476.050864) can0 65E#8808488891570800
(1493280476.051109) can0 6B8#6D08000000000000
(1493280476.051346) can0 6BC#92823651324C07D0
(1493280476.060602) can0 62D#348414
(1493280476.065517) can0 149#006AE7623DAE7A19
(1493280476.082604) can0 3C0#6A7E1335
(1493280476.089635) can0 1FD#0000000000000000
(1493280476.100398) can0 30B#5F00110000000098
(1493280476.115636) can0 3BD#E22118
(1493280476.150876) can0 1FD#0000000000000000
(1493280476.151103) can0 30B#5F00110000000098
(1493280476.151524) can0 631#34C37807FE000000
(1493280476.160004) can0 6B6#390C1C000D35
(1493280476.160209) can0 6B7#BEB4000008FF80FE
(1493280476.165739) can0 692#B7C3
(1493280476.186621) can0 3C0#6A7E1335
(1493280476.200376) can0 30B#5F00110000000098
(1493280476.209888) can0 1FD#0000000000000000
(1493280476.215973) can0 584#BF2B
(1493280476.251000) can0 6C7#04051101020001
(1493280476.251250) can0 30B#5F00110000000098
(1493280476.251367) can0 5F2#CB00
(1493280476.266171) can0 547#201B6142E08D7906
(1493280476.269674) can0 1FD#0000000000000000
(1493280476.290507) can0 3C0#6A7E1335
(1493280476.291840) can0 1BFC38B1#0000000000000000
(1493280476.292288) can0 1BFC38BB#FFFFFFFFFFFFFFFF
(1493280476.292499) can0 1BFC38BA#535553500000001A
(1493280476.292892) can0 1BFC38B9#070296408005A3F4
(1493280476.293122) can0 1BFC38B8#0000000000000000
(1493280476.293486) can0 1BFC38B7#80016484250202E3
(1493280476.293733) can0 1BFC38B6#00001276000034A8
(1493280476.294109) can0 1BFC38B5#0502FF9202028292
(1493280476.294357) can0 1BFC38B4#110F01010000A205
(1493280476.294733) can0 1BFC38B3#8001648431003322
(1493280476.294979) can0 1BFC38B2#8001648483830072
(1493280476.301159) can0 30B#5F00110000000098
(1493280476.316274) can0 03D#38788A655D
(1493280476.329632) can0 1FD#0000000000000000
(1493280476.351039) can0 30B#5F00110000000098
(1493280476.366385) can0 1BC#38
(1493280476.389635) can0 1FD#0000000000000000
(1493280476.393997) can0 3C0#6A7E1335
(1493280476.400396) can0 30B#5F00110000000098
(1493280476.416590) can0 1D9#F2FDF83422633F38
(1493280476.450778) can0 6C7#04051101020001
(1493280476.451158) can0 1FD#0000000000000000
(1493280476.451389) can0 30B#5F00110000000098
(1493280476.451500) can0 5F2#CB00
(1493280476.466640) can0 208#5F11
(1493280476.497518) can0 3C0#6A7E1335
(1493280476.500390) can0 30B#5F00110000000098
(1493280476.510012) can0 1FD#0000000000000000
(1493280476.516790) can0 435#BF
(1493280476.543150) can0 1BFC38B1#0000000000000000
(1493280476.543515) can0 1BFC38BB#FFFFFFFFFFFFFFFF
(1493280476.543771) can0 1BFC38BA#535553500000001A
(1493280476.544141) can0 1BFC38B9#000096408008FC68
(1493280476.544506) can0 1BFC38B8#0000000800000000
(1493280476.544746) can0 1BFC38B7#800164842502021B
(1493280476.545049) can0 1BFC38B6#0000127900000000
(1493280476.545387) can0 1BFC38B5#0502FF9202028292
(1493280476.545795) can0 1BFC38B4#110F01010000A205
(1493280476.545978) can0 1BFC38B3#8001648431003322
(1493280476.546229) can0 1BFC38B2#8001648483830072
(1493280476.551353) can0 30B#5F00110000000098
(1493280476.551650) can0 65E#88082017776D0800
(1493280476.561027) can0 62F#4451000D36
(1493280476.567072) can0 543#C9723A58C7EA
(1493280476.569655) can0 1FD#0000000000000000
(1493280476.600384) can0 30B#5F00110000000098
(1493280476.600763) can0 3C0#6A7E1335
(1493280476.617168) can0 588#4B822178D05AB710
(1493280476.629765) can0 1FD#0000000000000000
(1493280476.650944) can0 6C7#04051101020001
(1493280476.651139) can0 30B#5F00110000000098
(1493280476.651270) can0 5F2#CB00
(1493280476.667286) can0 644#B0E83017811E9275
(1493280476.689772) can0 1FD#0000000000000000
(1493280476.700402) can0 30B#5F00110000000098
(1493280476.703978) can0 3C0#6A7E1335
(1493280476.717413) can0 2C0#DE2CBE497D0C7B57
(1493280476.750904) can0 1FD#0000000000000000
(1493280476.751153) can0 30B#5F00110000000098
(1493280476.767529) can0 1B9#11E0804F926B94
(1493280476.792078) can0 1BFC38B1#0000000000000000
(1493280476.792273) can0 1BFC38BB#FFFFFFFFFFFFFFFF
(1493280476.792572) can0 1BFC38BA#0000000700000014
(1493280476.792951) can0 1BFC38B9#000096408008FC68
(1493280476.793151) can0 1BFC38B8#0000000800000000
(1493280476.793538) can0 1BFC38B7#800164842502021B
(1493280476.793735) can0 1BFC38B6#0000127B00000000
(1493280476.794170) can0 1BFC38B5#0502FF9202028292
(1493280476.794547) can0 1BFC38B4#110F01010000A205
(1493280476.794736) can0 1BFC38B3#8001648431003322
(1493280476.795047) can0 1BFC38B2#8001648483830072
(1493280476.801165) can0 30B#5F00110000000098
(1493280476.807858) can0 3C0#6A7E1335
(1493280476.809852) can0 1FD#0000000000000000
(1493280476.817679) can0 531#B4CED307
(1493280476.850913) can0 6C7#04051101020001
(1493280476.851150) can0 30B#5F00110000000098
(1493280476.851262) can0 5F2#CB00
(1493280476.867919) can0 5F6#FFECFA7D
(1493280476.869781) can0 1FD#0000000000000000
(1493280476.900287) can0 30B#5F00110000000098
(1493280476.911248) can0 3C0#6A7E1335
(1493280476.918046) can0 355#F384286A99E8A327
(1493280476.929788) can0 1FD#0000000000000000
(1493280476.950938) can0 30B#5F00110000000098
(1493280476.968165) can0 235#60D3282EBD1F8550
(1493280476.989815) can0 1FD#0000000000000000
(1493280477.000295) can0 30B#5F00110000000098
(1493280477.014781) can0 3C0#6A7E1335
(1493280477.018453) can0 645#8D7A3C6189DC6245
(1493280477.043171) can0 1BFC38B1#0000000000000000
(1493280477.043535) can0 1BFC38BB#FFFFFFFFFFFFFFFF
(1493280477.043955) can0 1BFC38BA#0000000700000014
(1493280477.044114) can0 1BFC38B9#000096408008FC68
(1493280477.044537) can0 1BFC38B8#0000000800000000
(1493280477.044785) can0 1BFC38B7#800164842502021B
(1493280477.045179) can0 1BFC38B6#0000127E0000A205
(1493280477.045406) can0 1BFC38B5#0502FF9202028292
(1493280477.045799) can0 1BFC38B4#110F01010000A205
(1493280477.046055) can0 1BFC38B3#8001648432408877
(1493280477.046433) can0 1BFC38B2#80016484838380B9
(1493280477.051325) can0 6C7#04051101020001
(1493280477.051697) can0 1FD#0000000000000000
(1493280477.051966) can0 30B#5F00110000000098
(1493280477.052162) can0 5F2#CB00
(1493280477.052264) can0 643#000200
(1493280477.052552) can0 64E#00A2050000000000
(1493280477.052801) can0 65E#8808530587370600
(1493280477.053143) can0 6B8#6D08000000000000
(1493280477.053409) can0 6BC#92823651324C0701
(1493280477.068509) can0 317#0AFBF43AD8B5CB67
(1493280477.100300) can0 30B#5F00110000000098
(1493280477.109789) can0 1FD#0000000000000000
(1493280477.118516) can0 3C0#6A7E1335
(1493280477.118518) can0 425#55C2463FDF1D0A5A
(1493280477.151044) can0 30B#5F00110000000098
(1493280477.160294) can0 6B6#390C1C000D36
(1493280477.160533) can0 6B7#BEB4000008FF80FE
(1493280477.168665) can0 400#71899E2931D9
(1493280477.169751) can0 1FD#0000000000000000
(1493280477.200409) can0 30B#5F00110000000098
(1493280477.218977) can0 06A#6BA0834A61C6
(1493280477.222421) can0 3C0#6A7E1335
(1493280477.229801) can0 1FD#0000000000000000
(1493280477.250926) can0 6C7#04051101020001
(1493280477.251163) can0 30B#5F00110000000098
(1493280477.251442) can0 5F2#CB00
(1493280477.269064) can0 03A#8DD883048F4B6067
(1493280477.289831) can0 1FD#0000000000000000
(1493280477.292027) can0 1BFC38B1#0000000000000000
(1493280477.292315) can0 1BFC38BB#FFFFFFFFFFFFFFFF
(1493280477.292674) can0 1BFC38BA#0000000700000014
(1493280477.292937) can0 1BFC38B9#000096408008FC68
(1493280477.293303) can0 1BFC38B8#0000000800000000
(1493280477.293551) can0 1BFC38B7#800164842502021B
(1493280477.293941) can0 1BFC38B6#0000128002028292
(1493280477.294168) can0 1BFC38B5#0502FF9202028292
(1493280477.294531) can0 1BFC38B4#110F01010000A205
(1493280477.294774) can0 1BFC38B3#8001648432408877
(1493280477.295159) can0 1BFC38B2#80016484838380B9
(1493280477.301171) can0 30B#5F00110000000098
(1493280477.319177) can0 728#
(1493280477.325670) can0 3C0#6A7E1335
(1493280477.350932) can0 1FD#0000000000000000
(1493280477.351162) can0 30B#5F00110000000098
(1493280477.369306) can0 53D#1B71C36582EB4769
(1493280477.400436) can0 30B#5F00110000000098
(1493280477.410088) can0 1FD#0000000000000000
(1493280477.419441) can0 535#0BC8AA2E4C504444
(1493280477.429142) can0 3C0#6A7E1335
(1493280477.450844) can0 6C7#04051101020001
(1493280477.451057) can0 30B#5F00110000000098
(1493280477.451287) can0 5F2#CB00
(1493280477.469699) can0 6E6#2406102C0B
(1493280477.469702) can0 1FD#0000000000000000
(1493280477.500450) can0 30B#5F00110000000098
(1493280477.519979) can0 2FE#EA30A00EFEF6C311
(1493280477.529812) can0 1FD#0000000000000000
(1493280477.532818) can0 3C0#6A7E1335
(1493280477.543440) can0 1BFC38B1#0000000000000000
(1493280477.543675) can0 1BFC38BB#FFFFFFFFFFFFFFFF
(1493280477.544048) can0 1BFC38BA#0000000700000014
(1493280477.544305) can0 1BFC38B9#010296408005A3F4
(1493280477.544678) can0 1BFC38B8#0000000800000000
(1493280477.545049) can0 1BFC38B7#8001648425020257
(1493280477.545311) can0 1BFC38B6#0000128300000000
(1493280477.545529) can0 1BFC38B5#0502FF9202028292
(1493280477.545895) can0 1BFC38B4#110F01010000A205
(1493280477.546151) can0 1BFC38B3#8001648432408877
(1493280477.546524) can0 1BFC38B2#80016484838380B9
(1493280477.549852) can0 30B#5F00110000000098
(1493280477.550199) can0 65E#8808197577BA0800
(1493280477.560940) can0 62F#4451000D37
