(1493280434.846386) can0 6C7#04051101020001
(1493280434.846555) can0 30B#5F00110000000098
(1493280434.846803) can0 5F2#CD00
(1493280434.865371) can0 1FD#0000000000000000
(1493280434.896036) can0 30B#5F00110000000098
(1493280434.912612) can0 3C0#6A7E1335
(1493280434.925361) can0 1FD#0000000000000000
(1493280434.946484) can0 30B#5F00110000000098
(1493280434.985363) can0 1FD#0000000000000000
(1493280434.995992) can0 30B#5F00110000000098
(1493280435.016097) can0 3C0#6A7E1335
(1493280435.038866) can0 1BFC38B1#0000000000000000
(1493280435.039095) can0 1BFC38BB#FFFFFFFFFFFFFFFF
(1493280435.039501) can0 1BFC38BA#0000000700000014
(1493280435.039748) can0 1BFC38B9#060096408008FC68
(1493280435.040111) can0 1BFC38B8#0000000800000000
(1493280435.040514) can0 1BFC38B7#8001648425020250
(1493280435.040742) can0 1BFC38B6#000010DA001F0003
(1493280435.041125) can0 1BFC38B5#0502FF9202048292
(1493280435.041344) can0 1BFC38B4#00010101001F0003
(1493280435.041721) can0 1BFC38B3#80016484324000FF
(1493280435.041966) can0 1BFC38B2#80016484838300BE
(1493280435.047018) can0 6C7#04051101020001
(1493280435.047234) can0 1FD#0000000000000000
(1493280435.047457) can0 30B#5F00110000000098
(1493280435.047733) can0 5F2#CD00
(1493280435.047955) can0 643#000200
(1493280435.048296) can0 64E#00B1040000000000
(1493280435.048506) can0 65E#8808CCE650CB0C00
(1493280435.048735) can0 6B8#6D08000000000000
(1493280435.049019) can0 6BC#92823651324C0792
(1493280435.095990) can0 30B#5F00110000000098
(1493280435.105495) can0 1FD#0000000000000000
(1493280435.119581) can0 3C0#6A7E1335
(1493280435.146578) can0 30B#5F00110000000098
(1493280435.155955) can0 6B6#390C1C000D0C
(1493280435.156230) can0 6B7#BEB4000008FF80FE
(1493280435.165367) can0 1FD#0000000000000000
(1493280435.195997) can0 30B#5F00110000000098
(1493280435.223366) can0 3C0#6A7E1335
(1493280435.225408) can0 1FD#0000000000000000
(1493280435.246625) can0 6C7#04051101020001
(1493280435.246898) can0 30B#5F00110000000098
(1493280435.247141) can0 5F2#CD00
(1493280435.285413) can0 1FD#0000000000000000
(1493280435.287627) can0 1BFC38B1#0000000000000000
(1493280435.288009) can0 1BFC38BB#FFFFFFFFFFFFFFFF
(1493280435.288209) can0 1BFC38BA#0000000700000014
(1493280435.288531) can0 1BFC38B9#060096408008FC68
(1493280435.288883) can0 1BFC38B8#0000000800000000
(1493280435.289095) can0 1BFC38B7#8001648425020250
(1493280435.289481) can0 1BFC38B6#000010DC02048292
(1493280435.289763) can0 1BFC38B5#0502FF9202048292
(1493280435.290145) can0 1BFC38B4#00010101001F0003
(1493280435.290524) can0 1BFC38B3#80016484324000FF
(1493280435.290767) can0 1BFC38B2#80016484838300BE
(1493280435.296723) can0 30B#5F00110000000098
(1493280435.327297) can0 3C0#6A7E1335
(1493280435.346631) can0 1FD#0000000000000000
(1493280435.346880) can0 30B#5F00110000000098
(1493280435.396015) can0 30B#5F00110000000098
(1493280435.405757) can0 1FD#0000000000000000
(1493280435.431013) can0 3C0#6A7E1335
(1493280435.446632) can0 6C7#04051101020001
(1493280435.446977) can0 30B#5F00110000000098
(1493280435.447093) can0 5F2#CD00
(1493280435.465418) can0 1FD#0000000000000000
(1493280435.496083) can0 30B#5F00110000000098
(1493280435.525392) can0 1FD#0000000000000000
(1493280435.534897) can0 3C0#6A7E1335
(1493280435.539043) can0 1BFC38B1#0000000000000000
(1493280435.539385) can0 1BFC38BB#FFFFFFFFFFFFFFFF
(1493280435.539619) can0 1BFC38BA#0000000700000014
(1493280435.539971) can0 1BFC38B9#070296408005A3F4
(1493280435.540279) can0 1BFC38B8#0000000800000000
(1493280435.540620) can0 1BFC38B7#800164842502028C
(1493280435.540992) can0 1BFC38B6#000010DF00000000
(1493280435.541257) can0 1BFC38B5#0502FF9202048292
(1493280435.541496) can0 1BFC38B4#00010101001F0003
(1493280435.541866) can0 1BFC38B3#80016484324000FF
(1493280435.542119) can0 1BFC38B2#80016484838300BE
(1493280435.545431) can0 30B#5F00110000000098
(1493280435.545789) can0 65E#8808B206BCA00A00
(1493280435.556548) can0 62F#4451000D0D
(1493280435.585394) can0 1FD#0000000000000000
(1493280435.596021) can0 30B#5F00110000000098
(1493280435.638745) can0 3C0#6A7E1335
(1493280435.646548) can0 6C7#04051101020001
(1493280435.646728) can0 1FD#0000000000000000
(1493280435.646986) can0 30B#5F00110000000098
(1493280435.647264) can0 5F2#CD00
(1493280435.647363) can0 630#33EA010000
(1493280435.696032) can0 30B#5F00110000000098
(1493280435.705683) can0 1FD#0000000000000000
(1493280435.742775) can0 3C0#6A7E1335
(1493280435.746680) can0 30B#5F00110000000098
(1493280435.765403) can0 1FD#0000000000000000
(1493280435.787650) can0 1BFC38B1#0000000000000000
(1493280435.788030) can0 1BFC38BB#FFFFFFFFFFFFFFFF
(1493280435.788264) can0 1BFC38BA#535553500000001A
(1493280435.788651) can0 1BFC38B9#070296408005A3F4
(1493280435.789023) can0 1BFC38B8#0000000800000000
(1493280435.789293) can0 1BFC38B7#800164842502028C
(1493280435.789487) can0 1BFC38B6#000010E100000000
(1493280435.789914) can0 1BFC38B5#0502FF9202048292
(1493280435.790145) can0 1BFC38B4#00010101001F0003
(1493280435.790488) can0 1BFC38B3#80016484324000FF
(1493280435.790736) can0 1BFC38B2#80016484838300BE
(1493280435.796827) can0 30B#5F00110000000098
(1493280435.825409) can0 1FD#0000000000000000
(1493280435.846509) can0 6C7#04051101020001
(1493280435.846733) can0 3C0#6A7E1335
(1493280435.846737) can0 30B#5F00110000000098
(1493280435.846986) can0 5F2#CD00
(1493280435.885428) can0 1FD#0000000000000000
(1493280435.896080) can0 30B#5F00110000000098
(1493280435.946661) can0 1FD#0000000000000000
(1493280435.946879) can0 30B#5F00110000000098
(1493280435.950534) can0 3C0#6A7E1335
(1493280435.996052) can0 30B#5F00110000000098
(1493280436.005793) can0 1FD#0000000000000000
(1493280436.039039) can0 1BFC38B1#0000000000000000
(1493280436.039289) can0 1BFC38BB#FFFFFFFFFFFFFFFF
(1493280436.039665) can0 1BFC38BA#535553500000001A
(1493280436.040039) can0 1BFC38B9#070296408005A3F4
(1493280436.040290) can0 1BFC38B8#0000000800000000
(1493280436.040665) can0 1BFC38B7#800164842502028C
(1493280436.040918) can0 1BFC38B6#000010E4001F0003
(1493280436.041249) can0 1BFC38B5#0502FF9202048292
(1493280436.041499) can0 1BFC38B4#00010101001F0003
(1493280436.041881) can0 1BFC38B3#8001648431005544
(1493280436.042174) can0 1BFC38B2#8001648483830054
(1493280436.047180) can0 6C7#04051101020001
(1493280436.047385) can0 30B#5F00110000000098
(1493280436.047501) can0 5F2#CD00
(1493280436.047788) can0 643#000200
(1493280436.048003) can0 64E#00B1040000000000
(1493280436.048374) can0 65E#8808AB9389A40800
(1493280436.048689) can0 6B8#6D08000000000000
(1493280436.048886) can0 6BC#92823651324C0798
(1493280436.054135) can0 3C0#6A7E1335
(1493280436.056695) can0 62D#349220C900
(1493280436.065449) can0 1FD#0000000000000000
(1493280436.096050) can0 30B#5F00110000000098
(1493280436.125454) can0 1FD#0000000000000000
(1493280436.146706) can0 30B#5F00110000000098
(1493280436.147059) can0 631#34D100
(1493280436.156512) can0 6B6#390C1C000D0D
(1493280436.156780) can0 6B7#BEB4000008FF80FE
(1493280436.158045) can0 3C0#6A7E1335
(1493280436.185572) can0 1FD#0000000000000000
(1493280436.196183) can0 30B#5F00110000000098
(1493280436.246707) can0 6C7#04051101020001
(1493280436.247046) can0 1FD#0000000000000000
(1493280436.247134) can0 30B#5F00110000000098
(1493280436.247412) can0 5F2#CD00
(1493280436.262270) can0 3C0#6A7E1335
(1493280436.287687) can0 1BFC38B1#0000000000000000
(1493280436.288042) can0 1BFC38BB#FFFFFFFFFFFFFFFF
(1493280436.288326) can0 1BFC38BA#535553500000001A
(1493280436.288679) can0 1BFC38B9#070296408005A3F4
(1493280436.289053) can0 1BFC38B8#0000000800000000
(1493280436.289336) can0 1BFC38B7#800164842502028C
(1493280436.289500) can0 1BFC38B6#000010E6001F34A8
(1493280436.289881) can0 1BFC38B5#0502FF9202048292
(1493280436.290253) can0 1BFC38B4#00010101001F0003
(1493280436.290502) can0 1BFC38B3#8001648431005544
(1493280436.290751) can0 1BFC38B2#8001648483830054
(1493280436.296941) can0 30B#5F00110000000098
(1493280436.305549) can0 1FD#0000000000000000
(1493280436.346558) can0 30B#5F00110000000098
(1493280436.365555) can0 1FD#0000000000000000
(1493280436.366066) can0 3C0#6A7E1335
(1493280436.396043) can0 30B#5F00110000000098
(1493280436.425562) can0 1FD#0000000000000000
(1493280436.446604) can0 6C7#04051101020001
(1493280436.446813) can0 30B#5F00110000000098
(1493280436.447063) can0 5F2#CD00
(1493280436.469814) can0 3C0#6A7E1335
(1493280436.485564) can0 1FD#0000000000000000
(1493280436.496197) can0 30B#5F00110000000098
(1493280436.539088) can0 1BFC38B1#0000000000000000
(1493280436.539311) can0 1BFC38BB#FFFFFFFFFFFFFFFF
(1493280436.539708) can0 1BFC38BA#535553500000001A
(1493280436.539918) can0 1BFC38B9#000096408008FC68
(1493280436.540311) can0 1BFC38B8#0000000800000000
(1493280436.540561) can0 1BFC38B7#80016484250202C7
(1493280436.540903) can0 1BFC38B6#000010E900000000
(1493280436.541147) can0 1BFC38B5#0502FF9202048292
(1493280436.541571) can0 1BFC38B4#00010101001F0003
(1493280436.541776) can0 1BFC38B3#8001648431005544
(1493280436.542171) can0 1BFC38B2#8001648483830054
(1493280436.547170) can0 1FD#0000000000000000
(1493280436.547571) can0 30B#5F00110000000098
(1493280436.547775) can0 65E#8808C826597B0600
(1493280436.556545) can0 62F#4451000D0E
(1493280436.573651) can0 3C0#6A7E1335
(1493280436.596240) can0 30B#5F00110000000098
(1493280436.605695) can0 1FD#0000000000000000
(1493280436.646572) can0 6C7#04051101020001
(1493280436.646788) can0 30B#5F00110000000098
(1493280436.647070) can0 5F2#CD00
(1493280436.665575) can0 1FD#0000000000000000
(1493280436.677439) can0 3C0#6A7E1335
(1493280436.696219) can0 30B#5F00110000000098
(1493280436.725575) can0 1FD#0000000000000000
(1493280436.746703) can0 30B#5F00110000000098
(1493280436.781460) can0 3C0#6A7E1335
(1493280436.785611) can0 1FD#0000000000000000
(1493280436.787718) can0 1BFC38B1#0000000000000000
(1493280436.788095) can0 1BFC38BB#FFFFFFFFFFFFFFFF
(1493280436.788461) can0 1BFC38BA#0000000700000014
(1493280436.788714) can0 1BFC38B9#000096408008FC68
(1493280436.789077) can0 1BFC38B8#0000000800000000
(1493280436.789306) can0 1BFC38B7#80016484250202C7
(1493280436.789683) can0 1BFC38B6#000010EB00000000
(1493280436.790054) can0 1BFC38B5#0502FF9202048292
(1493280436.790305) can0 1BFC38B4#00010101001F0003
(1493280436.790556) can0 1BFC38B3#8001648431005544
(1493280436.790930) can0 1BFC38B2#8001648483830054
(1493280436.796982) can0 30B#5F00110000000098
(1493280436.846581) can0 6C7#04051101020001
(1493280436.846942) can0 1FD#0000000000000000
(1493280436.847201) can0 30B#5F00110000000098
(1493280436.847277) can0 5F2#CD00
(1493280436.885340) can0 3C0#6A7E1335
(1493280436.896240) can0 30B#5F00110000000098
(1493280436.906113) can0 1FD#0000000000000000
(1493280436.946715) can0 30B#5F00110000000098
(1493280436.965589) can0 1FD#0000000000000000
(1493280436.989316) can0 3C0#6A7E1335
(1493280436.996224) can0 30B#5F00110000000098
(1493280437.025601) can0 1FD#0000000000000000
(1493280437.039088) can0 1BFC38B1#0000000000000000
(1493280437.039343) can0 1BFC38BB#FFFFFFFFFFFFFFFF
(1493280437.039729) can0 1BFC38BA#0000000700000014
(1493280437.040087) can0 1BFC38B9#000096408008FC68
(1493280437.040361) can0 1BFC38B8#0000000800000000
(1493280437.040543) can0 1BFC38B7#80016484250202C7
(1493280437.040946) can0 1BFC38B6#000010EE001F0003
(1493280437.041321) can0 1BFC38B5#0502FF9202048292
(1493280437.041569) can0 1BFC38B4#00010101001F0003
(1493280437.041945) can0 1BFC38B3#8001648431007766
(1493280437.042196) can0 1BFC38B2#8001648483838078
(1493280437.047244) can0 6C7#04051101020001
(1493280437.047464) can0 30B#5F00110000000098
(1493280437.047710) can0 5F2#CD00
(1493280437.047844) can0 643#000200
(1493280437.048244) can0 64E#00B1040000000000
(1493280437.048464) can0 65E#88089DD376000600
(1493280437.048759) can0 6B8#6D08000000000000
(1493280437.049128) can0 6BC#92823651324C079D
(1493280437.085627) can0 1FD#0000000000000000
(1493280437.093220) can0 3C0#6A7E1335
(1493280437.096249) can0 30B#5F00110000000098
(1493280437.146863) can0 1FD#0000000000000000
(1493280437.147078) can0 30B#5F00110000000098
(1493280437.156125) can0 6B6#390C1C000D0E
(1493280437.156230) can0 6B7#BEB4000008FF80FE
(1493280437.196220) can0 30B#5F00110000000098
(1493280437.197091) can0 3C0#6A7E1335
(1493280437.205726) can0 1FD#0000000000000000
(1493280437.246648) can0 6C7#04051101020001
(1493280437.246944) can0 30B#5F00110000000098
(1493280437.247068) can0 5F2#CD00
(1493280437.265604) can0 1FD#0000000000000000
(1493280437.287843) can0 1BFC38B1#0000000000000000
(1493280437.288082) can0 1BFC38BB#FFFFFFFFFFFFFFFF
(1493280437.288500) can0 1BFC38BA#0000000700000014
(1493280437.288744) can0 1BFC38B9#000096408008FC68
(1493280437.289120) can0 1BFC38B8#0000000800000000
(1493280437.289379) can0 1BFC38B7#80016484250202C7
(1493280437.289738) can0 1BFC38B6#000010F002048292
(1493280437.290083) can0 1BFC38B5#0502FF9202048292
(1493280437.290341) can0 1BFC38B4#00010101001F0003
(1493280437.290734) can0 1BFC38B3#8001648431007766
(1493280437.290956) can0 1BFC38B2#8001648483838078
(1493280437.296978) can0 30B#5F00110000000098
(1493280437.300953) can0 3C0#6A7E1335
(1493280437.325602) can0 1FD#0000000000000000
(1493280437.346730) can0 30B#5F00110000000098
(1493280437.385606) can0 1FD#0000000000000000
(1493280437.396230) can0 30B#5F00110000000098
(1493280437.404476) can0 3C0#6A7E1335
(1493280437.446645) can0 6C7#04051101020001
(1493280437.447002) can0 1FD#0000000000000000
(1493280437.447198) can0 30B#5F00110000000098
(1493280437.447315) can0 5F2#CD00
(1493280437.496259) can0 30B#5F00110000000098
(1493280437.505899) can0 1FD#0000000000000000
(1493280437.508201) can0 3C0#6A7E1335
(1493280437.539128) can0 1BFC38B1#0000000000000000
(1493280437.539338) can0 1BFC38BB#FFFFFFFFFFFFFFFF
(1493280437.539752) can0 1BFC38BA#0000000700000014
(1493280437.540193) can0 1BFC38B9#010296408005A3F4
(1493280437.540375) can0 1BFC38B8#0000000800000000
(1493280437.540779) can0 1BFC38B7#8001648425020203
(1493280437.540993) can0 1BFC38B6#000010F300000000
(1493280437.541357) can0 1BFC38B5#0502FF9202048292
(1493280437.541583) can0 1BFC38B4#00010101001F0003
(1493280437.541971) can0 1BFC38B3#8001648431007766
(1493280437.542229) can0 1BFC38B2#8001648483838078
(1493280437.547373) can0 30B#5F00110000000098
(1493280437.547588) can0 65E#8808A1926E110A00
(1493280437.556880) can0 62F#4451000D0F
(1493280437.565631) can0 1FD#0000000000000000
(1493280437.596255) can0 30B#5F00110000000098
(1493280437.611829) can0 3C0#6A7E1335
(1493280437.625630) can0 1FD#0000000000000000
(1493280437.646742) can0 6C7#04051101020001
(1493280437.646984) can0 30B#5F00110000000098
(1493280437.647276) can0 5F2#CD00
(1493280437.647503) can0 630#33EB0103010000
(1493280437.685655) can0 1FD#0000000000000000
(1493280437.696253) can0 30B#5F00110000000098
(1493280437.715334) can0 3C0#6A7E1335
(1493280437.746756) can0 1FD#0000000000000000
(1493280437.747143) can0 30B#5F00110000000098
(1493280437.787890) can0 1BFC38B1#0000000000000000
(1493280437.788100) can0 1BFC38BB#FFFFFFFFFFFFFFFF
(1493280437.788533) can0 1BFC38BA#535553500000001A
(1493280437.788745) can0 1BFC38B9#010296408005A3F4
(1493280437.789127) can0 1BFC38B8#0000000800000000
(1493280437.789540) can0 1BFC38B7#8001648425020203
(1493280437.789737) can0 1BFC38B6#000010F500000000
(1493280437.790125) can0 1BFC38B5#0502FF9202048292
(1493280437.790373) can0 1BFC38B4#00010101001F0003
(1493280437.790764) can0 1BFC38B3#8001648431007766
(1493280437.791136) can0 1BFC38B2#8001648483838078
(1493280437.797147) can0 30B#5F00110000000098
(1493280437.805788) can0 1FD#0000000000000000
(1493280437.819098) can0 3C0#6A7E1335
(1493280437.846645) can0 6C7#04051101020001
(1493280437.847002) can0 30B#5F00110000000098
(1493280437.847100) can0 5F2#CD00
(1493280437.865636) can0 1FD#0000000000000000
(1493280437.896304) can0 30B#5F00110000000098
(1493280437.922730) can0 3C0#6A7E1335
(1493280437.925663) can0 1FD#0000000000000000
(1493280437.946896) can0 30B#5F00110000000098
(1493280437.985651) can0 1FD#0000000000000000
(1493280437.996266) can0 30B#5F00110000000098
(1493280438.026252) can0 3C0#6A7E1335
(1493280438.039265) can0 1BFC38B1#0000000000000000
(1493280438.039639) can0 1BFC38BB#FFFFFFFFFFFFFFFF
(1493280438.039856) can0 1BFC38BA#535553500000001A
(1493280438.040262) can0 1BFC38B9#010296408005A3F4
(1493280438.040517) can0 1BFC38B8#0000000800000000
(1493280438.040874) can0 1BFC38B7#8001648425020203
(1493280438.041140) can0 1BFC38B6#000010F8001F0003
(1493280438.041495) can0 1BFC38B5#0502FF9202048292
(1493280438.041744) can0 1BFC38B4#00010101001F0003
(1493280438.042119) can0 1BFC38B3#800164843240CCBB
(1493280438.042349) can0 1BFC38B2#80016484838300D0
(1493280438.045609) can0 6C7#04051101020001
(1493280438.045853) can0 1FD#0000000000000000
(1493280438.046231) can0 30B#5F00110000000098
(1493280438.046337) can0 5F2#CC00
(1493280438.046597) can0 643#000200
(1493280438.046884) can0 64E#00B1040000000000
(1493280438.047134) can0 65E#8808127474B90900
(1493280438.047368) can0 6B8#6D08000000000000
(1493280438.047746) can0 6BC#92823651324C07BA
(1493280438.056901) can0 62D#349302E900
(1493280438.096267) can0 30B#5F00110000000098
(1493280438.105770) can0 1FD#0000000000000000
(1493280438.130149) can0 3C0#6A7E1335
(1493280438.147021) can0 30B#5F00110000000098
(1493280438.147552) can0 631#34D200
(1493280438.156145) can0 6B6#390C1C000D0F
(1493280438.156517) can0 6B7#BEB4000008FF80FE
(1493280438.165769) can0 1FD#0000000000000000
(1493280438.196278) can0 30B#5F00110000000098
(1493280438.225611) can0 1FD#0000000000000000
(1493280438.233861) can0 3C0#6A7E1335
(1493280438.247027) can0 6C7#04051101020001
(1493280438.247223) can0 30B#5F00110000000098
(1493280438.247352) can0 5F2#CC00
(1493280438.285663) can0 1FD#0000000000000000
(1493280438.287900) can0 1BFC38B1#0000000000000000
(1493280438.288279) can0 1BFC38BB#FFFFFFFFFFFFFFFF
(1493280438.288524) can0 1BFC38BA#535553500000001A
(1493280438.288901) can0 1BFC38B9#010296408005A3F4
(1493280438.289152) can0 1BFC38B8#0000000800000000
(1493280438.289475) can0 1BFC38B7#8001648425020203
(1493280438.289766) can0 1BFC38B6#000010FA001F34A8
(1493280438.290113) can0 1BFC38B5#0502FF9202048292
(1493280438.290350) can0 1BFC38B4#00010101001F0003
(1493280438.290741) can0 1BFC38B3#800164843240CCBB
(1493280438.291118) can0 1BFC38B2#80016484838300D0
(1493280438.297136) can0 30B#5F00110000000098
(1493280438.337613) can0 3C0#6A7E1335
(1493280438.346785) can0 1FD#0000000000000000
(1493280438.347152) can0 30B#5F00110000000098
(1493280438.396193) can0 30B#5F00110000000098
(1493280438.406036) can0 1FD#0000000000000000
(1493280438.441661) can0 3C0#6A7E1335
(1493280438.446788) can0 6C7#04051101020001
(1493280438.447132) can0 30B#5F00110000000098
(1493280438.447234) can0 5F2#CC00
(1493280438.465827) can0 1FD#0000000000000000
(1493280438.496431) can0 30B#5F00110000000098
(1493280438.525805) can0 1FD#0000000000000000
(1493280438.539203) can0 1BFC38B1#0000000000000000
(1493280438.539562) can0 1BFC38BB#FFFFFFFFFFFFFFFF
(1493280438.539788) can0 1BFC38BA#535553500000001A
(1493280438.540182) can0 1BFC38B9#020096408008FC68
(1493280438.540435) can0 1BFC38B8#0000000800000000
(1493280438.540798) can0 1BFC38B7#800164842502023F
(1493280438.541171) can0 1BFC38B6#000010FD00000000
(1493280438.541440) can0 1BFC38B5#0502FF9202048292
(1493280438.541769) can0 1BFC38B4#00010101001F0003
(1493280438.542031) can0 1BFC38B3#800164843240CCBB
(1493280438.542396) can0 1BFC38B2#80016484838300D0
(1493280438.545521) can0 3C0#6A7E1335
(1493280438.547400) can0 30B#5F00110000000098
(1493280438.547641) can0 65E#8808D0226ED60B00
(1493280438.556796) can0 62F#4451000D10
(1493280438.585805) can0 1FD#0000000000000000
(1493280438.596434) can0 30B#5F00110000000098
(1493280438.646798) can0 6C7#04051101020001
(1493280438.647043) can0 1FD#0000000000000000
(1493280438.647287) can0 30B#5F00110000000098
(1493280438.647497) can0 5F2#CC00
(1493280438.649414) can0 3C0#6A7E1335
(1493280438.696437) can0 30B#5F00110000000098
(1493280438.706050) can0 1FD#0000000000000000
(1493280438.746912) can0 30B#5F00110000000098
(1493280438.753805) can0 3C0#6A7E1335
(1493280438.765801) can0 1FD#0000000000000000
(1493280438.787947) can0 1BFC38B1#0000000000000000
(1493280438.788305) can0 1BFC38BB#FFFFFFFFFFFFFFFF
(1493280438.788523) can0 1BFC38BA#0000000700000014
(1493280438.788896) can0 1BFC38B9#020096408008FC68
(1493280438.789260) can0 1BFC38B8#0000000800000000
(1493280438.789580) can0 1BFC38B7#800164842502023F
(1493280438.789907) can0 1BFC38B6#000010FF00000000
(1493280438.790157) can0 1BFC38B5#0502FF9202048292
(1493280438.790530) can0 1BFC38B4#00010101001F0003
(1493280438.790784) can0 1BFC38B3#800164843240CCBB
(1493280438.791158) can0 1BFC38B2#80016484838300D0
(1493280438.797187) can0 30B#5F00110000000098
(1493280438.825794) can0 1FD#0000000000000000
(1493280438.846807) can0 6C7#04051101020001
(1493280438.847042) can0 30B#5F00110000000098
(1493280438.847172) can0 5F2#CC00
(1493280438.857386) can0 3C0#6A7E1335
(1493280438.885821) can0 1FD#0000000000000000
(1493280438.896445) can0 30B#5F00110000000098
(1493280438.946951) can0 1FD#0000000000000000
(1493280438.947180) can0 30B#5F00110000000098
(1493280438.960679) can0 3C0#6A7E1335
(1493280438.996440) can0 30B#5F00110000000098
(1493280439.006093) can0 1FD#0000000000000000
(1493280439.039313) can0 1BFC38B1#0000000000000000
(1493280439.039564) can0 1BFC38BB#FFFFFFFFFFFFFFFF
(1493280439.039942) can0 1BFC38BA#0000000700000014
(1493280439.040190) can0 1BFC38B9#020096408008FC68
(1493280439.040556) can0 1BFC38B8#0000000800000000
(1493280439.040801) can0 1BFC38B7#800164842502023F
(1493280439.041184) can0 1BFC38B6#00001102001F0003
(1493280439.041440) can0 1BFC38B5#0502FF9202048292
(1493280439.041824) can0 1BFC38B4#00010101001F0003
(1493280439.042198) can0 1BFC38B3#8001648431001100
(1493280439.042464) can0 1BFC38B2#8001648483830056
(1493280439.047452) can0 6C7#04051101020001
(1493280439.047723) can0 30B#5F00110000000098
(1493280439.047823) can0 5F2#CC00
(1493280439.048023) can0 643#000200
(1493280439.048322) can0 64E#00B1040000000000
(1493280439.048529) can0 65E#8808061A57B20600
(1493280439.048903) can0 6B8#6D08000000000000
(1493280439.049155) can0 6BC#92823651324C07BC
(1493280439.064444) can0 3C0#6A7E1335
(1493280439.065815) can0 1FD#0000000000000000
(1493280439.096443) can0 30B#5F00110000000098
(1493280439.125819) can0 1FD#0000000000000000
(1493280439.147072) can0 30B#5F00110000000098
(1493280439.156074) can0 6B6#390C1C000D10
(1493280439.156311) can0 6B7#BEB4000008FF80FE
(1493280439.167783) can0 3C0#6A7E1335
(1493280439.185821) can0 1FD#0000000000000000
(1493280439.196449) can0 30B#5F00110000000098
(1493280439.247081) can0 6C7#04051101020001
(1493280439.247312) can0 1FD#0000000000000000
(1493280439.247578) can0 30B#5F00110000000098
(1493280439.247825) can0 5F2#CC00
(1493280439.271653) can0 3C0#6A7E1335
(1493280439.287997) can0 1BFC38B1#0000000000000000
(1493280439.288351) can0 1BFC38BB#FFFFFFFFFFFFFFFF
(1493280439.288760) can0 1BFC38BA#0000000700000014
(1493280439.288946) can0 1BFC38B9#020096408008FC68
(1493280439.289335) can0 1BFC38B8#0000000800000000
(1493280439.289589) can0 1BFC38B7#800164842502023F
(1493280439.289968) can0 1BFC38B6#0000110402048292
(1493280439.290234) can0 1BFC38B5#0502FF9202048292
(1493280439.290555) can0 1BFC38B4#00010101001F0003
(1493280439.290804) can0 1BFC38B3#8001648431001100
(1493280439.291179) can0 1BFC38B2#8001648483830056
(1493280439.297202) can0 30B#5F00110000000098
(1493280439.305827) can0 1FD#0000000000000000
(1493280439.346835) can0 30B#5F00110000000098
(1493280439.365836) can0 1FD#0000000000000000
(1493280439.375175) can0 3C0#6A7E1335
(1493280439.396460) can0 30B#5F00110000000098
(1493280439.425808) can0 1FD#0000000000000000
(1493280439.446790) can0 6C7#04051101020001
(1493280439.447158) can0 30B#5F00110000000098
(1493280439.447300) can0 5F2#CC00
(1493280439.478823) can0 3C0#6A7E1335
(1493280439.485860) can0 1FD#0000000000000000
(1493280439.496446) can0 30B#5F00110000000098
(1493280439.539370) can0 1BFC38B1#0000000000000000
(1493280439.539581) can0 1BFC38BB#FFFFFFFFFFFFFFFF
(1493280439.539965) can0 1BFC38BA#0000000700000014
(1493280439.540196) can0 1BFC38B9#030296408005A3F4
(1493280439.540617) can0 1BFC38B8#0000000800000000
(1493280439.540864) can0 1BFC38B7#800164842502027B
(1493280439.541205) can0 1BFC38B6#0000110700000000
(1493280439.541451) can0 1BFC38B5#0502FF9202048292
(1493280439.541832) can0 1BFC38B4#00010101001F0003
(1493280439.542206) can0 1BFC38B3#8001648431001100
(1493280439.542425) can0 1BFC38B2#8001648483830056
(1493280439.547473) can0 1FD#0000000000000000
(1493280439.547753) can0 30B#5F00110000000098
(1493280439.548119) can0 65E#8808B9D68BF00900
(1493280439.557080) can0 62F#4451000D11
(1493280439.582961) can0 3C0#6A7E1335
(1493280439.596483) can0 30B#5F00110000000098
(1493280439.605964) can0 1FD#0000000000000000
(1493280439.646990) can0 6C7#04051101020001
(1493280439.647188) can0 30B#5F00110000000098
(1493280439.647495) can0 5F2#CC00
(1493280439.647700) can0 630#33C203000F000403
(1493280439.665866) can0 1FD#0000000000000000
(1493280439.687435) can0 3C0#6A7E1335
(1493280439.696484) can0 30B#5F00110000000098
(1493280439.725859) can0 1FD#0000000000000000
(1493280439.747118) can0 30B#5F00110000000098
(1493280439.785885) can0 1FD#0000000000000000
(1493280439.788104) can0 1BFC38B1#0000000000000000
(1493280439.788343) can0 1BFC38BB#FFFFFFFFFFFFFFFF
(1493280439.788728) can0 1BFC38BA#535553500000001A
(1493280439.788980) can0 1BFC38B9#030296408005A3F4
(1493280439.789350) can0 1BFC38B8#0000000800000000
(1493280439.789603) can0 1BFC38B7#800164842502027B
(1493280439.789945) can0 1BFC38B6#0000110900000000
(1493280439.790188) can0 1BFC38B5#0502FF9202048292
(1493280439.790569) can0 1BFC38B4#00010101001F0003
(1493280439.790801) can0 1BFC38B3#8001648431001100
(1493280439.791185) can0 1BFC38B2#8001648483830056
(1493280439.792234) can0 3C0#6A7E1335
(1493280439.797385) can0 30B#5F00110000000098
(1493280439.846971) can0 6C7#04051101020001
(1493280439.847181) can0 1FD#0000000000000000
(1493280439.847597) can0 30B#5F00110000000098
(1493280439.847681) can0 5F2#CC00
(1493280439.896465) can0 30B#5F00110000000098
(1493280439.896563) can0 3C0#6A7E1335
(1493280439.906063) can0 1FD#0000000000000000
(1493280439.947153) can0 30B#5F00110000000098
(1493280439.965840) can0 1FD#0000000000000000
(1493280439.996446) can0 30B#5F00110000000098
(1493280440.001319) can0 3C0#6A7E1335
(1493280440.025903) can0 1FD#0000000000000000
(1493280440.039374) can0 1BFC38B1#0000000000000000
(1493280440.039737) can0 1BFC38BB#FFFFFFFFFFFFFFFF
(1493280440.040115) can0 1BFC38BA#535553500000001A
(1493280440.040360) can0 1BFC38B9#030296408005A3F4
(1493280440.040750) can0 1BFC38B8#0000000800000000
(1493280440.041000) can0 1BFC38B7#800164842502027B
(1493280440.041376) can0 1BFC38B6#0000110C001F0003
(1493280440.041586) can0 1BFC38B5#0502FF9202048292
(1493280440.041970) can0 1BFC38B4#00010101001F0003
(1493280440.042220) can0 1BFC38B3#8001648431003322
(1493280440.042595) can0 1BFC38B2#80016484838380DA
(1493280440.045876) can0 6C7#04051101020001
(1493280440.046221) can0 30B#5F00110000000098
(1493280440.046351) can0 5F2#CC00
(1493280440.046468) can0 643#000200
(1493280440.046859) can0 64E#00B1040000000000
(1493280440.047112) can0 65E#8808C72676A40800
(1493280440.047360) can0 6B8#6D08000000000000
(1493280440.047594) can0 6BC#92823651324C07BE
(1493280440.057126) can0 62D#3482030012000300
(1493280440.085886) can0 1FD#0000000000000000
(1493280440.096504) can0 30B#5F00110000000098
(1493280440.105388) can0 3C0#6A7E1335
(1493280440.146995) can0 1FD#0000000000000000
(1493280440.147235) can0 30B#5F00110000000098
(1493280440.147481) can0 631#34D300
(1493280440.156199) can0 6B6#390C1C000D11
(1493280440.156452) can0 6B7#BEB4000008FF80FE
(1493280440.196499) can0 30B#5F00110000000098
(1493280440.206114) can0 1FD#0000000000000000
(1493280440.209080) can0 3C0#6A7E1335
(1493280440.247004) can0 6C7#04051101020001
(1493280440.247237) can0 30B#5F00110000000098
(1493280440.247499) can0 5F2#CC00
(1493280440.265886) can0 1FD#0000000000000000
(1493280440.288094) can0 1BFC38B1#0000000000000000
(1493280440.288492) can0 1BFC38BB#FFFFFFFFFFFFFFFF
(1493280440.288749) can0 1BFC38BA#535553500000001A
(1493280440.289206) can0 1BFC38B9#030296408005A3F4
(1493280440.289379) can0 1BFC38B8#0000000800000000
(1493280440.289779) can0 1BFC38B7#800164842502027B
(1493280440.290044) can0 1BFC38B6#0000110E001F34A8
(1493280440.290410) can0 1BFC38B5#0502FF9202048292
(1493280440.290673) can0 1BFC38B4#00010101001F0003
(1493280440.291012) can0 1BFC38B3#8001648431003322
(1493280440.291242) can0 1BFC38B2#80016484838380DA
(1493280440.297265) can0 30B#5F00110000000098
(1493280440.313006) can0 3C0#6A7E1335
(1493280440.325883) can0 1FD#0000000000000000
(1493280440.347028) can0 30B#5F00110000000098
(1493280440.385889) can0 1FD#0000000000000000
(1493280440.396511) can0 30B#5F00110000000098
(1493280440.416496) can0 3C0#6A7E1335
(1493280440.447034) can0 6C7#04051101020001
(1493280440.447412) can0 1FD#0000000000000000
(1493280440.447596) can0 30B#5F00110000000098
(1493280440.447722) can0 5F2#CC00
(1493280440.496549) can0 30B#5F00110000000098
(1493280440.506306) can0 1FD#0000000000000000
(1493280440.520382) can0 3C0#6A7E1335
(1493280440.539385) can0 1BFC38B1#0000000000000000
(1493280440.539746) can0 1BFC38BB#FFFFFFFFFFFFFFFF
(1493280440.539982) can0 1BFC38BA#535553500000001A
(1493280440.540419) can0 1BFC38B9#040096408008FC68
(1493280440.540813) can0 1BFC38B8#0000000800000000
(1493280440.541011) can0 1BFC38B7#80016484250202B7
(1493280440.541271) can0 1BFC38B6#0000111100000000
(1493280440.541650) can0 1BFC38B5#0502FF9202048292
(1493280440.542024) can0 1BFC38B4#00010101001F0003
(1493280440.542277) can0 1BFC38B3#8001648431003322
(1493280440.542621) can0 1BFC38B2#80016484838380DA
(1493280440.547673) can0 30B#5F00110000000098
(1493280440.547893) can0 65E#88081995B5BD0800
(1493280440.557143) can0 62F#4451000D12
(1493280440.565892) can0 1FD#0000000000000000
(1493280440.596524) can0 30B#5F00110000000098
(1493280440.623989) can0 3C0#6A7E1335
(1493280440.625910) can0 1FD#0000000000000000
(1493280440.647020) can0 6C7#04051101020001
(1493280440.647242) can0 30B#5F00110000000098
(1493280440.647360) can0 5F2#CC00
(1493280440.685905) can0 1FD#0000000000000000
(1493280440.696557) can0 30B#5F00110000000098
(1493280440.727365) can0 3C0#6A7E1335
(1493280440.747275) can0 1FD#0000000000000000
(1493280440.747492) can0 30B#5F00110000000098
(1493280440.788284) can0 1BFC38B1#0000000000000000
(1493280440.788517) can0 1BFC38BB#FFFFFFFFFFFFFFFF
(1493280440.788777) can0 1BFC38BA#0000000700000014
(1493280440.789155) can0 1BFC38B9#040096408008FC68
(1493280440.789540) can0 1BFC38B8#0000000800000000
(1493280440.789766) can0 1BFC38B7#80016484250202B7
(1493280440.790163) can0 1BFC38B6#0000111300000000
(1493280440.790417) can0 1BFC38B5#0502FF9202048292
(1493280440.790783) can0 1BFC38B4#00010101001F0003
(1493280440.791051) can0 1BFC38B3#8001648431003322
(1493280440.791416) can0 1BFC38B2#80016484838380DA
(1493280440.797415) can0 30B#5F00110000000098
(1493280440.806062) can0 1FD#0000000000000000
(1493280440.831242) can0 3C0#6A7E1335
(1493280440.847156) can0 6C7#04051101020001
(1493280440.847372) can0 30B#5F00110000000098
(1493280440.847651) can0 5F2#CC00
(1493280440.866031) can0 1FD#0000000000000000
(1493280440.896661) can0 30B#5F00110000000098
(1493280440.926040) can0 1FD#0000000000000000
(1493280440.934882) can0 3C0#6A7E1335
(1493280440.947320) can0 30B#5F00110000000098
(1493280440.986042) can0 1FD#0000000000000000
(1493280440.996666) can0 30B#5F00110000000098
(1493280441.038150) can0 3C0#6A7E1335
(1493280441.039508) can0 1BFC38B1#0000000000000000
(1493280441.039749) can0 1BFC38BB#FFFFFFFFFFFFFFFF
(1493280441.040187) can0 1BFC38BA#0000000700000014
(1493280441.040408) can0 1BFC38B9#040096408008FC68
(1493280441.040819) can0 1BFC38B8#0000000800000000
(1493280441.041041) can0 1BFC38B7#80016484250202B7
(1493280441.041424) can0 1BFC38B6#00001116001F0003
(1493280441.041771) can0 1BFC38B5#0502FF9202048292
(1493280441.042018) can0 1BFC38B4#00010101001F0003
(1493280441.042395) can0 1BFC38B3#8001648432408877
(1493280441.042642) can0 1BFC38B2#80016484838300F2
(1493280441.047678) can0 6C7#04051101020001
(1493280441.047884) can0 1FD#0000000000000000
(1493280441.048317) can0 30B#5F00110000000098
(1493280441.048428) can0 5F2#CC00
(1493280441.048543) can0 643#000200
(1493280441.048929) can0 64E#00B1040000000000
(1493280441.049177) can0 65E#8808E204AAC50700
(1493280441.049395) can0 6B8#6D08000000000000
(1493280441.049772) can0 6BC#92823651324C07BF
(1493280441.096670) can0 30B#5F00110000000098
(1493280441.106046) can0 1FD#0000000000000000
(1493280441.141534) can0 3C0#6A7E1335
(1493280441.147301) can0 30B#5F00110000000098
(1493280441.156911) can0 6B6#390C1C000D12
(1493280441.157292) can0 6B7#BEB4000008FF80FE
(1493280441.166042) can0 1FD#0000000000000000
(1493280441.196660) can0 30B#5F00110000000098
(1493280441.226057) can0 1FD#0000000000000000
(1493280441.245297) can0 3C0#6A7E1335
(1493280441.247283) can0 6C7#04051101020001
(1493280441.247538) can0 30B#5F00110000000098
(1493280441.247641) can0 5F2#CC00
(1493280441.286085) can0 1FD#0000000000000000
(1493280441.288306) can0 1BFC38B1#0000000000000000
(1493280441.288550) can0 1BFC38BB#FFFFFFFFFFFFFFFF
(1493280441.288954) can0 1BFC38BA#0000000700000014
(1493280441.289162) can0 1BFC38B9#040096408008FC68
(1493280441.289580) can0 1BFC38B8#0000000800000000
(1493280441.289765) can0 1BFC38B7#80016484250202B7
(1493280441.290139) can0 1BFC38B6#0000111802048292
(1493280441.290436) can0 1BFC38B5#0502FF9202048292
(1493280441.290766) can0 1BFC38B4#00010101001F0003
(1493280441.291035) can0 1BFC38B3#8001648432408877
(1493280441.291411) can0 1BFC38B2#80016484838300F2
(1493280441.297440) can0 30B#5F00110000000098
(1493280441.347182) can0 1FD#0000000000000000
(1493280441.347384) can0 30B#5F00110000000098
(1493280441.349313) can0 3C0#6A7E1335
(1493280441.396695) can0 30B#5F00110000000098
(1493280441.406314) can0 1FD#0000000000000000
(1493280441.447063) can0 6C7#04051101020001
(1493280441.447306) can0 30B#5F00110000000098
(1493280441.447551) can0 5F2#CC00
(1493280441.452958) can0 3C0#6A7E1335
(1493280441.466063) can0 1FD#0000000000000000
(1493280441.496690) can0 30B#5F00110000000098
(1493280441.526095) can0 1FD#0000000000000000
(1493280441.539567) can0 1BFC38B1#0000000000000000
(1493280441.539817) can0 1BFC38BB#FFFFFFFFFFFFFFFF
(1493280441.540186) can0 1BFC38BA#0000000700000014
(1493280441.540426) can0 1BFC38B9#050296408005A3F4
(1493280441.540808) can0 1BFC38B8#0000000800000000
(1493280441.541063) can0 1BFC38B7#80016484250202F3
(1493280441.541428) can0 1BFC38B6#0000111B00000000
(1493280441.541732) can0 1BFC38B5#0502FF9202048292
(1493280441.542077) can0 1BFC38B4#00010101001F0003
(1493280441.542294) can0 1BFC38B3#8001648432408877
(1493280441.542671) can0 1BFC38B2#80016484838300F2
(1493280441.547706) can0 30B#5F00110000000098
(1493280441.547900) can0 65E#880835559E9F0B00
(1493280441.556436) can0 3C0#6A7E1335
(1493280441.557276) can0 62F#4451000D13
(1493280441.586094) can0 1FD#0000000000000000
(1493280441.596692) can0 30B#5F00110000000098
(1493280441.629410) can0 198#4CAD6046CF704C6D
(1493280441.647195) can0 6C7#04051101020001
(1493280441.647395) can0 1FD#0000000000000000
(1493280441.647669) can0 30B#5F00110000000098
(1493280441.647897) can0 5F2#CC00
(1493280441.648184) can0 630#33C37803E0080272
(1493280441.660158) can0 3C0#6A7E1335
(1493280441.679735) can0 4AC#E431414D2F
(1493280441.696698) can0 30B#5F00110000000098
(1493280441.706213) can0 1FD#0000000000000000
(1493280441.729867) can0 1F5#E4BB752CF9D9920B
(1493280441.747356) can0 30B#5F00110000000098
(1493280441.763540) can0 3C0#6A7E1335
(1493280441.766071) can0 1FD#0000000000000000
(1493280441.780017) can0 73A#40F4FA0AD0D2906C
(1493280441.788362) can0 1BFC38B1#0000000000000000
(1493280441.788577) can0 1BFC38BB#FFFFFFFFFFFFFFFF
(1493280441.788981) can0 1BFC38BA#535553500000001A
(1493280441.789340) can0 1BFC38B9#050296408005A3F4
(1493280441.789590) can0 1BFC38B8#0000000800000000
(1493280441.789821) can0 1BFC38B7#80016484250202F3
(1493280441.790186) can0 1BFC38B6#0000111D00000000
(1493280441.790429) can0 1BFC38B5#0502FF9202048292
(1493280441.790804) can0 1BFC38B4#00010101001F0003
(1493280441.791180) can0 1BFC38B3#8001648432408877
(1493280441.791431) can0 1BFC38B2#80016484838300F2
(1493280441.797461) can0 30B#5F00110000000098
(1493280441.826080) can0 1FD#0000000000000000
(1493280441.830079) can0 380#AAE1B24E
(1493280441.847331) can0 6C7#04051101020001
(1493280441.847445) can0 30B#5F00110000000098
(1493280441.847670) can0 5F2#CC00
(1493280441.867540) can0 3C0#6A7E1335
(1493280441.880257) can0 0E3#D2
(1493280441.886082) can0 1FD#0000000000000000
(1493280441.896705) can0 30B#5F00110000000098
(1493280441.930350) can0 4FF#6B75020506034A1F
(1493280441.947337) can0 1FD#0000000000000000
(1493280441.947575) can0 30B#5F00110000000098
(1493280441.971167) can0 3C0#6A7E1335
(1493280441.980522) can0 3B9#FA46082F513504
(1493280441.996739) can0 30B#5F00110000000098
(1493280442.006368) can0 1FD#0000000000000000
(1493280442.030590) can0 296#20A650434347
(1493280442.039586) can0 1BFC38B1#0000000000000000
(1493280442.039822) can0 1BFC38BB#FFFFFFFFFFFFFFFF
(1493280442.040216) can0 1BFC38BA#535553500000001A
(1493280442.040459) can0 1BFC38B9#050296408005A3F4
(1493280442.040840) can0 1BFC38B8#0000000800000000
(1493280442.041215) can0 1BFC38B7#80016484250202F3
(1493280442.041467) can0 1BFC38B6#00001120001F0003
(1493280442.041823) can0 1BFC38B5#0502FF9202048292
(1493280442.042081) can0 1BFC38B4#00010101001F0003
(1493280442.042457) can0 1BFC38B3#800164843100DDCC
(1493280442.042672) can0 1BFC38B2#8001648483830078
(1493280442.047682) can0 6C7#04051101020001
(1493280442.047927) can0 30B#5F00110000000098
(1493280442.048174) can0 5F2#CC00
(1493280442.048305) can0 643#000200
(1493280442.048671) can0 64E#00B1040000000000
(1493280442.048922) can0 65E#8808E91947F40600
(1493280442.049337) can0 6B8#6D08000000000000
(1493280442.049417) can0 6BC#92823651324C07C0
(1493280442.057329) can0 62D#34837801F8000000
(1493280442.066097) can0 1FD#0000000000000000
(1493280442.074933) can0 3C0#6A7E1335
(1493280442.080795) can0 6EB#72992F69
(1493280442.096718) can0 30B#5F00110000000098
(1493280442.126124) can0 1FD#0000000000000000
(1493280442.131010) can0 06C#DA6A9F0EA7EFBD
(1493280442.147311) can0 30B#5F00110000000098
(1493280442.147562) can0 631#34D400
(1493280442.157214) can0 6B6#390C1C000D13
(1493280442.157422) can0 6B7#BEB4000008FF80FE
(1493280442.179108) can0 3C0#6A7E1335
(1493280442.181141) can0 265#77C24E5FE635E02C
(1493280442.186110) can0 1FD#0000000000000000
(1493280442.196723) can0 30B#5F00110000000098
(1493280442.231406) can0 29F#A8
(1493280442.247238) can0 6C7#04051101020001
(1493280442.247474) can0 1FD#0000000000000000
(1493280442.247726) can0 30B#5F00110000000098
(1493280442.247971) can0 5F2#CC00
(1493280442.281462) can0 7A2#43DA5676A19C8B76
(1493280442.282941) can0 3C0#6A7E1335
(1493280442.288350) can0 1BFC38B1#0000000000000000
(1493280442.288597) can0 1BFC38BB#FFFFFFFFFFFFFFFF
(1493280442.289002) can0 1BFC38BA#535553500000001A
(1493280442.289349) can0 1BFC38B9#050296408005A3F4
(1493280442.289615) can0 1BFC38B8#0000000800000000
(1493280442.289944) can0 1BFC38B7#80016484250202F3
(1493280442.290192) can0 1BFC38B6#00001122001F34A8
(1493280442.290446) can0 1BFC38B5#0502FF9202048292
(1493280442.290833) can0 1BFC38B4#00010101001F0003
(1493280442.291088) can0 1BFC38B3#800164843100DDCC
(1493280442.291456) can0 1BFC38B2#8001648483830078
(1493280442.297507) can0 30B#5F00110000000098
(1493280442.306099) can0 1FD#0000000000000000
(1493280442.331769) can0 307#A89FD515C0B6641B
(1493280442.347234) can0 30B#5F00110000000098
(1493280442.366113) can0 1FD#0000000000000000
(1493280442.381883) can0 135#12EC
(1493280442.386473) can0 3C0#6A7E1335
(1493280442.396761) can0 30B#5F00110000000098
(1493280442.426110) can0 1FD#0000000000000000
(1493280442.431987) can0 2E9#0F8B
(1493280442.447238) can0 6C7#04051101020001
(1493280442.447476) can0 30B#5F00110000000098
(1493280442.447728) can0 5F2#CC00
(1493280442.482388) can0 237#B5
(1493280442.486139) can0 1FD#0000000000000000
(1493280442.489816) can0 3C0#6A7E1335
(1493280442.496877) can0 30B#5F00110000000098
(1493280442.532529) can0 1D8#4A1A3F393E9C4A25
(1493280442.539602) can0 1BFC38B1#0000000000000000
(1493280442.539986) can0 1BFC38BB#FFFFFFFFFFFFFFFF
(1493280442.540259) can0 1BFC38BA#535553500000001A
(1493280442.540635) can0 1BFC38B9#060096408008FC68
(1493280442.540857) can0 1BFC38B8#0000000800000000
(1493280442.541230) can0 1BFC38B7#800164842502022F
(1493280442.541487) can0 1BFC38B6#0000112500000000
(1493280442.541862) can0 1BFC38B5#0502FF9202048292
(1493280442.542130) can0 1BFC38B4#00010101001F0003
(1493280442.542512) can0 1BFC38B3#800164843100DDCC
(1493280442.542729) can0 1BFC38B2#8001648483830078
(1493280442.547901) can0 1FD#0000000000000000
(1493280442.548129) can0 30B#5F00110000000098
(1493280442.548393) can0 65E#8808BDB6D1D00700
(1493280442.557399) can0 62F#4451000D14
(1493280442.582630) can0 4A9#24
(1493280442.593103) can0 3C0#6A7E1335
(1493280442.596899) can0 30B#5F00110000000098
(1493280442.606365) can0 1FD#0000000000000000
(1493280442.632741) can0 0E2#CBDA747285F88130
(1493280442.647250) can0 6C7#04051101020001
(1493280442.647484) can0 30B#5F00110000000098
(1493280442.647730) can0 5F2#CC00
(1493280442.666132) can0 1FD#0000000000000000
(1493280442.683009) can0 346#26950D274EB60328
(1493280442.696347) can0 3C0#6A7E1335
(1493280442.696855) can0 30B#5F00110000000098
(1493280442.726250) can0 1FD#0000000000000000
(1493280442.733148) can0 4BC#0E6D6843F2758702
(1493280442.747371) can0 30B#5F00110000000098
(1493280442.783376) can0 371#
(1493280442.786141) can0 1FD#0000000000000000
(1493280442.788381) can0 1BFC38B1#0000000000000000
(1493280442.788769) can0 1BFC38BB#FFFFFFFFFFFFFFFF
(1493280442.788995) can0 1BFC38BA#0000000700000014
(1493280442.789385) can0 1BFC38B9#060096408008FC68
(1493280442.789645) can0 1BFC38B8#0000000800000000
(1493280442.790006) can0 1BFC38B7#800164842502022F
(1493280442.790400) can0 1BFC38B6#0000112700000000
(1493280442.790509) can0 1BFC38B5#0502FF9202048292
(1493280442.790928) can0 1BFC38B4#00010101001F0003
(1493280442.791252) can0 1BFC38B3#800164843100DDCC
(1493280442.791503) can0 1BFC38B2#8001648483830078
(1493280442.797630) can0 30B#5F00110000000098
(1493280442.799842) can0 3C0#6A7E1335
(1493280442.833437) can0 353#2ED8E0258A55D62E
(1493280442.847393) can0 6C7#04051101020001
(1493280442.847531) can0 1FD#0000000000000000
(1493280442.847961) can0 30B#5F00110000000098
(1493280442.848137) can0 5F2#CB00
(1493280442.883687) can0 14E#2D8057
(1493280442.896767) can0 30B#5F00110000000098
(1493280442.903726) can0 3C0#6A7E1335
(1493280442.906424) can0 1FD#0000000000000000
(1493280442.933774) can0 072#657F12721C656A23
(1493280442.947382) can0 30B#5F00110000000098
(1493280442.966305) can0 1FD#0000000000000000
(1493280442.984033) can0 739#6494073A1CF8B30D
(1493280442.996782) can0 30B#5F00110000000098
(1493280443.007592) can0 3C0#6A7E1335
(1493280443.026267) can0 1FD#0000000000000000
(1493280443.034178) can0 355#A1F0353E9BCEB300
(1493280443.039665) can0 1BFC38B1#0000000000000000
(1493280443.039968) can0 1BFC38BB#FFFFFFFFFFFFFFFF
(1493280443.040397) can0 1BFC38BA#0000000700000014
(1493280443.040664) can0 1BFC38B9#060096408008FC68
(1493280443.041030) can0 1BFC38B8#0000000800000000
(1493280443.041250) can0 1BFC38B7#800164842502022F
(1493280443.041720) can0 1BFC38B6#0000112A001F0003
(1493280443.041890) can0 1BFC38B5#0502FF9202048292
(1493280443.042272) can0 1BFC38B4#00010101001F0003
(1493280443.042526) can0 1BFC38B3#800164843100FFEE
(1493280443.042896) can0 1BFC38B2#80016484838380FC
(1493280443.047776) can0 6C7#04051101020001
(1493280443.048103) can0 30B#5F00110000000098
(1493280443.048220) can0 5F2#CB00
(1493280443.048498) can0 643#000200
(1493280443.048819) can0 64E#00B1040000000000
(1493280443.049015) can0 65E#8808D706A2620700
(1493280443.049389) can0 6B8#6D08000000000000
(1493280443.049622) can0 6BC#92823651324C07C1
(1493280443.084295) can0 43D#E984B728FA286D
(1493280443.086281) can0 1FD#0000000000000000
(1493280443.096925) can0 30B#5F00110000000098
(1493280443.110980) can0 3C0#6A7E1335
(1493280443.134408) can0 296#EC9EF47B07D6E723
(1493280443.147528) can0 1FD#0000000000000000
(1493280443.147770) can0 30B#5F00110000000098
(1493280443.156533) can0 6B6#390C1C000D14
(1493280443.156918) can0 6B7#BEB4000008FF80FE
(1493280443.184525) can0 318#61CCEF5F6B367C0A
(1493280443.196906) can0 30B#5F00110000000098
(1493280443.206271) can0 1FD#0000000000000000
(1493280443.214657) can0 3C0#6A7E1335
(1493280443.234819) can0 577#F58B5239C5067357
(1493280443.247558) can0 6C7#04051101020001
(1493280443.247775) can0 30B#5F00110000000098
(1493280443.247873) can0 5F2#CB00
(1493280443.266278) can0 1FD#0000000000000000
(1493280443.284906) can0 773#ECE93A
(1493280443.288406) can0 1BFC38B1#0000000000000000
(1493280443.288779) can0 1BFC38BB#FFFFFFFFFFFFFFFF
(1493280443.289017) can0 1BFC38BA#0000000700000014
(1493280443.289401) can0 1BFC38B9#060096408008FC68
(1493280443.289787) can0 1BFC38B8#0000000800000000
(1493280443.290040) can0 1BFC38B7#800164842502022F
(1493280443.290407) can0 1BFC38B6#0000112C02048292
(1493280443.290666) can0 1BFC38B5#0502FF9202048292
(1493280443.291031) can0 1BFC38B4#00010101001F0003
(1493280443.291273) can0 1BFC38B3#800164843100FFEE
(1493280443.291646) can0 1BFC38B2#80016484838380FC
(1493280443.297661) can0 30B#5F00110000000098
(1493280443.318148) can0 3C0#6A7E1335
(1493280443.326312) can0 1FD#0000000000000000
(1493280443.335186) can0 69B#01
(1493280443.347437) can0 30B#5F00110000000098
(1493280443.385192) can0 2DA#F01519322F5E
(1493280443.386316) can0 1FD#0000000000000000
(1493280443.396911) can0 30B#5F00110000000098
(1493280443.421404) can0 3C0#6A7E1335
(1493280443.435424) can0 095#CB
(1493280443.447298) can0 6C7#04051101020001
(1493280443.447536) can0 1FD#0000000000000000
(1493280443.447953) can0 30B#5F00110000000098
(1493280443.447956) can0 5F2#CB00
(1493280443.485551) can0 459#CDCD853F
(1493280443.496960) can0 30B#5F00110000000098
(1493280443.506540) can0 1FD#0000000000000000
(1493280443.524905) can0 3C0#6A7E1335
(1493280443.535663) can0 3AC#F61CA11BC5EE105F
(1493280443.539787) can0 1BFC38B1#0000000000000000
(1493280443.539990) can0 1BFC38BB#FFFFFFFFFFFFFFFF
(1493280443.540362) can0 1BFC38BA#0000000700000014
(1493280443.540622) can0 1BFC38B9#070296408005A3F4
(1493280443.541048) can0 1BFC38B8#0000000800000000
(1493280443.541420) can0 1BFC38B7#800164842502026B
(1493280443.541692) can0 1BFC38B6#0000112F00000000
(1493280443.542034) can0 1BFC38B5#0502FF9202048292
(1493280443.542278) can0 1BFC38B4#00010101001F0003
(1493280443.542646) can0 1BFC38B3#800164843100FFEE
(1493280443.542899) can0 1BFC38B2#80016484838380FC
(1493280443.547921) can0 30B#5F00110000000098
(1493280443.548311) can0 65E#8808CC44D4330900
(1493280443.557550) can0 62F#4451000D15
(1493280443.566292) can0 1FD#0000000000000000
(1493280443.585935) can0 563#30258D69DA6209
(1493280443.596925) can0 30B#5F00110000000098
(1493280443.626293) can0 1FD#0000000000000000
(1493280443.628670) can0 3C0#6A7E1335
(1493280443.639328) can0 5E6#9F697C3E597D
(1493280443.647400) can0 6C7#04051101020001
(1493280443.647776) can0 30B#5F00110000000098
(1493280443.647879) can0 5F2#CB00
(1493280443.648001) can0 630#33C414
(1493280443.686066) can0 549#3F95DA40E463CA2E
(1493280443.686291) can0 1FD#0000000000000000
(1493280443.696942) can0 30B#5F00110000000098
(1493280443.732426) can0 3C0#6A7E1335
(1493280443.736179) can0 4DD#
(1493280443.747532) can0 1FD#0000000000000000
(1493280443.747913) can0 30B#5F00110000000098
(1493280443.786448) can0 3A6#E7D5237C3CA44B40
(1493280443.788468) can0 1BFC38B1#0000000000000000
(1493280443.788853) can0 1BFC38BB#FFFFFFFFFFFFFFFF
(1493280443.789179) can0 1BFC38BA#535553500000001A
(1493280443.789427) can0 1BFC38B9#070296408005A3F4
(1493280443.789800) can0 1BFC38B8#0000000800000000
(1493280443.790054) can0 1BFC38B7#800164842502026B
(1493280443.790434) can0 1BFC38B6#0000113100000000
(1493280443.790674) can0 1BFC38B5#0502FF9202048292
(1493280443.791052) can0 1BFC38B4#00010101001F0003
(1493280443.791395) can0 1BFC38B3#800164843100FFEE
(1493280443.791636) can0 1BFC38B2#80016484838380FC
(1493280443.797666) can0 30B#5F00110000000098
(1493280443.806426) can0 1FD#0000000000000000
(1493280443.836429) can0 3C0#6A7E1335
(1493280443.836431) can0 63A#0F49
(1493280443.847465) can0 6C7#04051101020001
(1493280443.847680) can0 30B#5F00110000000098
(1493280443.847776) can0 5F2#CB00
(1493280443.866305) can0 1FD#0000000000000000
(1493280443.886716) can0 467#8271E34213588B35
(1493280443.896936) can0 30B#5F00110000000098
(1493280443.926309) can0 1FD#0000000000000000
(1493280443.936849) can0 395#D8469C14F848997F
(1493280443.939792) can0 3C0#6A7E1335
(1493280443.947560) can0 30B#5F00110000000098
(1493280443.986340) can0 1FD#0000000000000000
(1493280443.986956) can0 7CF#D2ABA266B605775B
(1493280443.997449) can0 30B#5F00110000000098
(1493280444.037232) can0 52F#0F
(1493280444.039931) can0 1BFC38B1#0000000000000000
(1493280444.040178) can0 1BFC38BB#FFFFFFFFFFFFFFFF
(1493280444.040564) can0 1BFC38BA#535553500000001A
(1493280444.040827) can0 1BFC38B9#070296408005A3F4
(1493280444.041149) can0 1BFC38B8#0000000800000000
(1493280444.041401) can0 1BFC38B7#800164842502026B
(1493280444.041813) can0 1BFC38B6#00001134001F0003
(1493280444.042022) can0 1BFC38B5#0502FF9202048292
(1493280444.042438) can0 1BFC38B4#00010101001F0003
(1493280444.042662) can0 1BFC38B3#8001648432404433
(1493280444.043065) can0 1BFC38B2#80016484838300F4
(1493280444.044057) can0 3C0#6A7E1335
(1493280444.046296) can0 6C7#04051101020001
(1493280444.046548) can0 1FD#0000000000000000
(1493280444.046920) can0 30B#5F00110000000098
(1493280444.047024) can0 5F2#CB00
(1493280444.047306) can0 643#000200
(1493280444.047529) can0 64E#00B1040000000000
(1493280444.047794) can0 65E#88081D32BA060A00
(1493280444.048027) can0 6B8#6D08000000000000
(1493280444.048449) can0 6BC#92823651324C07C3
(1493280444.057438) can0 62D#348414
(1493280444.087452) can0 0FD#5C3E5D21DB25DB00
(1493280444.096951) can0 30B#5F00110000000098
(1493280444.106567) can0 1FD#0000000000000000
(1493280444.137610) can0 28F#939D6A54
(1493280444.147413) can0 30B#5F00110000000098
(1493280444.147524) can0 3C0#6A7E1335
(1493280444.148064) can0 631#34D500
(1493280444.156728) can0 6B6#390C1C000D15
(1493280444.157100) can0 6B7#BEB4000008FF80FE
(1493280444.166320) can0 1FD#0000000000000000
(1493280444.187709) can0 7BD#71F23711F8F56C6F
(1493280444.196976) can0 30B#5F00110000000098
(1493280444.226326) can0 1FD#0000000000000000
(1493280444.237824) can0 62D#
(1493280444.247464) can0 6C7#04051101020001
(1493280444.247664) can0 30B#5F00110000000098
(1493280444.247960) can0 5F2#CB00
(1493280444.251449) can0 3C0#6A7E1335
(1493280444.286449) can0 1FD#0000000000000000
(1493280444.287945) can0 25C#A782F122F1D5EA5E
(1493280444.288575) can0 1BFC38B1#0000000000000000
(1493280444.288949) can0 1BFC38BB#FFFFFFFFFFFFFFFF
(1493280444.289328) can0 1BFC38BA#535553500000001A
(1493280444.289577) can0 1BFC38B9#070296408005A3F4
(1493280444.289960) can0 1BFC38B8#0000000800000000
(1493280444.290211) can0 1BFC38B7#800164842502026B
(1493280444.290580) can0 1BFC38B6#00001136001F34A8
(1493280444.290834) can0 1BFC38B5#0502FF9202048292
(1493280444.291216) can0 1BFC38B4#00010101001F0003
(1493280444.291438) can0 1BFC38B3#8001648432404433
(1493280444.291807) can0 1BFC38B2#80016484838300F4
(1493280444.297736) can0 30B#5F00110000000098
(1493280444.338250) can0 086#
(1493280444.347436) can0 1FD#0000000000000000
(1493280444.347728) can0 30B#5F00110000000098
(1493280444.354785) can0 3C0#6A7E1335
(1493280444.388320) can0 589#0C9E8B11B852C056
(1493280444.396989) can0 30B#5F00110000000098
(1493280444.406707) can0 1FD#0000000000000000
(1493280444.438462) can0 02D#302D53492A491C72
(1493280444.447472) can0 6C7#04051101020001
(1493280444.447713) can0 30B#5F00110000000098
(1493280444.447830) can0 5F2#CA00
(1493280444.458091) can0 3C0#6A7E1335
(1493280444.466492) can0 1FD#0000000000000000
(1493280444.488596) can0 16A#056FF772F963B67E
(1493280444.496946) can0 30B#5F00110000000098
(1493280444.526465) can0 1FD#0000000000000000
(1493280444.538881) can0 3A0#2EB2A24F5E831259
(1493280444.539842) can0 1BFC38B1#0000000000000000
(1493280444.540210) can0 1BFC38BB#FFFFFFFFFFFFFFFF
(1493280444.540591) can0 1BFC38BA#535553500000001A
(1493280444.540840) can0 1BFC38B9#000096408008FC68
(1493280444.541213) can0 1BFC38B8#0000000800000000
(1493280444.541461) can0 1BFC38B7#80016484250202A7
(1493280444.541848) can0 1BFC38B6#0000113900000000
(1493280444.542115) can0 1BFC38B5#0502FF9202048292
(1493280444.542471) can0 1BFC38B4#00010101001F0003
(1493280444.542723) can0 1BFC38B3#8001648432404433
(1493280444.543070) can0 1BFC38B2#80016484838300F4
(1493280444.548070) can0 30B#5F00110000000098
(1493280444.548474) can0 65E#8808BA9564190500
(1493280444.557599) can0 62F#4451000D16
(1493280444.561705) can0 3C0#6A7E1335
(1493280444.586466) can0 1FD#0000000000000000
(1493280444.588859) can0 013#
(1493280444.596994) can0 30B#5F00110000000098
(1493280444.639087) can0 020#D4
(1493280444.647484) can0 6C7#04051101020001
(1493280444.647716) can0 1FD#0000000000000000
(1493280444.647990) can0 30B#5F00110000000098
(1493280444.648212) can0 5F2#CA00
(1493280444.665595) can0 3C0#6A7E1335
(1493280444.689220) can0 3EF#6E08E834764C905C
(1493280444.696984) can0 30B#5F00110000000098
(1493280444.706601) can0 1FD#0000000000000000
(1493280444.739429) can0 4FB#CCE4A41284A2870B
(1493280444.747631) can0 30B#5F00110000000098
(1493280444.766476) can0 1FD#0000000000000000
(1493280444.769221) can0 3C0#6A7E1335
(1493280444.788617) can0 1BFC38B1#0000000000000000
(1493280444.788998) can0 1BFC38BB#FFFFFFFFFFFFFFFF
(1493280444.789208) can0 1BFC38BA#0000000700000014
(1493280444.789518) can0 213#3CF5476240D2D842
(1493280444.789521) can0 1BFC38B9#000096408008FC68
(1493280444.790114) can0 1BFC38B8#0000000800000000
(1493280444.790484) can0 1BFC38B7#80016484250202A7
(1493280444.790745) can0 1BFC38B6#0000113B00000000
(1493280444.790991) can0 1BFC38B5#0502FF9202048292
(1493280444.791329) can0 1BFC38B4#00010101001F0003
(1493280444.791589) can0 1BFC38B3#8001648432404433
(1493280444.791957) can0 1BFC38B2#80016484838300F4
(1493280444.797757) can0 30B#5F00110000000098
(1493280444.826479) can0 1FD#0000000000000000
(1493280444.839617) can0 3F3#6B1BF5345DDD7068
(1493280444.847492) can0 6C7#04051101020001
(1493280444.847739) can0 30B#5F00110000000098
(1493280444.847950) can0 5F2#CA00
(1493280444.872609) can0 3C0#6A7E1335
(1493280444.886480) can0 1FD#0000000000000000
(1493280444.889758) can0 5F8#
(1493280444.897103) can0 30B#5F00110000000098
(1493280444.939873) can0 709#F73C9B4E1C
(1493280444.947518) can0 1FD#0000000000000000
(1493280444.947860) can0 30B#5F00110000000098
(1493280444.975833) can0 3C0#6A7E1335
(1493280444.990005) can0 025#5C0D2A1545781B10
(1493280444.997106) can0 30B#5F00110000000098
(1493280445.006766) can0 1FD#0000000000000000
(1493280445.039860) can0 1BFC38B1#0000000000000000
(1493280445.039977) can0 02E#
(1493280445.040242) can0 1BFC38BB#FFFFFFFFFFFFFFFF
(1493280445.040639) can0 1BFC38BA#0000000700000014
(1493280445.040859) can0 1BFC38B9#000096408008FC68
(1493280445.041263) can0 1BFC38B8#0000000800000000
(1493280445.041632) can0 1BFC38B7#80016484250202A7
(1493280445.041846) can0 1BFC38B6#0000113E001F0003
(1493280445.042249) can0 1BFC38B5#0502FF9202048292
(1493280445.042447) can0 1BFC38B4#00010101001F0003
(1493280445.042850) can0 1BFC38B3#8001648431009988
(1493280445.043092) can0 1BFC38B2#800164848383007A
(1493280445.048128) can0 6C7#04051101020001
(1493280445.048374) can0 30B#5F00110000000098
(1493280445.048485) can0 5F2#CA00
(1493280445.048739) can0 643#000200
(1493280445.048995) can0 64E#00B1040000000000
(1493280445.049240) can0 65E#880884D253EC0C00
(1493280445.049611) can0 6B8#6D08000000000000
(1493280445.049890) can0 6BC#92823651324C07C6
(1493280445.066502) can0 1FD#0000000000000000
(1493280445.079220) can0 3C0#6A7E1335
(1493280445.090147) can0 1AB#94
(1493280445.097130) can0 30B#5F00110000000098
(1493280445.126524) can0 1FD#0000000000000000
(1493280445.140247) can0 289#
(1493280445.147741) can0 30B#5F00110000000098
(1493280445.156744) can0 6B6#390C1C000D16
(1493280445.156981) can0 6B7#BEB4000008FF80FE
(1493280445.182702) can0 3C0#6A7E1335
(1493280445.186529) can0 1FD#0000000000000000
(1493280445.190513) can0 038#DD9ED8492BD45359
(1493280445.197133) can0 30B#5F00110000000098
(1493280445.240516) can0 0D4#89B1C441CD864434
(1493280445.247618) can0 6C7#04051101020001
(1493280445.247895) can0 1FD#0000000000000000
(1493280445.248262) can0 30B#5F00110000000098
(1493280445.248503) can0 5F2#CA00
(1493280445.286627) can0 3C0#6A7E1335
(1493280445.288638) can0 1BFC38B1#0000000000000000
(1493280445.289010) can0 1BFC38BB#FFFFFFFFFFFFFFFF
(1493280445.289264) can0 1BFC38BA#0000000700000014
(1493280445.289606) can0 1BFC38B9#000096408008FC68
(1493280445.289863) can0 1BFC38B8#0000000800000000
(1493280445.290230) can0 1BFC38B7#80016484250202A7
(1493280445.290455) can0 1BFC38B6#0000114002048292
(1493280445.290585) can0 4B8#6640CD29C1DB0816
(1493280445.290833) can0 1BFC38B5#0502FF9202048292
(1493280445.291460) can0 1BFC38B4#00010101001F0003
(1493280445.291714) can0 1BFC38B3#8001648431009988
(1493280445.291980) can0 1BFC38B2#800164848383007A
(1493280445.297912) can0 30B#5F00110000000098
(1493280445.306626) can0 1FD#0000000000000000
(1493280445.340760) can0 664#DDF2471D897E5A77
(1493280445.347633) can0 30B#5F00110000000098
(1493280445.366517) can0 1FD#0000000000000000
(1493280445.390500) can0 3C0#6A7E1335
(1493280445.390849) can0 3AA#CFF67507D883B429
(1493280445.397130) can0 30B#5F00110000000098
(1493280445.426505) can0 1FD#0000000000000000
(1493280445.441014) can0 669#F6
(1493280445.447635) can0 6C7#04051101020001
(1493280445.447873) can0 30B#5F00110000000098
(1493280445.448140) can0 5F2#CA00
(1493280445.486544) can0 1FD#0000000000000000
(1493280445.491301) can0 4C2#BC3E39764B2FFC36
(1493280445.494420) can0 3C0#6A7E1335
(1493280445.497526) can0 30B#5F00110000000098
(1493280445.539889) can0 1BFC38B1#0000000000000000
(1493280445.540269) can0 1BFC38BB#FFFFFFFFFFFFFFFF
(1493280445.540499) can0 1BFC38BA#0000000700000014
(1493280445.540888) can0 1BFC38B9#010296408005A3F4
(1493280445.541224) can0 1BFC38B8#0000000800000000
(1493280445.541375) can0 5EA#E8FBFB3D22A6E9
(1493280445.541463) can0 1BFC38B7#80016484250202E3
(1493280445.542004) can0 1BFC38B6#0000114300000000
(1493280445.542378) can0 1BFC38B5#0502FF9202048292
(1493280445.542624) can0 1BFC38B4#00010101001F0003
(1493280445.543011) can0 1BFC38B3#8001648431009988
(1493280445.543259) can0 1BFC38B2#800164848383007A
(1493280445.548125) can0 1FD#0000000000000000
(1493280445.548525) can0 30B#5F00110000000098
(1493280445.548765) can0 65E#8808D23678E50900
(1493280445.557639) can0 62F#4451000D17
(1493280445.591660) can0 64F#4E7A3D4D24
(1493280445.597125) can0 30B#5F00110000000098
(1493280445.597854) can0 3C0#6A7E1335
(1493280445.606921) can0 1FD#0000000000000000
(1493280445.641781) can0 50D#F175EA4AC5995C
(1493280445.647639) can0 6C7#04051101020001
(1493280445.647917) can0 30B#5F00110000000098
(1493280445.647921) can0 5F2#CA00
(1493280445.648273) can0 630#33CE1300
(1493280445.666521) can0 1FD#0000000000000000
(1493280445.691893) can0 6B6#877565431B05A4
(1493280445.697177) can0 30B#5F00110000000098
(1493280445.701396) can0 3C0#6A7E1335
(1493280445.726535) can0 1FD#0000000000000000
(1493280445.742053) can0 3B4#A483FE0E
(1493280445.747678) can0 30B#5F00110000000098
(1493280445.786526) can0 1FD#0000000000000000
(1493280445.788685) can0 1BFC38B1#0000000000000000
(1493280445.789028) can0 1BFC38BB#FFFFFFFFFFFFFFFF
(1493280445.789418) can0 1BFC38BA#535553500000001A
(1493280445.789650) can0 1BFC38B9#010296408005A3F4
(1493280445.790029) can0 1BFC38B8#0000000800000000
(1493280445.790274) can0 1BFC38B7#80016484250202E3
(1493280445.790649) can0 1BFC38B6#0000114500000000
(1493280445.790913) can0 1BFC38B5#0502FF9202048292
(1493280445.791286) can0 1BFC38B4#00010101001F0003
(1493280445.791525) can0 1BFC38B3#8001648431009988
(1493280445.791982) can0 1BFC38B2#800164848383007A
(1493280445.792154) can0 09E#36EB57
(1493280445.797911) can0 30B#5F00110000000098
(1493280445.804899) can0 3C0#6A7E1335
(1493280445.842427) can0 405#1C97B747C770920C
(1493280445.847531) can0 6C7#04051101020001
(1493280445.847901) can0 1FD#0000000000000000
(1493280445.848155) can0 30B#5F00110000000098
(1493280445.848263) can0 5F2#CA00
(1493280445.892545) can0 3B7#13A08E43A2295A6C
(1493280445.897157) can0 30B#5F00110000000098
(1493280445.906775) can0 1FD#0000000000000000
(1493280445.908785) can0 3C0#6A7E1335
(1493280445.942656) can0 5C0#C4CF43600FECEC3C
(1493280445.947690) can0 30B#5F00110000000098
(1493280445.966534) can0 1FD#0000000000000000
(1493280445.992926) can0 6C0#33DB
(1493280445.997161) can0 30B#5F00110000000098
(1493280446.012160) can0 3C0#6A7E1335
(1493280446.026537) can0 1FD#0000000000000000
(1493280446.040024) can0 1BFC38B1#0000000000000000
(1493280446.040282) can0 1BFC38BB#FFFFFFFFFFFFFFFF
(1493280446.040661) can0 1BFC38BA#535553500000001A
(1493280446.040909) can0 1BFC38B9#010296408005A3F4
(1493280446.041300) can0 1BFC38B8#0000000800000000
(1493280446.041550) can0 1BFC38B7#80016484250202E3
(1493280446.041897) can0 1BFC38B6#00001148001F0003
(1493280446.042269) can0 1BFC38B5#0502FF9202048292
(1493280446.042517) can0 1BFC38B4#00010101001F0003
(1493280446.042881) can0 1BFC38B3#800164843100BBAA
(1493280446.043001) can0 5E9#92255E3D
(1493280446.043130) can0 1BFC38B2#80016484838380FE
(1493280446.048162) can0 6C7#04051101020001
(1493280446.048529) can0 30B#5F00110000000098
(1493280446.048649) can0 5F2#CA00
(1493280446.048737) can0 643#000200
(1493280446.049120) can0 64E#00B1040000000000
(1493280446.049377) can0 65E#88085085A4D40500
(1493280446.049629) can0 6B8#6D08000000000000
(1493280446.049873) can0 6BC#92823651324C07C9
(1493280446.057581) can0 62D#348F00
(1493280446.086523) can0 1FD#0000000000000000
(1493280446.093174) can0 77B#BB99150C2F3B5500
(1493280446.097202) can0 30B#5F00110000000098
(1493280446.115762) can0 3C0#6A7E1335
(1493280446.143295) can0 37E#8DA2F87C1C6C9074
(1493280446.147820) can0 1FD#0000000000000000
(1493280446.148024) can0 30B#5F00110000000098
(1493280446.148300) can0 631#34D602
(1493280446.156747) can0 6B6#390C1C000D17
(1493280446.156994) can0 6B7#BEB4000008FF80FE
(1493280446.193498) can0 7D3#23039D4A
(1493280446.197163) can0 30B#5F00110000000098
(1493280446.206657) can0 1FD#0000000000000000
(1493280446.219658) can0 3C0#6A7E1335
(1493280446.243547) can0 0F1#
(1493280446.247828) can0 6C7#04051101020001
(1493280446.248002) can0 30B#5F00110000000098
(1493280446.248152) can0 5F2#CA00
(1493280446.266553) can0 1FD#0000000000000000
(1493280446.288804) can0 1BFC38B1#0000000000000000
(1493280446.289039) can0 1BFC38BB#FFFFFFFFFFFFFFFF
(1493280446.289427) can0 1BFC38BA#535553500000001A
(1493280446.289678) can0 1BFC38B9#010296408005A3F4
(1493280446.290052) can0 1BFC38B8#0000000800000000
(1493280446.290293) can0 1BFC38B7#80016484250202E3
(1493280446.290634) can0 1BFC38B6#0000114A001F34A8
(1493280446.290930) can0 1BFC38B5#0502FF9202048292
(1493280446.291262) can0 1BFC38B4#00010101001F0003
(1493280446.291532) can0 1BFC38B3#800164843100BBAA
(1493280446.291911) can0 1BFC38B2#80016484838380FE
(1493280446.293830) can0 018#4A56
(1493280446.297936) can0 30B#5F00110000000098
(1493280446.323154) can0 3C0#6A7E1335
(1493280446.326585) can0 1FD#0000000000000000
(1493280446.343982) can0 0AD#E85172516D979610
(1493280446.347679) can0 30B#5F00110000000098
(1493280446.386568) can0 1FD#0000000000000000
(1493280446.394167) can0 021#3A2398200BE65A6B
(1493280446.397187) can0 30B#5F00110000000098
(1493280446.426425) can0 3C0#6A7E1335
(1493280446.444188) can0 640#AB7ACC5FBB85B756
(1493280446.447796) can0 6C7#04051101020001
(1493280446.448063) can0 1FD#0000000000000000
(1493280446.448342) can0 30B#5F00110000000098
(1493280446.448553) can0 5F2#CA00
(1493280446.494435) can0 3E6#EBC00C5764E7
(1493280446.497187) can0 30B#5F00110000000098
(1493280446.506939) can0 1FD#0000000000000000
(1493280446.530183) can0 3C0#6A7E1335
(1493280446.540228) can0 1BFC38B1#0000000000000000
(1493280446.540564) can0 1BFC38BB#FFFFFFFFFFFFFFFF
(1493280446.540854) can0 1BFC38BA#535553500000001A
(1493280446.541066) can0 1BFC38B9#020096408008FC68
(1493280446.541451) can0 1BFC38B8#0000000800000000
(1493280446.541808) can0 1BFC38B7#800164842502021F
(1493280446.542055) can0 1BFC38B6#0000114D00000000
(1493280446.542417) can0 1BFC38B5#0502FF9202048292
(1493280446.542666) can0 1BFC38B4#00010101001F0003
(1493280446.543040) can0 1BFC38B3#800164843100BBAA
(1493280446.543295) can0 1BFC38B2#80016484838380FE
(1493280446.544623) can0 1C5#8053BB3498C97E38
(1493280446.546685) can0 30B#5F00110000000098
(1493280446.546951) can0 65E#88082BD859360800
(1493280446.557949) can0 62F#4451000D18
(1493280446.566591) can0 1FD#0000000000000000
(1493280446.594704) can0 13C#707D0A6E
(1493280446.597200) can0 30B#5F00110000000098
(1493280446.626572) can0 1FD#0000000000000000
(1493280446.633682) can0 3C0#6A7E1335
(1493280446.644898) can0 0E4#
(1493280446.647815) can0 6C7#04051101020001
(1493280446.648059) can0 30B#5F00110000000098
(1493280446.648180) can0 5F2#CA00
(1493280446.686572) can0 1FD#0000000000000000
(1493280446.694961) can0 6C2#
(1493280446.697197) can0 30B#5F00110000000098
(1493280446.737453) can0 3C0#6A7E1335
(1493280446.745130) can0 32F#DD5EA34D51836D0B
(1493280446.747823) can0 1FD#0000000000000000
(1493280446.748237) can0 30B#5F00110000000098
(1493280446.788841) can0 1BFC38B1#0000000000000000
(1493280446.789061) can0 1BFC38BB#FFFFFFFFFFFFFFFF
(1493280446.789450) can0 1BFC38BA#0000000700000014
(1493280446.789696) can0 1BFC38B9#020096408008FC68
(1493280446.790077) can0 1BFC38B8#0000000800000000
(1493280446.790453) can0 1BFC38B7#800164842502021F
(1493280446.790702) can0 1BFC38B6#0000114F00000000
(1493280446.791075) can0 1BFC38B5#0502FF9202048292
(1493280446.791326) can0 1BFC38B4#00010101001F0003
(1493280446.791706) can0 1BFC38B3#800164843100BBAA
(1493280446.791959) can0 1BFC38B2#80016484838380FE
(1493280446.795260) can0 5D8#5C69C87618C47130
(1493280446.798077) can0 30B#5F00110000000098
(1493280446.806716) can0 1FD#0000000000000000
(1493280446.841575) can0 3C0#6A7E1335
(1493280446.845236) can0 2E5#D4492907CBAEEB
(1493280446.847620) can0 6C7#04051101020001
(1493280446.847982) can0 30B#5F00110000000098
(1493280446.848082) can0 5F2#CA00
(1493280446.866570) can0 1FD#0000000000000000
(1493280446.895463) can0 06D#3096166B322A6D49
(1493280446.897333) can0 30B#5F00110000000098
(1493280446.926590) can0 1FD#0000000000000000
(1493280446.945356) can0 3C0#6A7E1335
(1493280446.945572) can0 637#
(1493280446.947816) can0 30B#5F00110000000098
(1493280446.986581) can0 1FD#0000000000000000
(1493280446.995716) can0 054#A1C9062F3831D730
(1493280446.997336) can0 30B#5F00110000000098
(1493280447.040106) can0 1BFC38B1#0000000000000000
(1493280447.040542) can0 1BFC38BB#FFFFFFFFFFFFFFFF
(1493280447.040707) can0 1BFC38BA#0000000700000014
(1493280447.041089) can0 1BFC38B9#020096408008FC68
(1493280447.041370) can0 1BFC38B8#0000000800000000
(1493280447.041710) can0 1BFC38B7#800164842502021F
(1493280447.041954) can0 1BFC38B6#00001152001F0003
(1493280447.042337) can0 1BFC38B5#0502FF9202048292
(1493280447.042713) can0 1BFC38B4#00010101001F0003
(1493280447.042950) can0 1BFC38B3#80016484324000FF
(1493280447.043195) can0 1BFC38B2#80016484838300F6
(1493280447.045817) can0 34B#3592C9120E7AF4
(1493280447.048220) can0 6C7#04051101020001
(1493280447.048586) can0 1FD#0000000000000000
(1493280447.048816) can0 30B#5F00110000000098
(1493280447.049056) can0 5F2#C900
(1493280447.049161) can0 643#000200
(1493280447.049539) can0 3C0#6A7E1335
(1493280447.049542) can0 64E#00B1040000000000
(1493280447.049817) can0 65E#88080A85A1620700
(1493280447.050190) can0 6B8#6D08000000000000
(1493280447.050421) can0 6BC#92823651324C07CB
(1493280447.096103) can0 598#7E410113C7600A21
(1493280447.097352) can0 30B#5F00110000000098
(1493280447.106734) can0 1FD#0000000000000000
(1493280447.146217) can0 1C7#18E4772C9FB71A3E
(1493280447.147841) can0 30B#5F00110000000098
(1493280447.153833) can0 3C0#6A7E1335
(1493280447.157377) can0 6B6#390C1C000D18
(1493280447.157589) can0 6B7#BEB4000008FF80FE
(1493280447.166604) can0 1FD#0000000000000000
(1493280447.196228) can0 273#B87B8C6E
(1493280447.197227) can0 30B#5F00110000000098
(1493280447.226729) can0 1FD#0000000000000000
(1493280447.246485) can0 17B#249CFD45E8294C3C
(1493280447.247862) can0 6C7#04051101020001
(1493280447.248059) can0 30B#5F00110000000098
(1493280447.248180) can0 5F2#C900
(1493280447.257346) can0 3C0#6A7E1335
(1493280447.286726) can0 1FD#0000000000000000
(1493280447.288882) can0 1BFC38B1#0000000000000000
(1493280447.289257) can0 1BFC38BB#FFFFFFFFFFFFFFFF
(1493280447.289476) can0 1BFC38BA#0000000700000014
(1493280447.289893) can0 1BFC38B9#020096408008FC68
(1493280447.290098) can0 1BFC38B8#0000000800000000
(1493280447.290467) can0 1BFC38B7#800164842502021F
(1493280447.290695) can0 1BFC38B6#0000115402048292
(1493280447.291080) can0 1BFC38B5#0502FF9202048292
(1493280447.291324) can0 1BFC38B4#00010101001F0003
(1493280447.291706) can0 1BFC38B3#80016484324000FF
(1493280447.291958) can0 1BFC38B2#80016484838300F6
(1493280447.296613) can0 04B#1B54B905
(1493280447.298110) can0 30B#5F00110000000098
(1493280447.346781) can0 404#F69DB82F595C
(1493280447.347850) can0 1FD#0000000000000000
(1493280447.348106) can0 30B#5F00110000000098
(1493280447.360972) can0 3C0#6A7E1335
(1493280447.396854) can0 121#918DE7206DCCBA17
(1493280447.397232) can0 30B#5F00110000000098
(1493280447.407015) can0 1FD#0000000000000000
(1493280447.447120) can0 00F#7B46AF6DA715
(1493280447.447733) can0 6C7#04051101020001
(1493280447.448148) can0 30B#5F00110000000098
(1493280447.448251) can0 5F2#C900
(1493280447.464476) can0 3C0#6A7E1335
(1493280447.466746) can0 1FD#0000000000000000
(1493280447.497242) can0 0D0#6F76722D97EA1D0E
(1493280447.497245) can0 30B#5F00110000000098
(1493280447.526737) can0 1FD#0000000000000000
(1493280447.540124) can0 1BFC38B1#0000000000000000
(1493280447.540489) can0 1BFC38BB#FFFFFFFFFFFFFFFF
(1493280447.540901) can0 1BFC38BA#0000000700000014
(1493280447.541114) can0 1BFC38B9#030296408005A3F4
(1493280447.541488) can0 1BFC38B8#0000000800000000
(1493280447.541734) can0 1BFC38B7#800164842502025B
(1493280447.542114) can0 1BFC38B6#0000115700000000
(1493280447.542364) can0 1BFC38B5#0502FF9202048292
(1493280447.542721) can0 1BFC38B4#00010101001F0003
(1493280447.542970) can0 1BFC38B3#80016484324000FF
(1493280447.543368) can0 1BFC38B2#80016484838300F6
(1493280447.547539) can0 054#37A2384CC84A35
(1493280447.548366) can0 30B#5F00110000000098
(1493280447.548735) can0 65E#8808E20492FF0600
(1493280447.557742) can0 62F#4451000D19
(1493280447.567965) can0 3C0#6A7E1335
(1493280447.586773) can0 1FD#0000000000000000
(1493280447.597264) can0 30B#5F00110000000098
(1493280447.597671) can0 7FC#2038474B77D9FF76
(1493280447.647748) can0 37B#60034C33
(1493280447.647751) can0 6C7#04051101020001
(1493280447.647962) can0 1FD#0000000000000000
(1493280447.648484) can0 30B#5F00110000000098
(1493280447.648614) can0 5F2#C900
(1493280447.648724) can0 630#33CF00
(1493280447.671970) can0 3C0#6A7E1335
(1493280447.697246) can0 30B#5F00110000000098
(1493280447.697857) can0 698#48F28D0A9D223F13
(1493280447.707001) can0 1FD#0000000000000000
(1493280447.747862) can0 30B#5F00110000000098
(1493280447.748097) can0 761#F67E4F0382584638
(1493280447.766748) can0 1FD#0000000000000000
(1493280447.775716) can0 3C0#6A7E1335
(1493280447.788878) can0 1BFC38B1#0000000000000000
(1493280447.789249) can0 1BFC38BB#FFFFFFFFFFFFFFFF
(1493280447.789620) can0 1BFC38BA#535553500000001A
(1493280447.789886) can0 1BFC38B9#030296408005A3F4
(1493280447.790231) can0 1BFC38B8#0000000800000000
(1493280447.790605) can0 1BFC38B7#800164842502025B
(1493280447.790865) can0 1BFC38B6#0000115900000000
(1493280447.791140) can0 1BFC38B5#0502FF9202048292
(1493280447.791481) can0 1BFC38B4#00010101001F0003
(1493280447.791856) can0 1BFC38B3#80016484324000FF
(1493280447.792133) can0 1BFC38B2#80016484838300F6
(1493280447.798103) can0 30B#5F00110000000098
(1493280447.798344) can0 7D7#EF240150E6BFF9
(1493280447.826756) can0 1FD#0000000000000000
(1493280447.847755) can0 6C7#04051101020001
(1493280447.847969) can0 30B#5F00110000000098
(1493280447.848081) can0 5F2#C900
(1493280447.848543) can0 44E#8ED5616D1EA5DA14
(1493280447.879208) can0 3C0#6A7E1335
(1493280447.886724) can0 1FD#0000000000000000
(1493280447.897390) can0 30B#5F00110000000098
(1493280447.898660) can0 363#B68FF822B81BB61F
(1493280447.948013) can0 1FD#0000000000000000
(1493280447.948210) can0 30B#5F00110000000098
(1493280447.948841) can0 684#8066EB4F804EE971
(1493280447.982636) can0 3C0#6A7E1335
(1493280447.997634) can0 30B#5F00110000000098
(1493280447.998901) can0 7DC#
(1493280448.006763) can0 1FD#0000000000000000
(1493280448.040265) can0 1BFC38B1#0000000000000000
(1493280448.040648) can0 1BFC38BB#FFFFFFFFFFFFFFFF
(1493280448.040885) can0 1BFC38BA#535553500000001A
(1493280448.041138) can0 1BFC38B9#030296408005A3F4
(1493280448.041515) can0 1BFC38B8#0000000800000000
(1493280448.041915) can0 1BFC38B7#800164842502025B
(1493280448.042122) can0 1BFC38B6#0000115C001F0003
(1493280448.042496) can0 1BFC38B5#0502FF9202048292
(1493280448.042763) can0 1BFC38B4#00010101001F0003
(1493280448.043138) can0 1BFC38B3#8001648431005544
(1493280448.043388) can0 1BFC38B2#800164848383005C
(1493280448.048406) can0 6C7#04051101020001
(1493280448.048648) can0 30B#5F00110000000098
(1493280448.048878) can0 2E5#1DE7D75E7D79D06E
(1493280448.048881) can0 5F2#C900
(1493280448.049008) can0 643#000200
(1493280448.049284) can0 64E#00B1040000000000
(1493280448.049793) can0 65E#88082F8587CB0C00
(1493280448.050012) can0 6B8#6D08000000000000
(1493280448.050360) can0 6BC#92823651324C07CC
(1493280448.057894) can0 62D#3490205200
(1493280448.066770) can0 1FD#0000000000000000
(1493280448.085987) can0 3C0#6A7E1335
(1493280448.097393) can0 30B#5F00110000000098
(1493280448.099022) can0 2D3#1A9C0F0234
(1493280448.126799) can0 1FD#0000000000000000
(1493280448.148126) can0 30B#5F00110000000098
(1493280448.148519) can0 631#34C2030013000301
(1493280448.149167) can0 1A4#
(1493280448.157018) can0 6B6#390C1C000D19
(1493280448.157265) can0 6B7#BEB4000008FF80FE
(1493280448.186774) can0 1FD#0000000000000000
(1493280448.189594) can0 3C0#6A7E1335
(1493280448.197395) can0 30B#5F00110000000098
(1493280448.199298) can0 798#6221AC1DE653
(1493280448.248037) can0 6C7#04051101020001
(1493280448.248235) can0 1FD#0000000000000000
(1493280448.248611) can0 30B#5F00110000000098
(1493280448.248800) can0 5F2#C900
(1493280448.249579) can0 310#
(1493280448.289029) can0 1BFC38B1#0000000000000000
(1493280448.289261) can0 1BFC38BB#FFFFFFFFFFFFFFFF
(1493280448.289654) can0 1BFC38BA#535553500000001A
(1493280448.289901) can0 1BFC38B9#030296408005A3F4
(1493280448.290234) can0 1BFC38B8#0000000800000000
(1493280448.290612) can0 1BFC38B7#800164842502025B
(1493280448.290862) can0 1BFC38B6#0000115E001F34A8
(1493280448.291109) can0 1BFC38B5#0502FF9202048292
(1493280448.291477) can0 1BFC38B4#00010101001F0003
(1493280448.291724) can0 1BFC38B3#8001648431005544
(1493280448.292099) can0 1BFC38B2#800164848383005C
(1493280448.293615) can0 3C0#6A7E1335
(1493280448.298162) can0 30B#5F00110000000098
(1493280448.299631) can0 2ED#2C1AF43971E9A01A
(1493280448.307044) can0 1FD#0000000000000000
(1493280448.347904) can0 30B#5F00110000000098
(1493280448.349833) can0 2A7#F2378A0C830A7952
(1493280448.366809) can0 1FD#0000000000000000
(1493280448.397016) can0 3C0#6A7E1335
(1493280448.397388) can0 30B#5F00110000000098
(1493280448.400022) can0 74C#DA3DEA2C31928951
(1493280448.426782) can0 1FD#0000000000000000
(1493280448.447780) can0 6C7#04051101020001
(1493280448.448169) can0 30B#5F00110000000098
(1493280448.448266) can0 5F2#C900
(1493280448.450113) can0 342#AF0B5A40150EE3
(1493280448.486785) can0 1FD#0000000000000000
(1493280448.497411) can0 30B#5F00110000000098
(1493280448.500114) can0 65D#4930C87C0168D418
(1493280448.500611) can0 3C0#6A7E1335
(1493280448.540295) can0 1BFC38B1#0000000000000000
(1493280448.540653) can0 1BFC38BB#FFFFFFFFFFFFFFFF
(1493280448.540914) can0 1BFC38BA#535553500000001A
(1493280448.541159) can0 1BFC38B9#040096408008FC68
(1493280448.541522) can0 1BFC38B8#0000000800000000
(1493280448.541894) can0 1BFC38B7#8001648425020297
(1493280448.542158) can0 1BFC38B6#0000116100000000
(1493280448.542570) can0 1BFC38B5#0502FF9202048292
(1493280448.542806) can0 1BFC38B4#00010101001F0003
(1493280448.543143) can0 1BFC38B3#8001648431005544
(1493280448.543392) can0 1BFC38B2#800164848383005C
(1493280448.548522) can0 1FD#0000000000000000
(1493280448.548809) can0 30B#5F00110000000098
(1493280448.549039) can0 65E#88084FE8758E0800
(1493280448.550304) can0 2DA#7DC9865572EA5E71
(1493280448.557924) can0 62F#4451000D1A
(1493280448.597432) can0 30B#5F00110000000098
(1493280448.600573) can0 2A5#583EDD72B655FD44
(1493280448.604760) can0 3C0#6A7E1335
(1493280448.606931) can0 1FD#0000000000000000
(1493280448.647922) can0 6C7#04051101020001
(1493280448.648160) can0 30B#5F00110000000098
(1493280448.648419) can0 5F2#C900
(1493280448.650701) can0 1CF#2A543B5FBC242324
(1493280448.666783) can0 1FD#0000000000000000
(1493280448.697419) can0 30B#5F00110000000098
(1493280448.700966) can0 017#2D0EC43EBE7A
(1493280448.708040) can0 3C0#6A7E1335
(1493280448.726808) can0 1FD#0000000000000000
(1493280448.748172) can0 30B#5F00110000000098
(1493280448.751052) can0 702#4285833D4E0E2148
(1493280448.786799) can0 1FD#0000000000000000
(1493280448.789050) can0 1BFC38B1#0000000000000000
(1493280448.789300) can0 1BFC38BB#FFFFFFFFFFFFFFFF
(1493280448.789701) can0 1BFC38BA#0000000700000014
(1493280448.789912) can0 1BFC38B9#040096408008FC68
(1493280448.790308) can0 1BFC38B8#0000000800000000
(1493280448.790701) can0 1BFC38B7#8001648425020297
(1493280448.790939) can0 1BFC38B6#0000116300000000
(1493280448.791322) can0 1BFC38B5#0502FF9202048292
(1493280448.791732) can0 1BFC38B4#00010101001F0003
(1493280448.791921) can0 1BFC38B3#8001648431005544
(1493280448.792191) can0 1BFC38B2#800164848383005C
(1493280448.798185) can0 30B#5F00110000000098
(1493280448.801160) can0 609#80A0AA194B316A52
(1493280448.811638) can0 3C0#6A7E1335
(1493280448.848012) can0 6C7#04051101020001
(1493280448.848257) can0 1FD#0000000000000000
(1493280448.848667) can0 30B#5F00110000000098
(1493280448.848799) can0 5F2#C900
(1493280448.851465) can0 014#603F4D3971E6576B
(1493280448.897445) can0 30B#5F00110000000098
(1493280448.901559) can0 3F8#724E2C04D2163764
(1493280448.906932) can0 1FD#0000000000000000
(1493280448.915274) can0 3C0#6A7E1335
(1493280448.947951) can0 30B#5F00110000000098
(1493280448.951684) can0 2A9#440196554E65296A
(1493280448.966824) can0 1FD#0000000000000000
(1493280448.997439) can0 30B#5F00110000000098
(1493280449.001975) can0 2CE#04BB262F9DE4264B
(1493280449.018788) can0 3C0#6A7E1335
(1493280449.026830) can0 1FD#0000000000000000
(1493280449.040311) can0 1BFC38B1#0000000000000000
(1493280449.040699) can0 1BFC38BB#FFFFFFFFFFFFFFFF
(1493280449.040954) can0 1BFC38BA#0000000700000014
(1493280449.041320) can0 1BFC38B9#040096408008FC68
(1493280449.041741) can0 1BFC38B8#0000000800000000
(1493280449.041908) can0 1BFC38B7#8001648425020297
(1493280449.042171) can0 1BFC38B6#00001166001F0003
(1493280449.042540) can0 1BFC38B5#0502FF9202048292
(1493280449.042798) can0 1BFC38B4#00010101001F0003
(1493280449.043168) can0 1BFC38B3#8001648431007766
(1493280449.043414) can0 1BFC38B2#80016484838380B0
(1493280449.048435) can0 6C7#04051101020001
(1493280449.048687) can0 30B#5F00110000000098
(1493280449.048954) can0 5F2#C900
(1493280449.049063) can0 643#000200
(1493280449.049416) can0 64E#00B1040000000000
(1493280449.049682) can0 65E#88087F03928E0700
(1493280449.049926) can0 6B8#6D08000000000000
(1493280449.050171) can0 6BC#92823651324C07CF
(1493280449.051904) can0 6F9#59094A6F10373114
(1493280449.086844) can0 1FD#0000000000000000
(1493280449.097438) can0 30B#5F00110000000098
(1493280449.102203) can0 584#CEB13B7F866CA0
(1493280449.122316) can0 3C0#6A7E1335
(1493280449.148693) can0 1FD#0000000000000000
(1493280449.148806) can0 30B#5F00110000000098
(1493280449.152197) can0 5A6#
(1493280449.157071) can0 64E#00A22F0000000000
(1493280449.157320) can0 6B6#390C1C000D1A
(1493280449.157692) can0 6B7#BEB4000008FF80FE
(1493280449.197609) can0 30B#5F00110000000098
(1493280449.202458) can0 22D#FB34880C41
(1493280449.207070) can0 1FD#0000000000000000
(1493280449.225948) can0 3C0#6A7E1335
(1493280449.248589) can0 6C7#04051101020001
(1493280449.248827) can0 30B#5F00110000000098
(1493280449.249060) can0 5F2#C900
(1493280449.252632) can0 784#B2C8B4087C1BDF22
(1493280449.266836) can0 1FD#0000000000000000
(1493280449.289075) can0 1BFC38B1#0000000000000000
(1493280449.289449) can0 1BFC38BB#FFFFFFFFFFFFFFFF
(1493280449.289702) can0 1BFC38BA#0000000700000014
(1493280449.290079) can0 1BFC38B9#040096408008FC68
(1493280449.290315) can0 1BFC38B8#0000000800000000
(1493280449.290706) can0 1BFC38B7#8001648425020297
(1493280449.290959) can0 1BFC38B6#0000116802048292
(1493280449.291332) can0 1BFC38B5#0502FF9202048292
(1493280449.291706) can0 1BFC38B4#00010101001F0003
(1493280449.291958) can0 1BFC38B3#8001648431007766
(1493280449.292200) can0 1BFC38B2#80016484838380B0
(1493280449.298337) can0 30B#5F00110000000098
(1493280449.302724) can0 405#4F321607
(1493280449.326836) can0 1FD#0000000000000000
(1493280449.329707) can0 3C0#6A7E1335
(1493280449.346990) can0 30B#5F00110000000098
(1493280449.352907) can0 714#FD631D
(1493280449.386847) can0 1FD#0000000000000000
(1493280449.397580) can0 30B#5F00110000000098
(1493280449.402956) can0 330#80
(1493280449.433536) can0 3C0#6A7E1335
(1493280449.448494) can0 6C7#04051101020001
(1493280449.448708) can0 1FD#0000000000000000
(1493280449.449113) can0 30B#5F00110000000098
(1493280449.449201) can0 5F2#C900
(1493280449.453159) can0 630#3921FA0AB4AB374C
(1493280449.497612) can0 30B#5F00110000000098
(1493280449.503214) can0 760#3B18D816079555
(1493280449.507084) can0 1FD#0000000000000000
(1493280449.537338) can0 3C0#6A7E1335
(1493280449.540745) can0 1BFC38B1#0000000000000000
(1493280449.540972) can0 1BFC38BB#FFFFFFFFFFFFFFFF
(1493280449.541347) can0 1BFC38BA#0000000700000014
(1493280449.541693) can0 1BFC38B9#050296408005A3F4
(1493280449.541958) can0 1BFC38B8#0000000800000000
(1493280449.542190) can0 1BFC38B7#80016484250202D0
(1493280449.542565) can0 1BFC38B6#0000116B00000000
(1493280449.542814) can0 1BFC38B5#0502FF9202048292
(1493280449.543191) can0 1BFC38B4#00010101001F0003
(1493280449.543447) can0 1BFC38B3#8001648431007766
(1493280449.543813) can0 1BFC38B2#80016484838380B0
(1493280449.547102) can0 30B#5F00110000000098
(1493280449.547444) can0 65E#8808321584740A00
(1493280449.553397) can0 218#
(1493280449.558619) can0 62F#4451000D1B
(1493280449.566962) can0 1FD#0000000000000000
(1493280449.597589) can0 30B#5F00110000000098
(1493280449.603630) can0 665#86E6
(1493280449.626966) can0 1FD#0000000000000000
(1493280449.640826) can0 3C0#6A7E1335
(1493280449.648470) can0 6C7#04051101020001
(1493280449.648691) can0 30B#5F00110000000098
(1493280449.648809) can0 5F2#C900
(1493280449.649131) can0 630#33D03F0102
(1493280449.653731) can0 20E#6591557F1426BC1D
(1493280449.687002) can0 1FD#0000000000000000
(1493280449.697597) can0 30B#5F00110000000098
(1493280449.703858) can0 65C#C224B01A
(1493280449.744334) can0 3C0#6A7E1335
(1493280449.748506) can0 1FD#0000000000000000
(1493280449.748716) can0 30B#5F00110000000098
(1493280449.754031) can0 748#5327233B786A3708
(1493280449.789100) can0 1BFC38B1#0000000000000000
(1493280449.789477) can0 1BFC38BB#FFFFFFFFFFFFFFFF
(1493280449.789720) can0 1BFC38BA#535553500000001A
(1493280449.790100) can0 1BFC38B9#050296408005A3F4
(1493280449.790347) can0 1BFC38B8#0000000800000000
(1493280449.790714) can0 1BFC38B7#80016484250202D0
(1493280449.790961) can0 1BFC38B6#0000116D00000000
(1493280449.791358) can0 1BFC38B5#0502FF9202048292
(1493280449.791735) can0 1BFC38B4#00010101001F0003
(1493280449.791997) can0 1BFC38B3#8001648431007766
(1493280449.792223) can0 1BFC38B2#80016484838380B0
(1493280449.798334) can0 30B#5F00110000000098
(1493280449.804130) can0 7C1#A15400
(1493280449.807103) can0 1FD#0000000000000000
(1493280449.847971) can0 3C0#6A7E1335
(1493280449.848462) can0 6C7#04051101020001
(1493280449.848682) can0 30B#5F00110000000098
(1493280449.848852) can0 5F2#C900
(1493280449.857480) can0 5AC#A581EF080D95A843
(1493280449.866976) can0 1FD#0000000000000000
(1493280449.897606) can0 30B#5F00110000000098
(1493280449.904353) can0 0E1#
(1493280449.927009) can0 1FD#0000000000000000
(1493280449.948532) can0 30B#5F00110000000098
(1493280449.951448) can0 3C0#6A7E1335
(1493280449.954613) can0 4F0#3E57474955DB661F
(1493280449.986983) can0 1FD#0000000000000000
(1493280449.997613) can0 30B#5F00110000000098
(1493280450.004760) can0 07D#3E51DD7B
(1493280450.040617) can0 1BFC38B1#0000000000000000
(1493280450.040821) can0 1BFC38BB#FFFFFFFFFFFFFFFF
(1493280450.041235) can0 1BFC38BA#535553500000001A
(1493280450.041485) can0 1BFC38B9#050296408005A3F4
(1493280450.041848) can0 1BFC38B8#0000000800000000
(1493280450.042106) can0 1BFC38B7#80016484250202D0
(1493280450.042485) can0 1BFC38B6#000011700000A22F
(1493280450.042851) can0 1BFC38B5#0502FF9202048292
(1493280450.043127) can0 1BFC38B4#110F01010000A22F
(1493280450.043500) can0 1BFC38B3#800164843240CCBB
(1493280450.043718) can0 1BFC38B2#8001648483830018
(1493280450.046972) can0 6C7#04051101020001
(1493280450.047243) can0 1FD#0000000000000000
(1493280450.047643) can0 30B#5F00110000000098
(1493280450.047715) can0 5F2#C900
(1493280450.047824) can0 643#000200
(1493280450.048247) can0 64E#00A22F0000000000
(1493280450.048433) can0 65E#88087743B6B50B00
(1493280450.048702) can0 6B8#6D08000000000000
(1493280450.049006) can0 6BC#92823651324C07D0
(1493280450.054701) can0 4FC#A0F8FA43
(1493280450.055322) can0 3C0#6A7E1335
(1493280450.058269) can0 62D#3491023601
(1493280450.097640) can0 30B#5F00110000000098
(1493280450.105003) can0 658#C9A8
(1493280450.107114) can0 1FD#0000000000000000
(1493280450.148372) can0 30B#5F00110000000098
(1493280450.149009) can0 631#34C37807FE000000
(1493280450.155166) can0 622#1808EE6CE34D8A78
(1493280450.157478) can0 6B6#390C1C000D1B
(1493280450.157732) can0 6B7#BEB4000008FF80FE
(1493280450.159341) can0 3C0#6A7E1335
(1493280450.167024) can0 1FD#0000000000000000
(1493280450.197633) can0 30B#5F00110000000098
(1493280450.205251) can0 5EF#D42342359C6B4E2E
(1493280450.227010) can0 1FD#0000000000000000
(1493280450.248235) can0 6C7#04051101020001
(1493280450.248609) can0 30B#5F00110000000098
(1493280450.248719) can0 5F2#C900
(1493280450.255526) can0 293#A900F771751B190A
(1493280450.263206) can0 3C0#6A7E1335
(1493280450.286998) can0 1FD#0000000000000000
(1493280450.289154) can0 1BFC38B1#0000000000000000
(1493280450.289530) can0 1BFC38BB#FFFFFFFFFFFFFFFF
(1493280450.289784) can0 1BFC38BA#535553500000001A
(1493280450.290148) can0 1BFC38B9#050296408005A3F4
(1493280450.290482) can0 1BFC38B8#0000000800000000
(1493280450.290730) can0 1BFC38B7#80016484250202D0
(1493280450.291105) can0 1BFC38B6#00001172000034A8
(1493280450.291365) can0 1BFC38B5#0502FF9202048292
(1493280450.291727) can0 1BFC38B4#110F01010000A22F
(1493280450.291949) can0 1BFC38B3#800164843240CCBB
(1493280450.292397) can0 1BFC38B2#8001648483830018
(1493280450.298378) can0 30B#5F00110000000098
(1493280450.305683) can0 75A#6E6E3E654A6C5A27
(1493280450.348412) can0 1FD#0000000000000000
(1493280450.348623) can0 30B#5F00110000000098
(1493280450.355764) can0 588#A047C146057ED477
(1493280450.366877) can0 3C0#6A7E1335
(1493280450.397628) can0 30B#5F00110000000098
(1493280450.405887) can0 371#9150131E6EF0456C
(1493280450.407129) can0 1FD#0000000000000000
(1493280450.448260) can0 6C7#04051101020001
(1493280450.448649) can0 30B#5F00110000000098
(1493280450.448652) can0 5F2#C900
(1493280450.456176) can0 382#C7
(1493280450.467009) can0 1FD#0000000000000000
(1493280450.470372) can0 3C0#6A7E1335
(1493280450.497849) can0 30B#5F00110000000098
(1493280450.506261) can0 694#
(1493280450.527009) can0 1FD#0000000000000000
(1493280450.540642) can0 1BFC38B1#0000000000000000
(1493280450.540872) can0 1BFC38BB#FFFFFFFFFFFFFFFF
(1493280450.541299) can0 1BFC38BA#535553500000001A
(1493280450.541496) can0 1BFC38B9#060096408008FC68
(1493280450.541912) can0 1BFC38B8#0000000800000000
(1493280450.542138) can0 1BFC38B7#800164842502020C
(1493280450.542511) can0 1BFC38B6#0000117500000000
(1493280450.542762) can0 1BFC38B5#0502FF9202048292
(1493280450.543135) can0 1BFC38B4#110F01010000A22F
(1493280450.543386) can0 1BFC38B3#800164843240CCBB
(1493280450.543768) can0 1BFC38B2#8001648483830018
(1493280450.547045) can0 30B#5F00110000000098
(1493280450.547417) can0 65E#88087C455D8E0800
(1493280450.556527) can0 4AD#995ABC19
(1493280450.558394) can0 62F#4451000D1C
(1493280450.574008) can0 3C0#6A7E1335
(1493280450.587041) can0 1FD#0000000000000000
(1493280450.597762) can0 30B#5F00110000000098
(1493280450.606766) can0 44D#3896D409E1F6EB72
(1493280450.648271) can0 6C7#04051101020001
(1493280450.648604) can0 1FD#0000000000000000
(1493280450.648855) can0 30B#5F00110000000098
(1493280450.648967) can0 5F2#C900
(1493280450.656941) can0 3E6#56
(1493280450.677998) can0 3C0#6A7E1335
(1493280450.697680) can0 30B#5F00110000000098
(1493280450.707037) can0 19E#8BCF8312
(1493280450.707040) can0 1FD#0000000000000000
(1493280450.748403) can0 30B#5F00110000000098
(1493280450.757151) can0 671#2C2DFC31E3491514
(1493280450.767049) can0 1FD#0000000000000000
(1493280450.781390) can0 3C0#6A7E1335
(1493280450.789272) can0 1BFC38B1#0000000000000000
(1493280450.789522) can0 1BFC38BB#FFFFFFFFFFFFFFFF
(1493280450.789898) can0 1BFC38BA#0000000700000014
(1493280450.790149) can0 1BFC38B9#060096408008FC68
(1493280450.790503) can0 1BFC38B8#0000000800000000
(1493280450.790750) can0 1BFC38B7#800164842502020C
(1493280450.791130) can0 1BFC38B6#0000117700000000
(1493280450.791381) can0 1BFC38B5#0502FF9202048292
(1493280450.791752) can0 1BFC38B4#110F01010000A22F
(1493280450.792029) can0 1BFC38B3#800164843240CCBB
(1493280450.792429) can0 1BFC38B2#8001648483830018
(1493280450.798385) can0 30B#5F00110000000098
(1493280450.807430) can0 009#513A5B008C2BB559
(1493280450.827023) can0 1FD#0000000000000000
(1493280450.848277) can0 6C7#04051101020001
(1493280450.848515) can0 30B#5F00110000000098
(1493280450.848759) can0 5F2#C900
(1493280450.857545) can0 6EF#674D2519832DD772
(1493280450.885034) can0 3C0#6A7E1335
(1493280450.887043) can0 1FD#0000000000000000
(1493280450.897654) can0 30B#5F00110000000098
(1493280450.907485) can0 2A8#393A
(1493280450.948290) can0 1FD#0000000000000000
(1493280450.948673) can0 30B#5F00110000000098
(1493280450.988943) can0 3C0#6A7E1335
(1493280450.997802) can0 30B#5F00110000000098
(1493280451.007418) can0 1FD#0000000000000000
(1493280451.040569) can0 1BFC38B1#0000000000000000
(1493280451.040775) can0 1BFC38BB#FFFFFFFFFFFFFFFF
(1493280451.041162) can0 1BFC38BA#0000000700000014
(1493280451.041411) can0 1BFC38B9#060096408008FC68
(1493280451.041799) can0 1BFC38B8#0000000800000000
(1493280451.042185) can0 1BFC38B7#800164842502020C
(1493280451.042375) can0 1BFC38B6#0000117A0000A22F
(1493280451.042767) can0 1BFC38B5#0502FF9202048292
(1493280451.043029) can0 1BFC38B4#110F01010000A22F
(1493280451.043389) can0 1BFC38B3#8001648431001100
(1493280451.043641) can0 1BFC38B2#800164848383005E
(1493280451.048693) can0 6C7#04051101020001
(1493280451.048912) can0 30B#5F00110000000098
(1493280451.049151) can0 5F2#C900
(1493280451.049272) can0 643#000200
(1493280451.049544) can0 64E#00A22F0000000000
(1493280451.049891) can0 65E#8808897887A70600
(1493280451.050156) can0 6B8#6D08000000000000
(1493280451.050400) can0 6BC#92823651324C0701
(1493280451.067040) can0 1FD#0000000000000000
(1493280451.093039) can0 3C0#6A7E1335
(1493280451.097820) can0 30B#5F00110000000098
(1493280451.127036) can0 1FD#0000000000000000
(1493280451.148295) can0 30B#5F00110000000098
(1493280451.157297) can0 6B6#390C1C000D1C
(1493280451.157494) can0 6B7#BEB4000008FF80FE
(1493280451.187042) can0 1FD#0000000000000000
(1493280451.196794) can0 3C0#6A7E1335
(1493280451.197794) can0 30B#5F00110000000098
(1493280451.248301) can0 6C7#04051101020001
(1493280451.248539) can0 1FD#0000000000000000
(1493280451.248914) can0 30B#5F00110000000098
(1493280451.249028) can0 5F2#C900
(1493280451.289297) can0 1BFC38B1#0000000000000000
(1493280451.289698) can0 1BFC38BB#FFFFFFFFFFFFFFFF
(1493280451.289922) can0 1BFC38BA#0000000700000014
(1493280451.290351) can0 1BFC38B9#060096408008FC68
(1493280451.290562) can0 1BFC38B8#0000000800000000
(1493280451.290953) can0 1BFC38B7#800164842502020C
(1493280451.291216) can0 1BFC38B6#0000117C02048292
(1493280451.291578) can0 1BFC38B5#0502FF9202048292
(1493280451.291829) can0 1BFC38B4#110F01010000A22F
(1493280451.292204) can0 1BFC38B3#8001648431001100
(1493280451.292409) can0 1BFC38B2#800164848383005E
(1493280451.298391) can0 30B#5F00110000000098
(1493280451.300552) can0 3C0#6A7E1335
(1493280451.307204) can0 1FD#0000000000000000
(1493280451.348327) can0 30B#5F00110000000098
(1493280451.367055) can0 1FD#0000000000000000
(1493280451.397801) can0 30B#5F00110000000098
(1493280451.403904) can0 3C0#6A7E1335
(1493280451.427058) can0 1FD#0000000000000000
(1493280451.448063) can0 6C7#04051101020001
(1493280451.448443) can0 30B#5F00110000000098
(1493280451.448546) can0 5F2#C900
(1493280451.487058) can0 1FD#0000000000000000
(1493280451.497859) can0 30B#5F00110000000098
(1493280451.507305) can0 3C0#6A7E1335
(1493280451.540563) can0 1BFC38B1#0000000000000000
(1493280451.540948) can0 1BFC38BB#FFFFFFFFFFFFFFFF
(1493280451.541185) can0 1BFC38BA#0000000700000014
(1493280451.541561) can0 1BFC38B9#070296408005A3F4
(1493280451.541809) can0 1BFC38B8#0000000800000000
(1493280451.542199) can0 1BFC38B7#8001648425020248
(1493280451.542403) can0 1BFC38B6#0000117F00000000
(1493280451.542816) can0 1BFC38B5#0502FF9202048292
(1493280451.543079) can0 1BFC38B4#110F01010000A22F
(1493280451.543445) can0 1BFC38B3#8001648431001100
(1493280451.543793) can0 1BFC38B2#800164848383005E
(1493280451.548826) can0 1FD#0000000000000000
(1493280451.549065) can0 30B#5F00110000000098
(1493280451.549344) can0 65E#8808567878200700
(1493280451.558344) can0 62F#4451000D1D
(1493280451.597812) can0 30B#5F00110000000098
(1493280451.607193) can0 1FD#0000000000000000
(1493280451.610807) can0 3C0#6A7E1335
(1493280451.648204) can0 6C7#04051101020001
(1493280451.648442) can0 30B#5F00110000000098
(1493280451.648553) can0 5F2#C900
(1493280451.648815) can0 630#33D203D2
(1493280451.667102) can0 1FD#0000000000000000
(1493280451.697847) can0 30B#5F00110000000098
(1493280451.714440) can0 3C0#6A7E1335
(1493280451.727078) can0 1FD#0000000000000000
(1493280451.748346) can0 30B#5F00110000000098
(1493280451.787036) can0 1FD#0000000000000000
(1493280451.789322) can0 1BFC38B1#0000000000000000
(1493280451.789688) can0 1BFC38BB#FFFFFFFFFFFFFFFF
(1493280451.789926) can0 1BFC38BA#535553500000001A
(1493280451.790320) can0 1BFC38B9#070296408005A3F4
(1493280451.790560) can0 1BFC38B8#0000000800000000
(1493280451.790944) can0 1BFC38B7#8001648425020248
(1493280451.791148) can0 1BFC38B6#0000118100000000
(1493280451.791576) can0 1BFC38B5#0502FF9202048292
(1493280451.791815) can0 1BFC38B4#110F01010000A22F
(1493280451.792198) can0 1BFC38B3#8001648431001100
(1493280451.792424) can0 1BFC38B2#800164848383005E
(1493280451.798586) can0 30B#5F00110000000098
(1493280451.818207) can0 3C0#6A7E1335
(1493280451.848201) can0 6C7#04051101020001
(1493280451.848449) can0 1FD#0000000000000000
(1493280451.848851) can0 30B#5F00110000000098
(1493280451.848949) can0 5F2#C900
(1493280451.897829) can0 30B#5F00110000000098
(1493280451.907332) can0 1FD#0000000000000000
(1493280451.921568) can0 3C0#6A7E1335
(1493280451.948357) can0 30B#5F00110000000098
(1493280451.967206) can0 1FD#0000000000000000
(1493280451.997832) can0 30B#5F00110000000098
(1493280452.025070) can0 3C0#6A7E1335
(1493280452.027223) can0 1FD#0000000000000000
(1493280452.040712) can0 1BFC38B1#0000000000000000
(1493280452.040986) can0 1BFC38BB#FFFFFFFFFFFFFFFF
(1493280452.041335) can0 1BFC38BA#535553500000001A
(1493280452.041581) can0 1BFC38B9#070296408005A3F4
(1493280452.041943) can0 1BFC38B8#0000000800000000
(1493280452.042317) can0 1BFC38B7#8001648425020248
(1493280452.042576) can0 1BFC38B6#000011840000A22F
(1493280452.042823) can0 1BFC38B5#0502FF9202048292
(1493280452.043188) can0 1BFC38B4#110F01010000A22F
(1493280452.043564) can0 1BFC38B3#8001648431003322
(1493280452.043812) can0 1BFC38B2#80016484838380E2
(1493280452.047096) can0 6C7#04051101020001
(1493280452.047440) can0 30B#5F00110000000098
(1493280452.047549) can0 5F2#C900
(1493280452.047826) can0 643#000200
(1493280452.048112) can0 64E#00A22F0000000000
(1493280452.048336) can0 65E#8808CB76B4F70C00
(1493280452.048538) can0 6B8#6D08000000000000
(1493280452.048967) can0 6BC#92823651324C0702
(1493280452.058335) can0 62D#349220C900
(1493280452.087212) can0 1FD#0000000000000000
(1493280452.097840) can0 30B#5F00110000000098
(1493280452.129083) can0 3C0#6A7E1335
(1493280452.148467) can0 1FD#0000000000000000
(1493280452.148668) can0 30B#5F00110000000098
(1493280452.148792) can0 631#34C414
(1493280452.157498) can0 6B6#390C1C000D1D
(1493280452.157888) can0 6B7#BEB4000008FF80FE
(1493280452.197842) can0 30B#5F00110000000098
(1493280452.207248) can0 1FD#0000000000000000
(1493280452.232924) can0 3C0#6A7E1335
(1493280452.248454) can0 6C7#04051101020001
(1493280452.248829) can0 30B#5F00110000000098
(1493280452.248832) can0 5F2#C900
(1493280452.267222) can0 1FD#0000000000000000
(1493280452.289350) can0 1BFC38B1#0000000000000000
(1493280452.289724) can0 1BFC38BB#FFFFFFFFFFFFFFFF
(1493280452.290097) can0 1BFC38BA#535553500000001A
(1493280452.290340) can0 1BFC38B9#070296408005A3F4
(1493280452.290724) can0 1BFC38B8#0000000800000000
(1493280452.290973) can0 1BFC38B7#8001648425020248
(1493280452.291322) can0 1BFC38B6#00001186000034A8
(1493280452.291556) can0 1BFC38B5#0502FF9202048292
(1493280452.291952) can0 1BFC38B4#110F01010000A22F
(1493280452.292203) can0 1BFC38B3#8001648431003322
(1493280452.292576) can0 1BFC38B2#80016484838380E2
(1493280452.298580) can0 30B#5F00110000000098
(1493280452.327231) can0 1FD#0000000000000000
(1493280452.336611) can0 3C0#6A7E1335
(1493280452.348479) can0 30B#5F00110000000098
(1493280452.387228) can0 1FD#0000000000000000
(1493280452.397871) can0 30B#5F00110000000098
(1493280452.440359) can0 3C0#6A7E1335
(1493280452.448262) can0 6C7#04051101020001
(1493280452.448474) can0 1FD#0000000000000000
(1493280452.448861) can0 30B#5F00110000000098
(1493280452.448962) can0 5F2#C900
(1493280452.497887) can0 30B#5F00110000000098
(1493280452.507486) can0 1FD#0000000000000000
(1493280452.540741) can0 1BFC38B1#0000000000000000
(1493280452.540975) can0 1BFC38BB#FFFFFFFFFFFFFFFF
(1493280452.541369) can0 1BFC38BA#535553500000001A
(1493280452.541614) can0 1BFC38B9#000096408008FC68
(1493280452.541996) can0 1BFC38B8#0000000800000000
(1493280452.542227) can0 1BFC38B7#8001648425020284
(1493280452.542604) can0 1BFC38B6#0000118900000000
(1493280452.542869) can0 1BFC38B5#0502FF9202048292
(1493280452.543200) can0 1BFC38B4#110F01010000A22F
(1493280452.543437) can0 1BFC38B3#8001648431003322
(1493280452.543833) can0 1BFC38B2#80016484838380E2
(1493280452.544478) can0 3C0#6A7E1335
(1493280452.548888) can0 30B#5F00110000000098
(1493280452.549121) can0 65E#8808EC567C710500
(1493280452.558482) can0 62F#4451000D1E
(1493280452.567273) can0 1FD#0000000000000000
(1493280452.597900) can0 30B#5F00110000000098
(1493280452.627245) can0 1FD#0000000000000000
(1493280452.648230) can0 6C7#04051101020001
(1493280452.648487) can0 3C0#6A7E1335
(1493280452.648490) can0 30B#5F00110000000098
(1493280452.648699) can0 5F2#C900
(1493280452.687243) can0 1FD#0000000000000000
(1493280452.697865) can0 30B#5F00110000000098
(1493280452.748382) can0 1FD#0000000000000000
(1493280452.748575) can0 30B#5F00110000000098
(1493280452.752505) can0 3C0#6A7E1335
(1493280452.789384) can0 1BFC38B1#0000000000000000
(1493280452.789744) can0 1BFC38BB#FFFFFFFFFFFFFFFF
(1493280452.790124) can0 1BFC38BA#0000000700000014
(1493280452.790367) can0 1BFC38B9#000096408008FC68
(1493280452.790756) can0 1BFC38B8#0000000800000000
(1493280452.791007) can0 1BFC38B7#8001648425020284
(1493280452.791380) can0 1BFC38B6#0000118B00000000
