(1493279375.764500) can0 1FD#0000000000000000
(1493279375.775127) can0 30B#5F00110000000098
(1493279375.779998) can0 3C0#6A7E1335
(1493279375.825325) can0 6C7#04051101020000
(1493279375.825519) can0 1FD#0000000000000000
(1493279375.825809) can0 30B#5F00110000000098
(1493279375.825923) can0 5F2#CC00
(1493279375.875169) can0 30B#5F00110000000098
(1493279375.883283) can0 3C0#6A7E1335
(1493279375.884997) can0 1FD#0000000000000000
(1493279375.925423) can0 30B#5F00110000000098
(1493279375.944574) can0 1FD#0000000000000000
(1493279375.966797) can0 1BFC38B1#0000000000000000
(1493279375.967168) can0 1BFC38BB#FFFFFFFFFFFFFFFF
(1493279375.967538) can0 1BFC38BA#0000000700000014
(1493279375.967778) can0 1BFC38B9#060096408008FC68
(1493279375.968161) can0 1BFC38B8#0000000800000000
(1493279375.968430) can0 1BFC38B7#8001648425020288
(1493279375.968780) can0 1BFC38B6#0000180700000000
(1493279375.969036) can0 1BFC38B5#0502FF9202048292
(1493279375.969411) can0 1BFC38B4#00010101001F0003
(1493279375.969664) can0 1BFC38B3#800164843240CCBB
(1493279375.969998) can0 1BFC38B2#8001648483830088
(1493279375.975896) can0 30B#5F00110000000098
(1493279375.987378) can0 3C0#6A7E1335
(1493279376.004537) can0 1FD#0000000000000000
(1493279376.025410) can0 6C7#04051101020000
(1493279376.025659) can0 30B#5F00110000000098
(1493279376.025926) can0 5F2#CC00
(1493279376.064590) can0 1FD#0000000000000000
(1493279376.075165) can0 30B#5F00110000000098
(1493279376.091164) can0 3C0#6A7E1335
(1493279376.125336) can0 1FD#0000000000000000
(1493279376.125687) can0 30B#5F00110000000098
(1493279376.175162) can0 30B#5F00110000000098
(1493279376.184797) can0 1FD#0000000000000000
(1493279376.194738) can0 3C0#6A7E1335
(1493279376.218046) can0 1BFC38B1#0000000000000000
(1493279376.218270) can0 1BFC38BB#FFFFFFFFFFFFFFFF
(1493279376.218659) can0 1BFC38BA#0000000700000014
(1493279376.218881) can0 1BFC38B9#060096408008FC68
(1493279376.219269) can0 1BFC38B8#0000000800000000
(1493279376.219516) can0 1BFC38B7#8001648425020288
(1493279376.219900) can0 1BFC38B6#0000180A001F0003
(1493279376.220174) can0 1BFC38B5#0502FF9202048292
(1493279376.220551) can0 1BFC38B4#00010101001F0003
(1493279376.220799) can0 1BFC38B3#8001648431001100
(1493279376.221175) can0 1BFC38B2#80016484838300DE
(1493279376.225926) can0 6C7#04051101020000
(1493279376.226180) can0 30B#5F00110000000098
(1493279376.226410) can0 5F2#CC00
(1493279376.226515) can0 643#000200
(1493279376.226765) can0 64E#00B1040000000000
(1493279376.227144) can0 65E#8808E9D89DF00500
(1493279376.227399) can0 6B8#6D08000000000000
(1493279376.227656) can0 6BC#C2824551324C0786
(1493279376.244498) can0 1FD#0000000000000000
(1493279376.275203) can0 30B#5F00110000000098
(1493279376.298665) can0 3C0#6A7E1335
(1493279376.304549) can0 1FD#0000000000000000
(1493279376.325439) can0 30B#5F00110000000098
(1493279376.334788) can0 6B6#390C1C000A0F
(1493279376.335033) can0 6B7#BEB4000008FF80FE
(1493279376.364539) can0 1FD#0000000000000000
(1493279376.375166) can0 30B#5F00110000000098
(1493279376.402154) can0 3C0#6A7E1335
(1493279376.425287) can0 6C7#04051101020000
(1493279376.425538) can0 1FD#0000000000000000
(1493279376.425785) can0 30B#5F00110000000098
(1493279376.426065) can0 5F2#CC00
(1493279376.466826) can0 1BFC38B1#0000000000000000
(1493279376.467202) can0 1BFC38BB#FFFFFFFFFFFFFFFF
(1493279376.467525) can0 1BFC38BA#0000000700000014
(1493279376.467788) can0 1BFC38B9#060096408008FC68
(1493279376.468163) can0 1BFC38B8#0000000800000000
(1493279376.468398) can0 1BFC38B7#8001648425020288
(1493279376.468752) can0 1BFC38B6#0000180C02048292
(1493279376.469028) can0 1BFC38B5#0502FF9202048292
(1493279376.469373) can0 1BFC38B4#00010101001F0003
(1493279376.469668) can0 1BFC38B3#8001648431001100
(1493279376.470055) can0 1BFC38B2#80016484838300DE
(1493279376.475897) can0 30B#5F00110000000098
(1493279376.484545) can0 1FD#0000000000000000
(1493279376.505901) can0 3C0#6A7E1335
(1493279376.525487) can0 30B#5F00110000000098
(1493279376.544541) can0 1FD#0000000000000000
(1493279376.575187) can0 30B#5F00110000000098
(1493279376.604561) can0 1FD#0000000000000000
(1493279376.609907) can0 3C0#6A7E1335
(1493279376.625415) can0 6C7#04051101020000
(1493279376.625798) can0 30B#5F00110000000098
(1493279376.625901) can0 5F2#CC00
(1493279376.664562) can0 1FD#0000000000000000
(1493279376.675196) can0 30B#5F00110000000098
(1493279376.713872) can0 3C0#6A7E1335
(1493279376.718194) can0 1BFC38B1#0000000000000000
(1493279376.718568) can0 1BFC38BB#FFFFFFFFFFFFFFFF
(1493279376.718764) can0 1BFC38BA#0000000700000014
(1493279376.719143) can0 1BFC38B9#070296408005A3F4
(1493279376.719389) can0 1BFC38B8#0000000800000000
(1493279376.719764) can0 1BFC38B7#80016484250202C4
(1493279376.720043) can0 1BFC38B6#0000180F00000000
(1493279376.720435) can0 1BFC38B5#0502FF9202048292
(1493279376.720669) can0 1BFC38B4#00010101001F0003
(1493279376.721051) can0 1BFC38B3#8001648431001100
(1493279376.721275) can0 1BFC38B2#80016484838300DE
(1493279376.726169) can0 1FD#0000000000000000
(1493279376.726425) can0 30B#5F00110000000098
(1493279376.726765) can0 65E#88082388A4060A00
(1493279376.735693) can0 62F#4451000A10
(1493279376.775176) can0 30B#5F00110000000098
(1493279376.784798) can0 1FD#0000000000000000
(1493279376.817875) can0 3C0#6A7E1335
(1493279376.825438) can0 6C7#04051101020000
(1493279376.825646) can0 30B#5F00110000000098
(1493279376.825744) can0 5F2#CC00
(1493279376.826143) can0 630#33D03F0102
(1493279376.844533) can0 1FD#0000000000000000
(1493279376.875164) can0 30B#5F00110000000098
(1493279376.904539) can0 1FD#0000000000000000
(1493279376.921398) can0 3C0#6A7E1335
(1493279376.925570) can0 30B#5F00110000000098
(1493279376.964565) can0 1FD#0000000000000000
(1493279376.966911) can0 1BFC38B1#0000000000000000
(1493279376.967161) can0 1BFC38BB#FFFFFFFFFFFFFFFF
(1493279376.967533) can0 1BFC38BA#535553500000001A
(1493279376.967773) can0 1BFC38B9#070296408005A3F4
(1493279376.968158) can0 1BFC38B8#0000000800000000
(1493279376.968438) can0 1BFC38B7#80016484250202C4
(1493279376.968777) can0 1BFC38B6#0000181100000000
(1493279376.969160) can0 1BFC38B5#0502FF9202048292
(1493279376.969378) can0 1BFC38B4#00010101001F0003
(1493279376.969621) can0 1BFC38B3#8001648431001100
(1493279376.970044) can0 1BFC38B2#80016484838300DE
(1493279376.975946) can0 30B#5F00110000000098
(1493279377.024992) can0 3C0#6A7E1335
(1493279377.025525) can0 6C7#04051101020000
(1493279377.025752) can0 1FD#0000000000000000
(1493279377.026002) can0 30B#5F00110000000098
(1493279377.026114) can0 5F2#CC00
(1493279377.075163) can0 30B#5F00110000000098
(1493279377.084793) can0 1FD#0000000000000000
(1493279377.125419) can0 30B#5F00110000000098
(1493279377.128903) can0 3C0#6A7E1335
(1493279377.144539) can0 1FD#0000000000000000
(1493279377.175192) can0 30B#5F00110000000098
(1493279377.204565) can0 1FD#0000000000000000
(1493279377.218042) can0 1BFC38B1#0000000000000000
(1493279377.218419) can0 1BFC38BB#FFFFFFFFFFFFFFFF
(1493279377.218649) can0 1BFC38BA#535553500000001A
(1493279377.219033) can0 1BFC38B9#070296408005A3F4
(1493279377.219284) can0 1BFC38B8#0000000800000000
(1493279377.219657) can0 1BFC38B7#80016484250202C4
(1493279377.220054) can0 1BFC38B6#00001814001F0003
(1493279377.220271) can0 1BFC38B5#0502FF9202048292
(1493279377.220674) can0 1BFC38B4#00010101001F0003
(1493279377.220900) can0 1BFC38B3#8001648431003322
(1493279377.221292) can0 1BFC38B2#8001648483838052
(1493279377.225958) can0 6C7#04051101020000
(1493279377.226317) can0 30B#5F00110000000098
(1493279377.226423) can0 5F2#CC00
(1493279377.226703) can0 643#000200
(1493279377.226919) can0 64E#00B1040000000000
(1493279377.227192) can0 65E#880887B586320800
(1493279377.227566) can0 6B8#6D08000000000000
(1493279377.227797) can0 6BC#C2824551324C078E
(1493279377.232910) can0 3C0#6A7E1335
(1493279377.264670) can0 1FD#0000000000000000
(1493279377.275144) can0 30B#5F00110000000098
(1493279377.325575) can0 1FD#0000000000000000
(1493279377.325943) can0 30B#5F00110000000098
(1493279377.326172) can0 631#34D200
(1493279377.326175) can0 62D#348F00
(1493279377.334787) can0 6B6#390C1C000A10
(1493279377.335150) can0 6B7#BEB4000008FF80FE
(1493279377.336924) can0 3C0#6A7E1335
(1493279377.375202) can0 30B#5F00110000000098
(1493279377.384663) can0 1FD#0000000000000000
(1493279377.425328) can0 6C7#04051101020000
(1493279377.425608) can0 30B#5F00110000000098
(1493279377.425775) can0 5F2#CC00
(1493279377.440672) can0 3C0#6A7E1335
(1493279377.444577) can0 1FD#0000000000000000
(1493279377.466910) can0 1BFC38B1#0000000000000000
(1493279377.467295) can0 1BFC38BB#FFFFFFFFFFFFFFFF
(1493279377.467469) can0 1BFC38BA#535553500000001A
(1493279377.467880) can0 1BFC38B9#070296408005A3F4
(1493279377.468126) can0 1BFC38B8#0000000800000000
(1493279377.468485) can0 1BFC38B7#80016484250202C4
(1493279377.468748) can0 1BFC38B6#00001816001F34A8
(1493279377.469110) can0 1BFC38B5#0502FF9202048292
(1493279377.469369) can0 1BFC38B4#00010101001F0003
(1493279377.469736) can0 1BFC38B3#8001648431003322
(1493279377.470109) can0 1BFC38B2#8001648483838052
(1493279377.475941) can0 30B#5F00110000000098
(1493279377.504563) can0 1FD#0000000000000000
(1493279377.525537) can0 30B#5F00110000000098
(1493279377.544550) can0 3C0#6A7E1335
(1493279377.564695) can0 1FD#0000000000000000
(1493279377.575282) can0 30B#5F00110000000098
(1493279377.625537) can0 6C7#04051101020000
(1493279377.625782) can0 1FD#0000000000000000
(1493279377.626154) can0 30B#5F00110000000098
(1493279377.626265) can0 5F2#CC00
(1493279377.648159) can0 3C0#6A7E1335
(1493279377.675437) can0 30B#5F00110000000098
(1493279377.684937) can0 1FD#0000000000000000
(1493279377.718158) can0 1BFC38B1#0000000000000000
(1493279377.718412) can0 1BFC38BB#FFFFFFFFFFFFFFFF
(1493279377.718657) can0 1BFC38BA#535553500000001A
(1493279377.719036) can0 1BFC38B9#000096408008FC68
(1493279377.719253) can0 1BFC38B8#0000000800000000
(1493279377.719658) can0 1BFC38B7#8001648425020200
(1493279377.719910) can0 1BFC38B6#0000181900000000
(1493279377.720286) can0 1BFC38B5#0502FF9202048292
(1493279377.720526) can0 1BFC38B4#00010101001F0003
(1493279377.720936) can0 1BFC38B3#8001648431003322
(1493279377.721112) can0 1BFC38B2#8001648483838052
(1493279377.726035) can0 30B#5F00110000000098
(1493279377.726298) can0 65E#880864B8874E0800
(1493279377.735667) can0 62F#4451000A11
(1493279377.744696) can0 1FD#0000000000000000
(1493279377.751521) can0 3C0#6A7E1335
(1493279377.775314) can0 30B#5F00110000000098
(1493279377.804672) can0 1FD#0000000000000000
(1493279377.825435) can0 6C7#04051101020000
(1493279377.825646) can0 30B#5F00110000000098
(1493279377.825946) can0 5F2#CC00
(1493279377.854996) can0 3C0#6A7E1335
(1493279377.864691) can0 1FD#0000000000000000
(1493279377.875317) can0 30B#5F00110000000098
(1493279377.925566) can0 1FD#0000000000000000
(1493279377.925776) can0 30B#5F00110000000098
(1493279377.958395) can0 3C0#6A7E1335
(1493279377.966908) can0 1BFC38B1#0000000000000000
(1493279377.967299) can0 1BFC38BB#FFFFFFFFFFFFFFFF
(1493279377.967492) can0 1BFC38BA#0000000700000014
(1493279377.967898) can0 1BFC38B9#000096408008FC68
(1493279377.968304) can0 1BFC38B8#0000000800000000
(1493279377.968530) can0 1BFC38B7#8001648425020200
(1493279377.968917) can0 1BFC38B6#0000181B00000000
(1493279377.969183) can0 1BFC38B5#0502FF9202048292
(1493279377.969514) can0 1BFC38B4#00010101001F0003
(1493279377.969776) can0 1BFC38B3#8001648431003322
(1493279377.970138) can0 1BFC38B2#8001648483838052
(1493279377.976017) can0 30B#5F00110000000098
(1493279377.984784) can0 1FD#0000000000000000
(1493279378.025538) can0 6C7#04051101020000
(1493279378.025778) can0 30B#5F00110000000098
(1493279378.026066) can0 5F2#CC00
(1493279378.044665) can0 1FD#0000000000000000
(1493279378.062020) can0 3C0#6A7E1335
(1493279378.075288) can0 30B#5F00110000000098
(1493279378.104663) can0 1FD#0000000000000000
(1493279378.125411) can0 30B#5F00110000000098
(1493279378.164671) can0 1FD#0000000000000000
(1493279378.165876) can0 3C0#6A7E1335
(1493279378.175284) can0 30B#5F00110000000098
(1493279378.218161) can0 1BFC38B1#0000000000000000
(1493279378.218399) can0 1BFC38BB#FFFFFFFFFFFFFFFF
(1493279378.218821) can0 1BFC38BA#0000000700000014
(1493279378.219025) can0 1BFC38B9#000096408008FC68
(1493279378.219412) can0 1BFC38B8#0000000800000000
(1493279378.219661) can0 1BFC38B7#8001648425020200
(1493279378.220036) can0 1BFC38B6#0000181E001F0003
(1493279378.220275) can0 1BFC38B5#0502FF9202048292
(1493279378.220682) can0 1BFC38B4#00010101001F0003
(1493279378.220904) can0 1BFC38B3#8001648432408877
(1493279378.221286) can0 1BFC38B2#800164848383009A
(1493279378.226034) can0 6C7#04051101020000
(1493279378.226284) can0 1FD#0000000000000000
(1493279378.226534) can0 30B#5F00110000000098
(1493279378.226797) can0 5F2#CC00
(1493279378.226917) can0 643#000200
(1493279378.227264) can0 64E#00B1040000000000
(1493279378.227492) can0 65E#88083DD76D480800
(1493279378.227742) can0 6B8#6D08000000000000
(1493279378.228123) can0 6BC#C2824551324C0792
(1493279378.269888) can0 3C0#6A7E1335
(1493279378.275267) can0 30B#5F00110000000098
(1493279378.284660) can0 1FD#0000000000000000
(1493279378.325664) can0 30B#5F00110000000098
(1493279378.335161) can0 6B6#390C1C000A11
(1493279378.335397) can0 6B7#BEB4000008FF80FE
(1493279378.344658) can0 1FD#0000000000000000
(1493279378.373488) can0 3C0#6A7E1335
(1493279378.375294) can0 30B#5F00110000000098
(1493279378.404657) can0 1FD#0000000000000000
(1493279378.425536) can0 6C7#04051101020000
(1493279378.425764) can0 30B#5F00110000000098
(1493279378.426033) can0 5F2#CC00
(1493279378.464658) can0 1FD#0000000000000000
(1493279378.466906) can0 1BFC38B1#0000000000000000
(1493279378.467272) can0 1BFC38BB#FFFFFFFFFFFFFFFF
(1493279378.467655) can0 1BFC38BA#0000000700000014
(1493279378.467904) can0 1BFC38B9#000096408008FC68
(1493279378.468270) can0 1BFC38B8#0000000800000000
(1493279378.468532) can0 1BFC38B7#8001648425020200
(1493279378.468905) can0 1BFC38B6#0000182002028292
(1493279378.469144) can0 1BFC38B5#0502FF9202028292
(1493279378.469532) can0 1BFC38B4#00010101001F0003
(1493279378.469780) can0 1BFC38B3#8001648432408877
(1493279378.470149) can0 1BFC38B2#800164848383009A
(1493279378.475878) can0 30B#5F00110000000098
(1493279378.477014) can0 3C0#6A7E1335
(1493279378.525537) can0 1FD#0000000000000000
(1493279378.525781) can0 30B#5F00110000000098
(1493279378.575284) can0 30B#5F00110000000098
(1493279378.580520) can0 3C0#6A7E1335
(1493279378.585067) can0 1FD#0000000000000000
(1493279378.625433) can0 6C7#04051101020000
(1493279378.625648) can0 30B#5F00110000000098
(1493279378.625910) can0 5F2#CC00
(1493279378.644654) can0 1FD#0000000000000000
(1493279378.675277) can0 30B#5F00110000000098
(1493279378.684413) can0 3C0#6A7E1335
(1493279378.704689) can0 1FD#0000000000000000
(1493279378.718156) can0 1BFC38B1#0000000000000000
(1493279378.718411) can0 1BFC38BB#FFFFFFFFFFFFFFFF
(1493279378.718781) can0 1BFC38BA#0000000700000014
(1493279378.719156) can0 1BFC38B9#010296408005A3F4
(1493279378.719425) can0 1BFC38B8#0000000800000000
(1493279378.719630) can0 1BFC38B7#800164842502023D
(1493279378.719986) can0 1BFC38B6#0000182300000000
(1493279378.720323) can0 1BFC38B5#0502FF9202028292
(1493279378.720680) can0 1BFC38B4#00010101001F0003
(1493279378.720876) can0 1BFC38B3#8001648432408877
(1493279378.721262) can0 1BFC38B2#800164848383009A
(1493279378.726138) can0 30B#5F00110000000098
(1493279378.726431) can0 65E#88083DCA8C2E0700
(1493279378.735670) can0 62F#4451000A12
(1493279378.764646) can0 1FD#0000000000000000
(1493279378.775281) can0 30B#5F00110000000098
(1493279378.788522) can0 3C0#6A7E1335
(1493279378.825409) can0 6C7#04051101020000
(1493279378.825657) can0 1FD#0000000000000000
(1493279378.826072) can0 30B#5F00110000000098
(1493279378.826174) can0 5F2#CC00
(1493279378.826425) can0 630#33D203D2
(1493279378.875279) can0 30B#5F00110000000098
(1493279378.884914) can0 1FD#0000000000000000
(1493279378.892027) can0 3C0#6A7E1335
(1493279378.925535) can0 30B#5F00110000000098
(1493279378.944661) can0 1FD#0000000000000000
(1493279378.967078) can0 1BFC38B1#0000000000000000
(1493279378.967277) can0 1BFC38BB#FFFFFFFFFFFFFFFF
(1493279378.967658) can0 1BFC38BA#535553500000001A
(1493279378.967900) can0 1BFC38B9#010296408005A3F4
(1493279378.968279) can0 1BFC38B8#0000000800000000
(1493279378.968532) can0 1BFC38B7#800164842502023D
(1493279378.968903) can0 1BFC38B6#0000182500000000
(1493279378.969185) can0 1BFC38B5#0502FF9202028292
(1493279378.969532) can0 1BFC38B4#00010101001F0003
(1493279378.969782) can0 1BFC38B3#8001648432408877
(1493279378.970154) can0 1BFC38B2#800164848383009A
(1493279378.976045) can0 30B#5F00110000000098
(1493279378.995622) can0 3C0#6A7E1335
(1493279379.004688) can0 1FD#0000000000000000
(1493279379.025404) can0 6C7#04051101020000
(1493279379.025638) can0 30B#5F00110000000098
(1493279379.025923) can0 5F2#CB00
(1493279379.064667) can0 1FD#0000000000000000
(1493279379.075286) can0 30B#5F00110000000098
(1493279379.086264) can0 0B5#0286184A96BB
(1493279379.099366) can0 3C0#6A7E1335
(1493279379.125537) can0 1FD#0000000000000000
(1493279379.125905) can0 30B#5F00110000000098
(1493279379.136441) can0 1DF#C07FB05E82
(1493279379.175321) can0 30B#5F00110000000098
(1493279379.185054) can0 1FD#0000000000000000
(1493279379.186709) can0 7B7#6F
(1493279379.202743) can0 3C0#6A7E1335
(1493279379.218158) can0 1BFC38B1#0000000000000000
(1493279379.218533) can0 1BFC38BB#FFFFFFFFFFFFFFFF
(1493279379.218778) can0 1BFC38BA#535553500000001A
(1493279379.219172) can0 1BFC38B9#010296408005A3F4
(1493279379.219381) can0 1BFC38B8#0000000800000000
(1493279379.219789) can0 1BFC38B7#800164842502023D
(1493279379.220172) can0 1BFC38B6#00001828001F0003
(1493279379.220384) can0 1BFC38B5#0502FF9202028292
(1493279379.220789) can0 1BFC38B4#00010101001F0003
(1493279379.221045) can0 1BFC38B3#800164843100DDCC
(1493279379.221431) can0 1BFC38B2#80016484838300F0
(1493279379.226167) can0 6C7#04051101020000
(1493279379.226406) can0 30B#5F00110000000098
(1493279379.226529) can0 5F2#CB00
(1493279379.226788) can0 643#000200
(1493279379.227044) can0 64E#00B1040000000000
(1493279379.227285) can0 65E#8808E5E68A4E0800
(1493279379.227520) can0 6B8#6D08000000000000
(1493279379.227889) can0 6BC#C2824551324C0798
(1493279379.236861) can0 694#C3
(1493279379.244639) can0 1FD#0000000000000000
(1493279379.275280) can0 30B#5F00110000000098
(1493279379.286950) can0 229#70F855
(1493279379.304620) can0 1FD#0000000000000000
(1493279379.306532) can0 3C0#6A7E1335
(1493279379.325783) can0 30B#5F00110000000098
(1493279379.326156) can0 631#34D300
(1493279379.326268) can0 62D#3490205800
(1493279379.334904) can0 6B6#390C1C000A12
(1493279379.335153) can0 6B7#BEB4000008FF80FE
(1493279379.337204) can0 5B9#
(1493279379.364652) can0 1FD#0000000000000000
(1493279379.375313) can0 30B#5F00110000000098
(1493279379.387426) can0 3BE#46E1C87153C58402
(1493279379.410017) can0 3C0#6A7E1335
(1493279379.425685) can0 6C7#04051101020000
(1493279379.425897) can0 1FD#0000000000000000
(1493279379.426276) can0 30B#5F00110000000098
(1493279379.426363) can0 5F2#CB00
(1493279379.437543) can0 546#25A91F00
(1493279379.467045) can0 1BFC38B1#0000000000000000
(1493279379.467283) can0 1BFC38BB#FFFFFFFFFFFFFFFF
(1493279379.467666) can0 1BFC38BA#535553500000001A
(1493279379.467911) can0 1BFC38B9#010296408005A3F4
(1493279379.468281) can0 1BFC38B8#0000000800000000
(1493279379.468651) can0 1BFC38B7#800164842502023D
(1493279379.468921) can0 1BFC38B6#0000182A001F34A8
(1493279379.469278) can0 1BFC38B5#0502FF9202028292
(1493279379.469543) can0 1BFC38B4#00010101001F0003
(1493279379.469906) can0 1BFC38B3#800164843100DDCC
(1493279379.470157) can0 1BFC38B2#80016484838300F0
(1493279379.476035) can0 30B#5F00110000000098
(1493279379.484688) can0 1FD#0000000000000000
(1493279379.487656) can0 0AB#91F1F10C8A5A59
(1493279379.513403) can0 3C0#6A7E1335
(1493279379.525781) can0 30B#5F00110000000098
(1493279379.537780) can0 1ED#0D
(1493279379.544666) can0 1FD#0000000000000000
(1493279379.575280) can0 30B#5F00110000000098
(1493279379.588079) can0 392#B128CB712742A00F
(1493279379.604781) can0 1FD#0000000000000000
(1493279379.616765) can0 3C0#6A7E1335
(1493279379.625532) can0 6C7#04051101020000
(1493279379.625784) can0 30B#5F00110000000098
(1493279379.626032) can0 5F2#CA00
(1493279379.638331) can0 77D#E704886A
(1493279379.664691) can0 1FD#0000000000000000
(1493279379.675408) can0 30B#5F00110000000098
(1493279379.688410) can0 6E8#9D7B7321A1E407
(1493279379.718188) can0 1BFC38B1#0000000000000000
(1493279379.718566) can0 1BFC38BB#FFFFFFFFFFFFFFFF
(1493279379.718729) can0 1BFC38BA#535553500000001A
(1493279379.719137) can0 1BFC38B9#020096408008FC68
(1493279379.719354) can0 1BFC38B8#0000000800000000
(1493279379.719744) can0 1BFC38B7#8001648425020277
(1493279379.720139) can0 1BFC38B6#0000182D00000000
(1493279379.720396) can0 1BFC38B5#0502FF9202028292
(1493279379.720653) can0 1BFC38B4#00010101001F0003
(1493279379.721036) can0 1BFC38B3#800164843100DDCC
(1493279379.721163) can0 3C0#6A7E1335
(1493279379.721277) can0 1BFC38B2#80016484838300F0
(1493279379.726188) can0 1FD#0000000000000000
(1493279379.726543) can0 30B#5F00110000000098
(1493279379.726765) can0 65E#8808E97987230700
(1493279379.735805) can0 62F#4451000A13
(1493279379.738541) can0 7C8#7EA7287986
(1493279379.775415) can0 30B#5F00110000000098
(1493279379.784926) can0 1FD#0000000000000000
(1493279379.788833) can0 3D0#D9C8CD6716
(1493279379.825157) can0 3C0#6A7E1335
(1493279379.825361) can0 6C7#04051101020000
(1493279379.825738) can0 30B#5F00110000000098
(1493279379.826034) can0 5F2#CA00
(1493279379.838910) can0 1C9#1127314E74DA190B
(1493279379.844778) can0 1FD#0000000000000000
(1493279379.875408) can0 30B#5F00110000000098
(1493279379.889043) can0 125#FF34
(1493279379.904786) can0 1FD#0000000000000000
(1493279379.925531) can0 30B#5F00110000000098
(1493279379.928523) can0 3C0#6A7E1335
(1493279379.939155) can0 1F4#B794BD20868DA561
(1493279379.964777) can0 1FD#0000000000000000
(1493279379.967033) can0 1BFC38B1#0000000000000000
(1493279379.967414) can0 1BFC38BB#FFFFFFFFFFFFFFFF
(1493279379.967660) can0 1BFC38BA#0000000700000014
(1493279379.968021) can0 1BFC38B9#020096408008FC68
(1493279379.968305) can0 1BFC38B8#0000000800000000
(1493279379.968677) can0 1BFC38B7#8001648425020277
(1493279379.968927) can0 1BFC38B6#0000182F00000000
(1493279379.969310) can0 1BFC38B5#0502FF9202028292
(1493279379.969550) can0 1BFC38B4#00010101001F0003
(1493279379.969889) can0 1BFC38B3#800164843100DDCC
(1493279379.970134) can0 1BFC38B2#80016484838300F0
(1493279379.976149) can0 30B#5F00110000000098
(1493279379.989443) can0 188#ADCF457105616E26
(1493279380.025658) can0 6C7#04051101020000
(1493279380.025907) can0 1FD#0000000000000000
(1493279380.026283) can0 30B#5F00110000000098
(1493279380.026395) can0 5F2#CA00
(1493279380.031766) can0 3C0#6A7E1335
(1493279380.039511) can0 2DD#ACEA9831
(1493279380.075405) can0 30B#5F00110000000098
(1493279380.084905) can0 1FD#0000000000000000
(1493279380.089664) can0 1EC#665EBD57B449663D
(1493279380.125662) can0 30B#5F00110000000098
(1493279380.135244) can0 3C0#6A7E1335
(1493279380.139790) can0 25F#3A4DAF222F
(1493279380.144777) can0 1FD#0000000000000000
(1493279380.175532) can0 30B#5F00110000000098
(1493279380.189919) can0 6AA#45CF29
(1493279380.204784) can0 1FD#0000000000000000
(1493279380.218169) can0 1BFC38B1#0000000000000000
(1493279380.218525) can0 1BFC38BB#FFFFFFFFFFFFFFFF
(1493279380.218922) can0 1BFC38BA#0000000700000014
(1493279380.219139) can0 1BFC38B9#020096408008FC68
(1493279380.219557) can0 1BFC38B8#0000000800000000
(1493279380.219782) can0 1BFC38B7#8001648425020277
(1493279380.220156) can0 1BFC38B6#00001832001F0003
(1493279380.220401) can0 1BFC38B5#0502FF9202028292
(1493279380.220788) can0 1BFC38B4#00010101001F0003
(1493279380.221163) can0 1BFC38B3#800164843100FFEE
(1493279380.221383) can0 1BFC38B2#8001648483838074
(1493279380.226138) can0 6C7#04051101020000
(1493279380.226396) can0 30B#5F00110000000098
(1493279380.226490) can0 5F2#CA00
(1493279380.226790) can0 643#000200
(1493279380.227166) can0 64E#00B1040000000000
(1493279380.227239) can0 65E#880864486CBD0600
(1493279380.227687) can0 6B8#6D08000000000000
(1493279380.227953) can0 6BC#C2824551324C0799
(1493279380.239119) can0 3C0#6A7E1335
(1493279380.239981) can0 011#E872B25B3629
(1493279380.264776) can0 1FD#0000000000000000
(1493279380.275402) can0 30B#5F00110000000098
(1493279380.290169) can0 6F8#4934380DEC9843
(1493279380.325817) can0 1FD#0000000000000000
(1493279380.326031) can0 30B#5F00110000000098
(1493279380.335156) can0 6B6#390C1C000A13
(1493279380.335387) can0 6B7#BEB4000008FF80FE
(1493279380.340279) can0 2F3#
(1493279380.343028) can0 3C0#6A7E1335
(1493279380.375408) can0 30B#5F00110000000098
(1493279380.384917) can0 1FD#0000000000000000
(1493279380.390452) can0 668#
(1493279380.425532) can0 6C7#04051101020000
(1493279380.425771) can0 30B#5F00110000000098
(1493279380.425884) can0 5F2#C900
(1493279380.440667) can0 2B5#0A4BFF4CA19CA852
(1493279380.444768) can0 1FD#0000000000000000
(1493279380.446395) can0 3C0#6A7E1335
(1493279380.467182) can0 1BFC38B1#0000000000000000
(1493279380.467402) can0 1BFC38BB#FFFFFFFFFFFFFFFF
(1493279380.467650) can0 1BFC38BA#0000000700000014
(1493279380.467981) can0 1BFC38B9#020096408008FC68
(1493279380.468326) can0 1BFC38B8#0000000800000000
(1493279380.468654) can0 1BFC38B7#8001648425020277
(1493279380.468931) can0 1BFC38B6#0000183402048292
(1493279380.469277) can0 1BFC38B5#0502FF9202048292
(1493279380.469657) can0 1BFC38B4#00010101001F0003
(1493279380.469917) can0 1BFC38B3#800164843100FFEE
(1493279380.470276) can0 1BFC38B2#8001648483838074
(1493279380.476022) can0 30B#5F00110000000098
(1493279380.490793) can0 677#55
(1493279380.504788) can0 1FD#0000000000000000
(1493279380.525665) can0 30B#5F00110000000098
(1493279380.540905) can0 756#054F9E1A003E7A31
(1493279380.549605) can0 3C0#6A7E1335
(1493279380.564777) can0 1FD#0000000000000000
(1493279380.575408) can0 30B#5F00110000000098
(1493279380.591171) can0 1A2#73D61202B3D1A52F
(1493279380.625561) can0 6C7#04051101020000
(1493279380.625770) can0 1FD#0000000000000000
(1493279380.626160) can0 30B#5F00110000000098
(1493279380.626163) can0 5F2#C900
(1493279380.641292) can0 4A0#E9FA35549823A165
(1493279380.653270) can0 3C0#6A7E1335
(1493279380.675435) can0 30B#5F00110000000098
(1493279380.685167) can0 1FD#0000000000000000
(1493279380.691556) can0 142#85BC
(1493279380.718158) can0 1BFC38B1#0000000000000000
(1493279380.718528) can0 1BFC38BB#FFFFFFFFFFFFFFFF
(1493279380.718911) can0 1BFC38BA#0000000700000014
(1493279380.719139) can0 1BFC38B9#030296408005A3F4
(1493279380.719525) can0 1BFC38B8#0000000800000000
(1493279380.719796) can0 1BFC38B7#80016484250202B3
(1493279380.720155) can0 1BFC38B6#0000183700000000
(1493279380.720403) can0 1BFC38B5#0502FF9202048292
(1493279380.720777) can0 1BFC38B4#00010101001F0003
(1493279380.721153) can0 1BFC38B3#800164843100FFEE
(1493279380.721405) can0 1BFC38B2#8001648483838074
(1493279380.726139) can0 30B#5F00110000000098
(1493279380.726414) can0 65E#8808766855390700
(1493279380.735787) can0 62F#4451000A14
(1493279380.741699) can0 032#B05055499B7EE24F
(1493279380.744783) can0 1FD#0000000000000000
(1493279380.757122) can0 3C0#6A7E1335
(1493279380.775437) can0 30B#5F00110000000098
(1493279380.791744) can0 118#E0
(1493279380.804792) can0 1FD#0000000000000000
(1493279380.825561) can0 6C7#04051101020000
(1493279380.825920) can0 30B#5F00110000000098
(1493279380.826141) can0 5F2#C900
(1493279380.826255) can0 630#33DCFF0F01
(1493279380.842109) can0 65E#6E40A220D524A922
(1493279380.860896) can0 3C0#6A7E1335
(1493279380.864809) can0 1FD#0000000000000000
(1493279380.875403) can0 30B#5F00110000000098
(1493279380.892177) can0 45C#AB95AD
(1493279380.925670) can0 1FD#0000000000000000
(1493279380.925898) can0 30B#5F00110000000098
(1493279380.942283) can0 252#
(1493279380.964770) can0 3C0#6A7E1335
(1493279380.967135) can0 1BFC38B1#0000000000000000
(1493279380.967399) can0 1BFC38BB#FFFFFFFFFFFFFFFF
(1493279380.967633) can0 1BFC38BA#535553500000001A
(1493279380.967982) can0 1BFC38B9#030296408005A3F4
(1493279380.968433) can0 1BFC38B8#0000000800000000
(1493279380.968687) can0 1BFC38B7#80016484250202B3
(1493279380.969057) can0 1BFC38B6#0000183900000000
(1493279380.969249) can0 1BFC38B5#0502FF9202048292
(1493279380.969632) can0 1BFC38B4#00010101001F0003
(1493279380.969883) can0 1BFC38B3#800164843100FFEE
(1493279380.970258) can0 1BFC38B2#8001648483838074
(1493279380.976184) can0 30B#5F00110000000098
(1493279380.984913) can0 1FD#0000000000000000
(1493279380.992405) can0 2FA#A77550509A
(1493279381.025664) can0 6C7#04051101020000
(1493279381.025901) can0 30B#5F00110000000098
(1493279381.026156) can0 5F2#C900
(1493279381.042668) can0 181#32
(1493279381.044773) can0 1FD#0000000000000000
(1493279381.068395) can0 3C0#6A7E1335
(1493279381.075445) can0 30B#5F00110000000098
(1493279381.092829) can0 7C3#F916DA6EF69758
(1493279381.104785) can0 1FD#0000000000000000
(1493279381.125657) can0 30B#5F00110000000098
(1493279381.142903) can0 2AF#91163B65C8B38777
(1493279381.164780) can0 1FD#0000000000000000
(1493279381.171615) can0 3C0#6A7E1335
(1493279381.175436) can0 30B#5F00110000000098
(1493279381.192919) can0 5DA#95
(1493279381.218281) can0 1BFC38B1#0000000000000000
(1493279381.218515) can0 1BFC38BB#FFFFFFFFFFFFFFFF
(1493279381.218903) can0 1BFC38BA#535553500000001A
(1493279381.219150) can0 1BFC38B9#030296408005A3F4
(1493279381.219527) can0 1BFC38B8#0000000800000000
(1493279381.219778) can0 1BFC38B7#80016484250202B3
(1493279381.220155) can0 1BFC38B6#0000183C001F0003
(1493279381.220402) can0 1BFC38B5#0502FF9202048292
(1493279381.220777) can0 1BFC38B4#00010101001F0003
(1493279381.221153) can0 1BFC38B3#8001648432404433
(1493279381.221402) can0 1BFC38B2#80016484838300AC
(1493279381.226136) can0 6C7#04051101020000
(1493279381.226506) can0 1FD#0000000000000000
(1493279381.226803) can0 30B#5F00110000000098
(1493279381.226879) can0 5F2#C900
(1493279381.227183) can0 643#000200
(1493279381.227360) can0 64E#00B1040000000000
(1493279381.227630) can0 65E#880867D889430800
(1493279381.227890) can0 6B8#6D08000000000000
(1493279381.228256) can0 6BC#C2824551324C079D
(1493279381.243177) can0 15C#0DB13142
(1493279381.275129) can0 3C0#6A7E1335
(1493279381.275362) can0 30B#5F00110000000098
(1493279381.284930) can0 1FD#0000000000000000
(1493279381.293164) can0 6C7#6A3906141A19447A
(1493279381.325778) can0 30B#5F00110000000098
(1493279381.326309) can0 631#34D400
(1493279381.326518) can0 62D#3491024501
(1493279381.335150) can0 6B6#390C1C000A14
(1493279381.335391) can0 6B7#BEB4000008FF80FE
(1493279381.343415) can0 368#0EBDEE1A622E3F38
(1493279381.344776) can0 1FD#0000000000000000
(1493279381.375410) can0 30B#5F00110000000098
(1493279381.379166) can0 3C0#6A7E1335
(1493279381.393554) can0 342#FC45763BC3C4
(1493279381.404778) can0 1FD#0000000000000000
(1493279381.425658) can0 6C7#04051101020000
(1493279381.426065) can0 30B#5F00110000000098
(1493279381.426168) can0 5F2#C900
(1493279381.443678) can0 347#8607C9310A43BA15
(1493279381.464781) can0 1FD#0000000000000000
(1493279381.467149) can0 1BFC38B1#0000000000000000
(1493279381.467392) can0 1BFC38BB#FFFFFFFFFFFFFFFF
(1493279381.467804) can0 1BFC38BA#535553500000001A
(1493279381.468152) can0 1BFC38B9#030296408005A3F4
(1493279381.468428) can0 1BFC38B8#0000000800000000
(1493279381.468645) can0 1BFC38B7#80016484250202B3
(1493279381.469027) can0 1BFC38B6#0000183E001F34A8
(1493279381.469401) can0 1BFC38B5#0502FF9202048292
(1493279381.469652) can0 1BFC38B4#00010101001F0003
(1493279381.470039) can0 1BFC38B3#8001648432404433
(1493279381.470290) can0 1BFC38B2#80016484838300AC
(1493279381.476162) can0 30B#5F00110000000098
(1493279381.482986) can0 3C0#6A7E1335
(1493279381.493808) can0 0E6#00DB122B9653960D
(1493279381.525783) can0 1FD#0000000000000000
(1493279381.526159) can0 30B#5F00110000000098
(1493279381.544047) can0 629#5E
(1493279381.575406) can0 30B#5F00110000000098
(1493279381.584908) can0 1FD#0000000000000000
(1493279381.587255) can0 3C0#6A7E1335
(1493279381.594144) can0 003#3CA891
(1493279381.625655) can0 6C7#04051101020000
(1493279381.625886) can0 30B#5F00110000000098
(1493279381.626156) can0 5F2#C900
(1493279381.644322) can0 6F7#189FC318BFB59747
(1493279381.644901) can0 1FD#0000000000000000
(1493279381.675527) can0 30B#5F00110000000098
(1493279381.690891) can0 3C0#6A7E1335
(1493279381.694571) can0 002#D9CE
(1493279381.704776) can0 1FD#0000000000000000
(1493279381.718309) can0 1BFC38B1#0000000000000000
(1493279381.718695) can0 1BFC38BB#FFFFFFFFFFFFFFFF
(1493279381.718903) can0 1BFC38BA#535553500000001A
(1493279381.719276) can0 1BFC38B9#040096408008FC68
(1493279381.719520) can0 1BFC38B8#0000000800000000
(1493279381.719910) can0 1BFC38B7#80016484250202EF
(1493279381.720157) can0 1BFC38B6#0000184100000000
(1493279381.720542) can0 1BFC38B5#0502FF9202048292
(1493279381.720768) can0 1BFC38B4#00010101001F0003
(1493279381.721160) can0 1BFC38B3#8001648432404433
(1493279381.721411) can0 1BFC38B2#80016484838300AC
(1493279381.726308) can0 30B#5F00110000000098
(1493279381.726538) can0 65E#880844D5A0D60900
(1493279381.736027) can0 62F#4451000A15
(1493279381.744696) can0 39F#CDF90C54E1B6F8
(1493279381.764776) can0 1FD#0000000000000000
(1493279381.775530) can0 30B#5F00110000000098
(1493279381.794362) can0 3C0#6A7E1335
(1493279381.794738) can0 69D#A47BF92EE461CF57
(1493279381.825795) can0 6C7#04051101020000
(1493279381.826162) can0 1FD#0000000000000000
(1493279381.826402) can0 30B#5F00110000000098
(1493279381.826529) can0 5F2#C900
(1493279381.845052) can0 0F8#EFA4896DDF39DD07
(1493279381.875404) can0 30B#5F00110000000098
(1493279381.885028) can0 1FD#0000000000000000
(1493279381.895157) can0 1AA#758D7315D327385A
(1493279381.898256) can0 3C0#6A7E1335
(1493279381.925653) can0 30B#5F00110000000098
(1493279381.944810) can0 1FD#0000000000000000
(1493279381.945415) can0 181#D64341
(1493279381.967154) can0 1BFC38B1#0000000000000000
(1493279381.967564) can0 1BFC38BB#FFFFFFFFFFFFFFFF
(1493279381.967776) can0 1BFC38BA#0000000700000014
(1493279381.968168) can0 1BFC38B9#040096408008FC68
(1493279381.968400) can0 1BFC38B8#0000000800000000
(1493279381.968779) can0 1BFC38B7#80016484250202EF
(1493279381.969152) can0 1BFC38B6#0000184300000000
(1493279381.969402) can0 1BFC38B5#0502FF9202048292
(1493279381.969632) can0 1BFC38B4#00010101001F0003
(1493279381.970040) can0 1BFC38B3#8001648432404433
(1493279381.970265) can0 1BFC38B2#80016484838300AC
(1493279381.976258) can0 30B#5F00110000000098
(1493279381.995552) can0 3C6#E322
(1493279382.002164) can0 3C0#6A7E1335
(1493279382.004932) can0 1FD#0000000000000000
(1493279382.025778) can0 6C7#04051101020000
(1493279382.026152) can0 30B#5F00110000000098
(1493279382.026155) can0 5F2#C900
(1493279382.045654) can0 55C#7DA08B5D5EE53829
(1493279382.064817) can0 1FD#0000000000000000
(1493279382.075529) can0 30B#5F00110000000098
(1493279382.095947) can0 27E#C8B006451DDE
(1493279382.105987) can0 3C0#6A7E1335
(1493279382.125942) can0 1FD#0000000000000000
(1493279382.126152) can0 30B#5F00110000000098
(1493279382.146066) can0 33D#FE944318DB
(1493279382.175433) can0 30B#5F00110000000098
(1493279382.185187) can0 1FD#0000000000000000
(1493279382.196144) can0 25F#BF1B
(1493279382.209898) can0 3C0#6A7E1335
(1493279382.218401) can0 1BFC38B1#0000000000000000
(1493279382.218785) can0 1BFC38BB#FFFFFFFFFFFFFFFF
(1493279382.219146) can0 1BFC38BA#0000000700000014
(1493279382.219376) can0 1BFC38B9#040096408008FC68
(1493279382.219756) can0 1BFC38B8#0000000800000000
(1493279382.220033) can0 1BFC38B7#80016484250202EF
(1493279382.220297) can0 1BFC38B6#00001846001F0003
(1493279382.220661) can0 1BFC38B5#0502FF9202048292
(1493279382.221039) can0 1BFC38B4#00010101001F0003
(1493279382.221287) can0 1BFC38B3#8001648431009988
(1493279382.221644) can0 1BFC38B2#80016484838300F2
(1493279382.226432) can0 6C7#04051101020000
(1493279382.226673) can0 30B#5F00110000000098
(1493279382.226759) can0 5F2#C900
(1493279382.227007) can0 643#000200
(1493279382.227242) can0 64E#00B1040000000000
(1493279382.227509) can0 65E#8808F34672D60900
(1493279382.227890) can0 6B8#6D08000000000000
(1493279382.228155) can0 6BC#C2824551324C07BA
(1493279382.244928) can0 1FD#0000000000000000
(1493279382.246335) can0 3CC#36E5456476356529
(1493279382.275563) can0 30B#5F00110000000098
(1493279382.296402) can0 09E#495D9D031FB21B4B
(1493279382.304925) can0 1FD#0000000000000000
(1493279382.313262) can0 3C0#6A7E1335
(1493279382.326148) can0 30B#5F00110000000098
(1493279382.335308) can0 6B6#390C1C000A15
(1493279382.335525) can0 6B7#BEB4000008FF80FE
(1493279382.346553) can0 77E#
(1493279382.364887) can0 1FD#0000000000000000
(1493279382.375528) can0 30B#5F00110000000098
(1493279382.396790) can0 532#03E66F0F8ED2
(1493279382.416643) can0 3C0#6A7E1335
(1493279382.425807) can0 6C7#04051101020000
(1493279382.426185) can0 1FD#0000000000000000
(1493279382.426415) can0 30B#5F00110000000098
(1493279382.426502) can0 5F2#C900
(1493279382.446913) can0 082#
(1493279382.467182) can0 1BFC38B1#0000000000000000
(1493279382.467574) can0 1BFC38BB#FFFFFFFFFFFFFFFF
(1493279382.467773) can0 1BFC38BA#0000000700000014
(1493279382.468164) can0 1BFC38B9#040096408008FC68
(1493279382.468526) can0 1BFC38B8#0000000800000000
(1493279382.468775) can0 1BFC38B7#80016484250202EF
(1493279382.469148) can0 1BFC38B6#0000184802048292
(1493279382.469400) can0 1BFC38B5#0502FF9202048292
(1493279382.469776) can0 1BFC38B4#00010101001F0003
(1493279382.470024) can0 1BFC38B3#8001648431009988
(1493279382.470421) can0 1BFC38B2#80016484838300F2
(1493279382.476163) can0 30B#5F00110000000098
(1493279382.484906) can0 1FD#0000000000000000
(1493279382.497101) can0 5D6#1DD90F6713
(1493279382.520149) can0 3C0#6A7E1335
(1493279382.525904) can0 30B#5F00110000000098
(1493279382.544927) can0 1FD#0000000000000000
(1493279382.547147) can0 34A#EEAAD04CA9FD3147
(1493279382.575530) can0 30B#5F00110000000098
(1493279382.597401) can0 6BD#01A99A238912906E
(1493279382.604900) can0 1FD#0000000000000000
(1493279382.623617) can0 3C0#6A7E1335
(1493279382.625818) can0 6C7#04051101020000
(1493279382.626186) can0 30B#5F00110000000098
(1493279382.626302) can0 5F2#C800
(1493279382.647551) can0 75C#0048F517FAC7A1
(1493279382.664896) can0 1FD#0000000000000000
(1493279382.675652) can0 30B#5F00110000000098
(1493279382.697646) can0 0E3#197ABD5F6108E515
(1493279382.718433) can0 1BFC38B1#0000000000000000
(1493279382.718644) can0 1BFC38BB#FFFFFFFFFFFFFFFF
(1493279382.719025) can0 1BFC38BA#0000000700000014
(1493279382.719262) can0 1BFC38B9#050296408005A3F4
(1493279382.719677) can0 1BFC38B8#0000000800000000
(1493279382.720042) can0 1BFC38B7#800164842502022B
(1493279382.720273) can0 1BFC38B6#0000184B00000000
(1493279382.720651) can0 1BFC38B5#0502FF9202048292
(1493279382.720898) can0 1BFC38B4#00010101001F0003
(1493279382.721255) can0 1BFC38B3#8001648431009988
(1493279382.721518) can0 1BFC38B2#80016484838300F2
(1493279382.726363) can0 1FD#0000000000000000
(1493279382.726638) can0 30B#5F00110000000098
(1493279382.726858) can0 65E#88080E1776C50800
(1493279382.727489) can0 3C0#6A7E1335
(1493279382.736159) can0 62F#4451000A16
(1493279382.747911) can0 669#A603610F9CD32269
(1493279382.775559) can0 30B#5F00110000000098
(1493279382.785027) can0 1FD#0000000000000000
(1493279382.798044) can0 443#2AA66A00C5F46B08
(1493279382.825789) can0 6C7#04051101020000
(1493279382.826169) can0 30B#5F00110000000098
(1493279382.826263) can0 5F2#C800
(1493279382.826527) can0 630#33E601000100
(1493279382.831019) can0 3C0#6A7E1335
(1493279382.844900) can0 1FD#0000000000000000
(1493279382.848167) can0 029#C5EF305FFF652F
(1493279382.875524) can0 30B#5F00110000000098
(1493279382.898310) can0 6CC#1357
(1493279382.904900) can0 1FD#0000000000000000
(1493279382.925778) can0 30B#5F00110000000098
(1493279382.934266) can0 3C0#6A7E1335
(1493279382.948320) can0 6FD#C0
(1493279382.964941) can0 1FD#0000000000000000
(1493279382.967287) can0 1BFC38B1#0000000000000000
(1493279382.967524) can0 1BFC38BB#FFFFFFFFFFFFFFFF
(1493279382.967783) can0 1BFC38BA#535553500000001A
(1493279382.968160) can0 1BFC38B9#050296408005A3F4
(1493279382.968536) can0 1BFC38B8#0000000800000000
(1493279382.968787) can0 1BFC38B7#800164842502022B
(1493279382.969152) can0 1BFC38B6#0000184D00000000
(1493279382.969396) can0 1BFC38B5#0502FF9202048292
(1493279382.969755) can0 1BFC38B4#00010101001F0003
(1493279382.970129) can0 1BFC38B3#8001648431009988
(1493279382.970394) can0 1BFC38B2#80016484838300F2
(1493279382.976255) can0 30B#5F00110000000098
(1493279382.998534) can0 0AF#43
(1493279383.025804) can0 6C7#04051101020000
(1493279383.026149) can0 1FD#0000000000000000
(1493279383.026369) can0 30B#5F00110000000098
(1493279383.026475) can0 5F2#C800
(1493279383.037661) can0 3C0#6A7E1335
(1493279383.048704) can0 6F8#061883
(1493279383.075525) can0 30B#5F00110000000098
(1493279383.085027) can0 1FD#0000000000000000
(1493279383.098789) can0 58D#
(1493279383.125772) can0 30B#5F00110000000098
(1493279383.141144) can0 3C0#6A7E1335
(1493279383.144934) can0 1FD#0000000000000000
(1493279383.148957) can0 7DC#92CFD0
(1493279383.175557) can0 30B#5F00110000000098
(1493279383.199157) can0 58D#E4104277B6753829
(1493279383.204895) can0 1FD#0000000000000000
(1493279383.218409) can0 1BFC38B1#0000000000000000
(1493279383.218816) can0 1BFC38BB#FFFFFFFFFFFFFFFF
(1493279383.219036) can0 1BFC38BA#535553500000001A
(1493279383.219271) can0 1BFC38B9#050296408005A3F4
(1493279383.219650) can0 1BFC38B8#0000000800000000
(1493279383.220041) can0 1BFC38B7#800164842502022B
(1493279383.220273) can0 1BFC38B6#00001850001F0003
(1493279383.220676) can0 1BFC38B5#0502FF9202048292
(1493279383.220900) can0 1BFC38B4#00010101001F0003
(1493279383.221273) can0 1BFC38B3#800164843100BBAA
(1493279383.221518) can0 1BFC38B2#8001648483838076
(1493279383.226254) can0 6C7#04051101020000
(1493279383.226653) can0 30B#5F00110000000098
(1493279383.226768) can0 5F2#C800
(1493279383.226895) can0 643#000200
(1493279383.227292) can0 64E#00B1040000000000
(1493279383.227515) can0 65E#88080E34706C0800
(1493279383.227779) can0 6B8#6D08000000000000
(1493279383.228132) can0 6BC#C2824551324C0701
(1493279383.244737) can0 3C0#6A7E1335
(1493279383.249314) can0 3D4#B6DB6741A09A997E
(1493279383.264940) can0 1FD#0000000000000000
(1493279383.275524) can0 30B#5F00110000000098
(1493279383.299405) can0 18B#B674A76388004862
(1493279383.325930) can0 1FD#0000000000000000
(1493279383.326313) can0 30B#5F00110000000098
(1493279383.326417) can0 62D#349220C900
(1493279383.335151) can0 6B6#390C1C000A16
(1493279383.335400) can0 6B7#BEB4000008FF80FE
(1493279383.335776) can0 631#34D500
(1493279383.348511) can0 3C0#6A7E1335
(1493279383.349520) can0 4CA#42B66C6E7AFD
(1493279383.375533) can0 30B#5F00110000000098
(1493279383.385146) can0 1FD#0000000000000000
(1493279383.399638) can0 537#864D136F30DC
(1493279383.425898) can0 6C7#04051101020000
(1493279383.426131) can0 30B#5F00110000000098
(1493279383.426383) can0 5F2#C800
(1493279383.444897) can0 1FD#0000000000000000
(1493279383.449772) can0 6C9#0BECD1105644082A
(1493279383.452098) can0 3C0#6A7E1335
(1493279383.467265) can0 1BFC38B1#0000000000000000
(1493279383.467518) can0 1BFC38BB#FFFFFFFFFFFFFFFF
(1493279383.467864) can0 1BFC38BA#535553500000001A
(1493279383.468139) can0 1BFC38B9#050296408005A3F4
(1493279383.468552) can0 1BFC38B8#0000000800000000
(1493279383.468802) can0 1BFC38B7#800164842502022B
(1493279383.469180) can0 1BFC38B6#00001852001F34A8
(1493279383.469416) can0 1BFC38B5#0502FF9202048292
(1493279383.469782) can0 1BFC38B4#00010101001F0003
(1493279383.470162) can0 1BFC38B3#800164843100BBAA
(1493279383.470393) can0 1BFC38B2#8001648483838076
(1493279383.476293) can0 30B#5F00110000000098
(1493279383.499861) can0 7AC#4D40B637897F9032
(1493279383.504899) can0 1FD#0000000000000000
(1493279383.526039) can0 30B#5F00110000000098
(1493279383.550007) can0 02C#A89B6621B925131C
(1493279383.555482) can0 3C0#6A7E1335
(1493279383.564927) can0 1FD#0000000000000000
(1493279383.575532) can0 30B#5F00110000000098
(1493279383.600166) can0 59C#6F9B4B457059E95D
(1493279383.625896) can0 6C7#04051101020000
(1493279383.626136) can0 1FD#0000000000000000
(1493279383.626399) can0 30B#5F00110000000098
(1493279383.626628) can0 5F2#C800
(1493279383.650437) can0 536#10F4825CC2
(1493279383.658721) can0 3C0#6A7E1335
(1493279383.675527) can0 30B#5F00110000000098
(1493279383.685144) can0 1FD#0000000000000000
(1493279383.700549) can0 1EE#4A77176EB9DEA0
(1493279383.718396) can0 1BFC38B1#0000000000000000
(1493279383.718787) can0 1BFC38BB#FFFFFFFFFFFFFFFF
(1493279383.718972) can0 1BFC38BA#535553500000001A
(1493279383.719257) can0 1BFC38B9#060096408008FC68
(1493279383.719646) can0 1BFC38B8#0000000800000000
(1493279383.720027) can0 1BFC38B7#8001648425020267
(1493279383.720274) can0 1BFC38B6#0000185500000000
(1493279383.720649) can0 1BFC38B5#0502FF9202048292
(1493279383.720896) can0 1BFC38B4#00010101001F0003
(1493279383.721273) can0 1BFC38B3#800164843100BBAA
(1493279383.721524) can0 1BFC38B2#8001648483838076
(1493279383.726399) can0 30B#5F00110000000098
(1493279383.726649) can0 65E#88080EC43C380800
(1493279383.736037) can0 62F#4451000A17
(1493279383.744907) can0 1FD#0000000000000000
(1493279383.750649) can0 53D#33DCD25E7582D32F
(1493279383.762626) can0 3C0#6A7E1335
(1493279383.775556) can0 30B#5F00110000000098
(1493279383.800774) can0 413#A55E5067DC3A7141
(1493279383.804903) can0 1FD#0000000000000000
(1493279383.825773) can0 6C7#04051101020000
(1493279383.826187) can0 30B#5F00110000000098
(1493279383.826190) can0 5F2#C800
(1493279383.851039) can0 745#
(1493279383.864890) can0 1FD#0000000000000000
(1493279383.866899) can0 3C0#6A7E1335
(1493279383.875605) can0 30B#5F00110000000098
(1493279383.901124) can0 6F9#
(1493279383.925770) can0 1FD#0000000000000000
(1493279383.926149) can0 30B#5F00110000000098
(1493279383.951286) can0 75F#DE94E8
(1493279383.967307) can0 1BFC38B1#0000000000000000
(1493279383.967519) can0 1BFC38BB#FFFFFFFFFFFFFFFF
(1493279383.967896) can0 1BFC38BA#0000000700000014
(1493279383.968142) can0 1BFC38B9#060096408008FC68
(1493279383.968493) can0 1BFC38B8#0000000800000000
(1493279383.968734) can0 1BFC38B7#8001648425020267
(1493279383.969144) can0 1BFC38B6#0000185700000000
(1493279383.969488) can0 1BFC38B5#0502FF9202048292
(1493279383.969725) can0 1BFC38B4#00010101001F0003
(1493279383.970107) can0 1BFC38B3#800164843100BBAA
(1493279383.970356) can0 1BFC38B2#8001648483838076
(1493279383.971112) can0 3C0#6A7E1335
(1493279383.976396) can0 30B#5F00110000000098
(1493279383.985303) can0 1FD#0000000000000000
(1493279384.001396) can0 6B0#6CAE6255E7FB0E00
(1493279384.025928) can0 6C7#04051101020000
(1493279384.026150) can0 30B#5F00110000000098
(1493279384.026274) can0 5F2#C800
(1493279384.044900) can0 1FD#0000000000000000
(1493279384.051524) can0 773#A972DE0B6151C747
(1493279384.074644) can0 3C0#6A7E1335
(1493279384.075612) can0 30B#5F00110000000098
(1493279384.101784) can0 344#1A3068
(1493279384.104899) can0 1FD#0000000000000000
(1493279384.125775) can0 30B#5F00110000000098
(1493279384.151897) can0 780#F642F57193C31F1C
(1493279384.165036) can0 1FD#0000000000000000
(1493279384.175659) can0 30B#5F00110000000098
(1493279384.178120) can0 3C0#6A7E1335
(1493279384.202152) can0 606#70FE905D4CC59D47
(1493279384.218425) can0 1BFC38B1#0000000000000000
(1493279384.218772) can0 1BFC38BB#FFFFFFFFFFFFFFFF
(1493279384.219160) can0 1BFC38BA#0000000700000014
(1493279384.219361) can0 1BFC38B9#060096408008FC68
(1493279384.219777) can0 1BFC38B8#0000000800000000
(1493279384.219995) can0 1BFC38B7#8001648425020267
(1493279384.220419) can0 1BFC38B6#0000185A001F0003
(1493279384.220643) can0 1BFC38B5#0502FF9202048292
(1493279384.221046) can0 1BFC38B4#00010101001F0003
(1493279384.221272) can0 1BFC38B3#80016484324000FF
(1493279384.221653) can0 1BFC38B2#80016484838300BE
(1493279384.226426) can0 6C7#04051101020000
(1493279384.226656) can0 1FD#0000000000000000
(1493279384.226893) can0 30B#5F00110000000098
(1493279384.227159) can0 5F2#C800
(1493279384.227273) can0 643#000200
(1493279384.227540) can0 64E#00B1040000000000
(1493279384.227924) can0 65E#88083C0A60F80300
(1493279384.228113) can0 6B8#6D08000000000000
(1493279384.228419) can0 6BC#C2824551324C0702
(1493279384.252326) can0 44C#3E4CF1
(1493279384.275544) can0 30B#5F00110000000098
(1493279384.281606) can0 3C0#6A7E1335
(1493279384.285182) can0 1FD#0000000000000000
(1493279384.302426) can0 523#6AAA6B40820CF13D
(1493279384.325898) can0 30B#5F00110000000098
(1493279384.335523) can0 6B6#390C1C000A17
(1493279384.335762) can0 6B7#BEB4000008FF80FE
(1493279384.345028) can0 1FD#0000000000000000
(1493279384.352534) can0 4DC#7E616A358D43134C
(1493279384.375563) can0 30B#5F00110000000098
(1493279384.385141) can0 3C0#6A7E1335
(1493279384.402648) can0 795#743F224C0817700A
(1493279384.405054) can0 1FD#0000000000000000
(1493279384.425772) can0 6C7#04051101020000
(1493279384.426146) can0 30B#5F00110000000098
(1493279384.426149) can0 5F2#C800
(1493279384.452931) can0 268#6A683752ACBDC22E
(1493279384.465024) can0 1FD#0000000000000000
(1493279384.467296) can0 1BFC38B1#0000000000000000
(1493279384.467663) can0 1BFC38BB#FFFFFFFFFFFFFFFF
(1493279384.467891) can0 1BFC38BA#0000000700000014
(1493279384.468274) can0 1BFC38B9#060096408008FC68
(1493279384.468523) can0 1BFC38B8#0000000800000000
(1493279384.468905) can0 1BFC38B7#8001648425020267
(1493279384.469133) can0 1BFC38B6#0000185C02048292
(1493279384.469502) can0 1BFC38B5#0502FF9202048292
(1493279384.469876) can0 1BFC38B4#00010101001F0003
(1493279384.470106) can0 1BFC38B3#80016484324000FF
(1493279384.470372) can0 1BFC38B2#80016484838300BE
(1493279384.476289) can0 30B#5F00110000000098
(1493279384.488728) can0 3C0#6A7E1335
(1493279384.503024) can0 410#2D7EE470
(1493279384.525899) can0 1FD#0000000000000000
(1493279384.526138) can0 30B#5F00110000000098
(1493279384.553151) can0 4D2#24779044
(1493279384.575664) can0 30B#5F00110000000098
(1493279384.585277) can0 1FD#0000000000000000
(1493279384.592526) can0 3C0#6A7E1335
(1493279384.603252) can0 2BF#24A09926
(1493279384.625776) can0 6C7#04051101020000
(1493279384.626015) can0 30B#5F00110000000098
(1493279384.626127) can0 5F2#C700
(1493279384.645023) can0 1FD#0000000000000000
(1493279384.653563) can0 337#508A
(1493279384.675648) can0 30B#5F00110000000098
(1493279384.696793) can0 3C0#6A7E1335
(1493279384.703642) can0 71B#DD3C5715F8338010
(1493279384.705054) can0 1FD#0000000000000000
(1493279384.718521) can0 1BFC38B1#0000000000000000
(1493279384.718784) can0 1BFC38BB#FFFFFFFFFFFFFFFF
(1493279384.719161) can0 1BFC38BA#0000000700000014
(1493279384.719358) can0 1BFC38B9#070296408005A3F4
(1493279384.719752) can0 1BFC38B8#0000000800000000
(1493279384.720201) can0 1BFC38B7#80016484250202A3
(1493279384.720400) can0 1BFC38B6#0000185F00000000
(1493279384.720661) can0 1BFC38B5#0502FF9202048292
(1493279384.721020) can0 1BFC38B4#00010101001F0003
(1493279384.721251) can0 1BFC38B3#80016484324000FF
(1493279384.721629) can0 1BFC38B2#80016484838300BE
(1493279384.726554) can0 30B#5F00110000000098
(1493279384.726784) can0 65E#880816B46CC40900
(1493279384.736152) can0 62F#4451000A18
(1493279384.753784) can0 402#8577935C98E36516
(1493279384.765039) can0 1FD#0000000000000000
(1493279384.775684) can0 30B#5F00110000000098
(1493279384.800265) can0 3C0#6A7E1335
(1493279384.803932) can0 646#A0FAD520AE604112
(1493279384.825922) can0 6C7#04051101020000
(1493279384.826141) can0 1FD#0000000000000000
(1493279384.826377) can0 30B#5F00110000000098
(1493279384.826471) can0 5F2#C600
(1493279384.826741) can0 630#33E90500
(1493279384.854144) can0 116#5A1E04412605AD52
(1493279384.875648) can0 30B#5F00110000000098
(1493279384.885274) can0 1FD#0000000000000000
(1493279384.903487) can0 3C0#6A7E1335
(1493279384.904142) can0 38F#B7B81D7B61A08777
(1493279384.925898) can0 30B#5F00110000000098
(1493279384.945022) can0 1FD#0000000000000000
(1493279384.954408) can0 5AC#397B83566BC0E150
(1493279384.967269) can0 1BFC38B1#0000000000000000
(1493279384.967644) can0 1BFC38BB#FFFFFFFFFFFFFFFF
(1493279384.967886) can0 1BFC38BA#535553500000001A
(1493279384.968271) can0 1BFC38B9#070296408005A3F4
(1493279384.968516) can0 1BFC38B8#0000000800000000
(1493279384.968894) can0 1BFC38B7#80016484250202A3
(1493279384.969297) can0 1BFC38B6#0000186100000000
(1493279384.969544) can0 1BFC38B5#0502FF9202048292
(1493279384.969920) can0 1BFC38B4#00010101001F0003
(1493279384.970175) can0 1BFC38B3#80016484324000FF
(1493279384.970539) can0 1BFC38B2#80016484838300BE
(1493279384.976306) can0 30B#5F00110000000098
(1493279385.004513) can0 570#770F695EA898FB4C
(1493279385.005133) can0 1FD#0000000000000000
(1493279385.007138) can0 3C0#6A7E1335
(1493279385.026023) can0 6C7#04051101020000
(1493279385.026262) can0 30B#5F00110000000098
(1493279385.026504) can0 5F2#C500
(1493279385.054829) can0 7C0#02C96124DC4608
(1493279385.065024) can0 1FD#0000000000000000
(1493279385.075672) can0 30B#5F00110000000098
(1493279385.104939) can0 682#D47A88758442ED37
(1493279385.110896) can0 3C0#6A7E1335
(1493279385.126144) can0 1FD#0000000000000000
(1493279385.126383) can0 30B#5F00110000000098
(1493279385.155143) can0 43B#1C26534E8152095A
(1493279385.175641) can0 30B#5F00110000000098
(1493279385.185298) can0 1FD#0000000000000000
(1493279385.205160) can0 152#30B34A6C6812887B
(1493279385.214609) can0 3C0#6A7E1335
(1493279385.218555) can0 1BFC38B1#0000000000000000
(1493279385.218764) can0 1BFC38BB#FFFFFFFFFFFFFFFF
(1493279385.219157) can0 1BFC38BA#535553500000001A
(1493279385.219380) can0 1BFC38B9#070296408005A3F4
(1493279385.219748) can0 1BFC38B8#0000000800000000
(1493279385.220165) can0 1BFC38B7#80016484250202A3
(1493279385.220415) can0 1BFC38B6#00001864001F0003
(1493279385.220795) can0 1BFC38B5#0502FF9202048292
(1493279385.220995) can0 1BFC38B4#00010101001F0003
(1493279385.221406) can0 1BFC38B3#8001648431005544
(1493279385.221649) can0 1BFC38B2#8001648483830054
(1493279385.226430) can0 6C7#04051101020000
(1493279385.226799) can0 30B#5F00110000000098
(1493279385.226912) can0 5F2#C400
(1493279385.227156) can0 643#000200
(1493279385.227373) can0 64E#00B1040000000000
(1493279385.227626) can0 65E#88087B7848BC0600
(1493279385.227864) can0 6B8#6D08000000000000
(1493279385.228299) can0 6BC#C2824551324C0716
(1493279385.245034) can0 1FD#0000000000000000
(1493279385.255436) can0 3C7#8E17354E567FE327
(1493279385.275643) can0 30B#5F00110000000098
(1493279385.305022) can0 1FD#0000000000000000
(1493279385.305384) can0 612#B71F6B1FBECB
(1493279385.318379) can0 3C0#6A7E1335
(1493279385.326034) can0 30B#5F00110000000098
(1493279385.326498) can0 631#34D602
(1493279385.326739) can0 62D#349302E900
(1493279385.335277) can0 6B6#390C1C000A18
(1493279385.335640) can0 6B7#BEB4000008FF80FE
(1493279385.355657) can0 022#2A
(1493279385.365057) can0 1FD#0000000000000000
(1493279385.375645) can0 30B#5F00110000000098
(1493279385.405772) can0 64F#3A
(1493279385.422018) can0 3C0#6A7E1335
(1493279385.425927) can0 6C7#04051101020000
(1493279385.426308) can0 1FD#0000000000000000
(1493279385.426516) can0 30B#5F00110000000098
(1493279385.426606) can0 5F2#C300
(1493279385.456013) can0 568#EB04BC67EA03DB25
(1493279385.467425) can0 1BFC38B1#0000000000000000
(1493279385.467638) can0 1BFC38BB#FFFFFFFFFFFFFFFF
(1493279385.468016) can0 1BFC38BA#535553500000001A
(1493279385.468258) can0 1BFC38B9#070296408005A3F4
(1493279385.468641) can0 1BFC38B8#0000000800000000
(1493279385.468883) can0 1BFC38B7#80016484250202A3
(1493279385.469296) can0 1BFC38B6#00001866001F34A8
(1493279385.469519) can0 1BFC38B5#0502FF9202048292
(1493279385.469895) can0 1BFC38B4#00010101001F0003
(1493279385.470149) can0 1BFC38B3#8001648431005544
(1493279385.470516) can0 1BFC38B2#8001648483830054
(1493279385.476285) can0 30B#5F00110000000098
(1493279385.485153) can0 1FD#0000000000000000
(1493279385.506157) can0 51C#6F46C85D57B1611A
(1493279385.525379) can0 3C0#6A7E1335
(1493279385.526100) can0 30B#5F00110000000098
(1493279385.545174) can0 1FD#0000000000000000
(1493279385.556309) can0 218#D9036B746A1B322A
(1493279385.575656) can0 30B#5F00110000000098
(1493279385.605027) can0 1FD#0000000000000000
(1493279385.606294) can0 548#D22DBA2510117B7D
(1493279385.625892) can0 6C7#04051101020000
(1493279385.626116) can0 30B#5F00110000000098
(1493279385.626379) can0 5F2#C300
(1493279385.629271) can0 3C0#6A7E1335
(1493279385.656454) can0 093#66
(1493279385.665052) can0 1FD#0000000000000000
(1493279385.675645) can0 30B#5F00110000000098
(1493279385.706669) can0 5A7#64C23561C9154346
(1493279385.718535) can0 1BFC38B1#0000000000000000
(1493279385.718913) can0 1BFC38BB#FFFFFFFFFFFFFFFF
(1493279385.719140) can0 1BFC38BA#535553500000001A
(1493279385.719544) can0 1BFC38B9#000096408008FC68
(1493279385.719751) can0 1BFC38B8#0000000800000000
(1493279385.720154) can0 1BFC38B7#80016484250202E0
(1493279385.720405) can0 1BFC38B6#0000186900000000
(1493279385.720779) can0 1BFC38B5#0502FF9202048292
(1493279385.721122) can0 1BFC38B4#00010101001F0003
(1493279385.721387) can0 1BFC38B3#8001648431005544
(1493279385.721780) can0 1BFC38B2#8001648483830054
(1493279385.726528) can0 1FD#0000000000000000
(1493279385.726792) can0 30B#5F00110000000098
(1493279385.727153) can0 65E#8808F956B6CB0C00
(1493279385.733156) can0 3C0#6A7E1335
(1493279385.736170) can0 62F#4451000A19
(1493279385.756643) can0 30F#5BBB13315E01C42D
(1493279385.775798) can0 30B#5F00110000000098
(1493279385.786268) can0 1FD#0000000000000000
(1493279385.786508) can0 64E#00A4390000000000
(1493279385.806918) can0 22F#6DBF7730981F
(1493279385.826017) can0 6C7#04051101020000
(1493279385.826251) can0 30B#5F00110000000098
(1493279385.826364) can0 5F2#C300
(1493279385.837003) can0 3C0#6A7E1335
(1493279385.845141) can0 1FD#0000000000000000
(1493279385.857075) can0 0D3#8223FC47EF0DF55A
(1493279385.875778) can0 30B#5F00110000000098
(1493279385.905144) can0 1FD#0000000000000000
(1493279385.907182) can0 418#47
(1493279385.926391) can0 30B#5F00110000000098
(1493279385.940514) can0 3C0#6A7E1335
(1493279385.957327) can0 67D#
(1493279385.965170) can0 1FD#0000000000000000
(1493279385.967393) can0 1BFC38B1#0000000000000000
(1493279385.967641) can0 1BFC38BB#FFFFFFFFFFFFFFFF
(1493279385.967993) can0 1BFC38BA#0000000700000014
(1493279385.968425) can0 1BFC38B9#000096408008FC68
(1493279385.968676) can0 1BFC38B8#0000000800000000
(1493279385.969047) can0 1BFC38B7#80016484250202E0
(1493279385.969297) can0 1BFC38B6#0000186B00000000
(1493279385.969653) can0 1BFC38B5#0502FF9202048292
(1493279385.969879) can0 1BFC38B4#00010101001F0003
(1493279385.970250) can0 1BFC38B3#8001648431005544
(1493279385.970624) can0 1BFC38B2#8001648483830054
(1493279385.976551) can0 30B#5F00110000000098
(1493279386.007512) can0 229#D5749F6ABC027C58
(1493279386.026295) can0 6C7#04051101020000
(1493279386.026659) can0 1FD#0000000000000000
(1493279386.026877) can0 30B#5F00110000000098
(1493279386.027146) can0 5F2#C200
(1493279386.044136) can0 3C0#6A7E1335
(1493279386.057544) can0 4CF#62F9B745765AF625
(1493279386.075765) can0 30B#5F00110000000098
(1493279386.085264) can0 1FD#0000000000000000
(1493279386.107753) can0 55A#3F70396C690080
(1493279386.126265) can0 30B#5F00110000000098
(1493279386.145169) can0 1FD#0000000000000000
(1493279386.147476) can0 3C0#6A7E1335
(1493279386.157939) can0 255#C701443D85F45416
(1493279386.175767) can0 30B#5F00110000000098
(1493279386.205185) can0 1FD#0000000000000000
(1493279386.208137) can0 530#1D147638
(1493279386.218635) can0 1BFC38B1#0000000000000000
(1493279386.219137) can0 1BFC38BB#FFFFFFFFFFFFFFFF
(1493279386.219408) can0 1BFC38BA#0000000700000014
(1493279386.219591) can0 1BFC38B9#000096408008FC68
(1493279386.220049) can0 1BFC38B8#0000000800000000
(1493279386.220310) can0 1BFC38B7#80016484250202E0
(1493279386.220639) can0 1BFC38B6#0000186E0000A439
(1493279386.221014) can0 1BFC38B5#0502FF9202048292
(1493279386.221265) can0 1BFC38B4#110F01010000A439
(1493279386.221656) can0 1BFC38B3#8001648431007766
(1493279386.221871) can0 1BFC38B2#8001648483838078
(1493279386.225153) can0 6C7#04051101020000
(1493279386.225404) can0 30B#5F00110000000098
(1493279386.225496) can0 5F2#C200
(1493279386.225748) can0 643#000200
(1493279386.226011) can0 64E#00A4390000000000
(1493279386.226260) can0 65E#88085A1886940800
(1493279386.226539) can0 6B8#6D08000000000000
(1493279386.226953) can0 6BC#C2824551324C0718
(1493279386.251394) can0 3C0#6A7E1335
(1493279386.261577) can0 58D#F3333026A6C9677B
(1493279386.265140) can0 1FD#0000000000000000
(1493279386.275777) can0 30B#5F00110000000098
(1493279386.308358) can0 191#D77F40200E781678
(1493279386.326473) can0 1FD#0000000000000000
(1493279386.326742) can0 30B#5F00110000000098
(1493279386.335274) can0 6B6#390C1C000A19
(1493279386.335631) can0 6B7#BEB4000008FF80FE
(1493279386.355480) can0 3C0#6A7E1335
(1493279386.358503) can0 65A#D3DB
(1493279386.375770) can0 30B#5F00110000000098
(1493279386.385143) can0 1FD#0000000000000000
(1493279386.408650) can0 0E0#3F333C28AF95C44C
(1493279386.426044) can0 6C7#04051101020000
(1493279386.426260) can0 30B#5F00110000000098
(1493279386.426483) can0 5F2#C100
(1493279386.445174) can0 1FD#0000000000000000
(1493279386.458883) can0 5E5#25F0
(1493279386.459132) can0 3C0#6A7E1335
(1493279386.467391) can0 1BFC38B1#0000000000000000
(1493279386.467634) can0 1BFC38BB#FFFFFFFFFFFFFFFF
(1493279386.467993) can0 1BFC38BA#0000000700000014
(1493279386.468314) can0 1BFC38B9#000096408008FC68
(1493279386.468642) can0 1BFC38B8#0000000800000000
(1493279386.469014) can0 1BFC38B7#80016484250202E0
(1493279386.469254) can0 1BFC38B6#0000187002028292
(1493279386.469654) can0 1BFC38B5#0502FF9202028292
(1493279386.469874) can0 1BFC38B4#110F01010000A439
(1493279386.470242) can0 1BFC38B3#8001648431007766
(1493279386.470494) can0 1BFC38B2#8001648483838078
(1493279386.476391) can0 30B#5F00110000000098
(1493279386.505141) can0 1FD#0000000000000000
(1493279386.509004) can0 069#A80B2044
(1493279386.526147) can0 30B#5F00110000000098
(1493279386.559092) can0 3FF#43E735782FB16E02
(1493279386.562863) can0 3C0#6A7E1335
(1493279386.565154) can0 1FD#0000000000000000
(1493279386.575769) can0 30B#5F00110000000098
(1493279386.609313) can0 6A3#
(1493279386.626022) can0 6C7#04051101020000
(1493279386.626253) can0 1FD#0000000000000000
(1493279386.626477) can0 30B#5F00110000000098
(1493279386.626727) can0 5F2#C100
(1493279386.659393) can0 300#D71D777091D4
(1493279386.666381) can0 3C0#6A7E1335
(1493279386.675798) can0 30B#5F00110000000098
(1493279386.685419) can0 1FD#0000000000000000
(1493279386.709653) can0 660#9F4C6B4FBAB4A914
(1493279386.718643) can0 1BFC38B1#0000000000000000
(1493279386.718891) can0 1BFC38BB#FFFFFFFFFFFFFFFF
(1493279386.719262) can0 1BFC38BA#0000000700000014
(1493279386.719497) can0 1BFC38B9#010296408005A3F4
(1493279386.719919) can0 1BFC38B8#0000000800000000
(1493279386.720141) can0 1BFC38B7#8001648425020219
(1493279386.720516) can0 1BFC38B6#0000187300000000
(1493279386.720753) can0 1BFC38B5#0502FF9202028292
(1493279386.721130) can0 1BFC38B4#110F01010000A439
(1493279386.721382) can0 1BFC38B3#8001648431007766
(1493279386.721750) can0 1BFC38B2#8001648483838078
(1493279386.726651) can0 30B#5F00110000000098
(1493279386.726892) can0 65E#88084EF5A7DD0900
(1493279386.736158) can0 62F#4451000A1A
(1493279386.745173) can0 1FD#0000000000000000
(1493279386.759782) can0 720#3DE5
(1493279386.769883) can0 3C0#6A7E1335
(1493279386.775798) can0 30B#5F00110000000098
(1493279386.805138) can0 1FD#0000000000000000
(1493279386.809894) can0 11B#B0D5D73000CF5864
(1493279386.826030) can0 6C7#04051101020000
(1493279386.826264) can0 30B#5F00110000000098
(1493279386.826510) can0 5F2#C000
(1493279386.826626) can0 630#33EA010000
(1493279386.860183) can0 51E#3FDAF818872D
(1493279386.865135) can0 1FD#0000000000000000
(1493279386.873513) can0 3C0#6A7E1335
(1493279386.875747) can0 30B#5F00110000000098
(1493279386.910270) can0 63A#46205D7139B2C8
(1493279386.926027) can0 1FD#0000000000000000
(1493279386.926264) can0 30B#5F00110000000098
(1493279386.960421) can0 356#69633701FAC19C4D
(1493279386.967392) can0 1BFC38B1#0000000000000000
(1493279386.967762) can0 1BFC38BB#FFFFFFFFFFFFFFFF
(1493279386.968144) can0 1BFC38BA#535553500000001A
(1493279386.968377) can0 1BFC38B9#010296408005A3F4
(1493279386.968635) can0 1BFC38B8#0000000800000000
(1493279386.969029) can0 1BFC38B7#8001648425020219
(1493279386.969264) can0 1BFC38B6#0000187500000000
(1493279386.969649) can0 1BFC38B5#0502FF9202028292
(1493279386.969901) can0 1BFC38B4#110F01010000A439
(1493279386.970273) can0 1BFC38B3#8001648431007766
(1493279386.970526) can0 1BFC38B2#8001648483838078
(1493279386.976383) can0 30B#5F00110000000098
(1493279386.977270) can0 3C0#6A7E1335
(1493279386.985144) can0 1FD#0000000000000000
(1493279387.010536) can0 2EA#2B16AC42EA355D4B
(1493279387.025906) can0 6C7#04051101020000
(1493279387.026282) can0 30B#5F00110000000098
(1493279387.026395) can0 5F2#C000
(1493279387.045154) can0 1FD#0000000000000000
(1493279387.060789) can0 5C2#7B0A
(1493279387.075769) can0 30B#5F00110000000098
(1493279387.081136) can0 3C0#6A7E1335
(1493279387.105138) can0 1FD#0000000000000000
(1493279387.110925) can0 1B0#DCF8C566D0C0DD43
(1493279387.126033) can0 30B#5F00110000000098
(1493279387.161159) can0 78C#D100F127A8F8432B
(1493279387.165141) can0 1FD#0000000000000000
(1493279387.175784) can0 30B#5F00110000000098
(1493279387.184890) can0 3C0#6A7E1335
(1493279387.211266) can0 695#A8C7
(1493279387.218514) can0 1BFC38B1#0000000000000000
(1493279387.218900) can0 1BFC38BB#FFFFFFFFFFFFFFFF
(1493279387.219274) can0 1BFC38BA#535553500000001A
(1493279387.219532) can0 1BFC38B9#010296408005A3F4
(1493279387.219903) can0 1BFC38B8#0000000800000000
(1493279387.220169) can0 1BFC38B7#8001648425020219
(1493279387.220536) can0 1BFC38B6#000018780000A439
(1493279387.220766) can0 1BFC38B5#0502FF9202028292
(1493279387.221151) can0 1BFC38B4#110F01010000A439
(1493279387.221403) can0 1BFC38B3#800164843240CCBB
(1493279387.221773) can0 1BFC38B2#80016484838300D0
(1493279387.226543) can0 6C7#04051101020000
(1493279387.226928) can0 1FD#0000000000000000
(1493279387.227105) can0 30B#5F00110000000098
(1493279387.227267) can0 5F2#BF00
(1493279387.227538) can0 643#000200
(1493279387.227730) can0 64E#00A4390000000000
(1493279387.228123) can0 65E#8808A3D6A0EC0900
(1493279387.228369) can0 6B8#6D08000000000000
(1493279387.228619) can0 6BC#C2824551324C077E
(1493279387.261417) can0 458#3B69EC6192C2E27E
(1493279387.275803) can0 30B#5F00110000000098
(1493279387.285265) can0 1FD#0000000000000000
(1493279387.288629) can0 3C0#6A7E1335
(1493279387.311691) can0 7CF#CC
(1493279387.326155) can0 30B#5F00110000000098
(1493279387.326804) can0 631#34C2030013000301
(1493279387.327155) can0 62D#3482030012000300
(1493279387.335654) can0 6B6#390C1C000A1A
(1493279387.335902) can0 6B7#BEB4000008FF80FE
(1493279387.345142) can0 1FD#0000000000000000
(1493279387.361766) can0 10B#203DC831F5
(1493279387.375766) can0 30B#5F00110000000098
(1493279387.392258) can0 3C0#6A7E1335
(1493279387.405139) can0 1FD#0000000000000000
(1493279387.411887) can0 2D1#DFC9782293587F10
(1493279387.426150) can0 6C7#04051101020000
(1493279387.426388) can0 30B#5F00110000000098
(1493279387.426512) can0 5F2#BF00
(1493279387.462181) can0 74D#B59C9B62FD58726B
(1493279387.465141) can0 1FD#0000000000000000
(1493279387.467421) can0 1BFC38B1#0000000000000000
(1493279387.467763) can0 1BFC38BB#FFFFFFFFFFFFFFFF
(1493279387.468153) can0 1BFC38BA#535553500000001A
(1493279387.468383) can0 1BFC38B9#010296408005A3F4
(1493279387.468772) can0 1BFC38B8#0000000800000000
(1493279387.469155) can0 1BFC38B7#8001648425020219
(1493279387.469383) can0 1BFC38B6#0000187A000034A8
(1493279387.469652) can0 1BFC38B5#0502FF9202028292
(1493279387.470022) can0 1BFC38B4#110F01010000A439
(1493279387.470275) can0 1BFC38B3#800164843240CCBB
(1493279387.470654) can0 1BFC38B2#80016484838300D0
(1493279387.476523) can0 30B#5F00110000000098
(1493279387.495727) can0 3C0#6A7E1335
(1493279387.512144) can0 374#CD
(1493279387.526266) can0 1FD#0000000000000000
(1493279387.526527) can0 30B#5F00110000000098
(1493279387.562405) can0 3AA#A8A34F093F6A676C
(1493279387.575776) can0 30B#5F00110000000098
(1493279387.585276) can0 1FD#0000000000000000
(1493279387.599606) can0 3C0#6A7E1335
(1493279387.612594) can0 121#F3
(1493279387.626139) can0 6C7#04051101020000
(1493279387.626390) can0 30B#5F00110000000098
(1493279387.626506) can0 5F2#BE00
(1493279387.645137) can0 1FD#0000000000000000
(1493279387.662641) can0 539#0B50482B08953047
(1493279387.675767) can0 30B#5F00110000000098
(1493279387.702882) can0 3C0#6A7E1335
(1493279387.705169) can0 1FD#0000000000000000
(1493279387.712823) can0 0B0#2E105C2BBB29EA
(1493279387.718640) can0 1BFC38B1#0000000000000000
(1493279387.719026) can0 1BFC38BB#FFFFFFFFFFFFFFFF
(1493279387.719229) can0 1BFC38BA#535553500000001A
(1493279387.719618) can0 1BFC38B9#020096408008FC68
(1493279387.719861) can0 1BFC38B8#0000000800000000
(1493279387.720256) can0 1BFC38B7#8001648425020255
(1493279387.720500) can0 1BFC38B6#0000187D00000000
(1493279387.720919) can0 1BFC38B5#0502FF9202028292
(1493279387.721170) can0 1BFC38B4#110F01010000A439
(1493279387.721516) can0 1BFC38B3#800164843240CCBB
(1493279387.721748) can0 1BFC38B2#80016484838300D0
(1493279387.726669) can0 30B#5F00110000000098
(1493279387.727021) can0 65E#8808323863520800
(1493279387.736405) can0 62F#4451000A1B
(1493279387.763035) can0 50C#B0BD0508DDAF9A75
(1493279387.765139) can0 1FD#0000000000000000
(1493279387.776149) can0 30B#5F00110000000098
(1493279387.795154) can0 64E#00B1040000000000
(1493279387.806099) can0 3C0#6A7E1335
(1493279387.813161) can0 099#70081A06E6273079
(1493279387.826169) can0 6C7#04051101020000
(1493279387.826381) can0 1FD#0000000000000000
(1493279387.826648) can0 30B#5F00110000000098
(1493279387.826742) can0 5F2#BE00
(1493279387.863281) can0 3E9#E380A2645D
(1493279387.875766) can0 30B#5F00110000000098
(1493279387.885293) can0 1FD#0000000000000000
(1493279387.909726) can0 3C0#6A7E1335
(1493279387.913447) can0 2B6#5E
(1493279387.926671) can0 30B#5F00110000000098
(1493279387.945135) can0 1FD#0000000000000000
(1493279387.963516) can0 550#A018103371A6
(1493279387.967513) can0 1BFC38B1#0000000000000000
(1493279387.967757) can0 1BFC38BB#FFFFFFFFFFFFFFFF
(1493279387.968135) can0 1BFC38BA#0000000700000014
(1493279387.968384) can0 1BFC38B9#020096408008FC68
(1493279387.968773) can0 1BFC38B8#0000000800000000
(1493279387.969147) can0 1BFC38B7#8001648425020255
(1493279387.969405) can0 1BFC38B6#0000187F00000000
(1493279387.969632) can0 1BFC38B5#0502FF9202028292
(1493279387.970020) can0 1BFC38B4#110F01010000A439
(1493279387.970370) can0 1BFC38B3#800164843240CCBB
(1493279387.970657) can0 1BFC38B2#80016484838300D0
(1493279387.975652) can0 30B#5F00110000000098
(1493279388.005286) can0 1FD#0000000000000000
(1493279388.013349) can0 3C0#6A7E1335
(1493279388.013592) can0 157#EA33A3
(1493279388.026264) can0 6C7#04051101020000
(1493279388.026493) can0 30B#5F00110000000098
(1493279388.026763) can0 5F2#BE00
(1493279388.063900) can0 5C2#99E3EB2F73
(1493279388.065133) can0 1FD#0000000000000000
(1493279388.075768) can0 30B#5F00110000000098
(1493279388.114097) can0 0CD#2E90A337D9E5B5
(1493279388.117396) can0 3C0#6A7E1335
(1493279388.126140) can0 1FD#0000000000000000
(1493279388.126386) can0 30B#5F00110000000098
(1493279388.164153) can0 116#B7955039AFE1040A
(1493279388.175773) can0 30B#5F00110000000098
(1493279388.185425) can0 1FD#0000000000000000
(1493279388.214279) can0 56E#960935035831D1
(1493279388.218639) can0 1BFC38B1#0000000000000000
(1493279388.219005) can0 1BFC38BB#FFFFFFFFFFFFFFFF
(1493279388.219225) can0 1BFC38BA#0000000700000014
(1493279388.219598) can0 1BFC38B9#020096408008FC68
(1493279388.219852) can0 1BFC38B8#0000000800000000
(1493279388.220226) can0 1BFC38B7#8001648425020255
(1493279388.220475) can0 1BFC38B6#00001882001F0003
(1493279388.220858) can0 3C0#6A7E1335
(1493279388.220860) can0 1BFC38B5#0502FF9202028292
(1493279388.221235) can0 1BFC38B4#00010101001F0003
(1493279388.221591) can0 1BFC38B3#8001648431001100
(1493279388.221981) can0 1BFC38B2#8001648483830056
(1493279388.226670) can0 6C7#04051101020000
(1493279388.226896) can0 30B#5F00110000000098
(1493279388.227156) can0 5F2#BD00
(1493279388.227250) can0 643#000200
(1493279388.227493) can0 64E#00B1040000000000
(1493279388.227877) can0 65E#880874089C390D00
(1493279388.228177) can0 6B8#6D08000000000000
(1493279388.228375) can0 6BC#C2824551324C0786
(1493279388.245139) can0 1FD#0000000000000000
(1493279388.264415) can0 34D#B5B8C200037E375A
(1493279388.275770) can0 30B#5F00110000000098
(1493279388.305142) can0 1FD#0000000000000000
(1493279388.314529) can0 52A#642CE0
(1493279388.324764) can0 3C0#6A7E1335
(1493279388.326135) can0 30B#5F00110000000098
(1493279388.335795) can0 6B6#390C1C000A1B
(1493279388.335967) can0 6B7#BEB4000008FF80FE
(1493279388.364696) can0 11A#EB803B02
(1493279388.365259) can0 1FD#0000000000000000
(1493279388.375774) can0 30B#5F00110000000098
(1493279388.414764) can0 397#025101245A
(1493279388.426017) can0 6C7#04051101020000
(1493279388.426255) can0 1FD#0000000000000000
(1493279388.426596) can0 30B#5F00110000000098
(1493279388.426727) can0 5F2#BD00
(1493279388.428140) can0 3C0#6A7E1335
(1493279388.465014) can0 0CB#CD373D5F9881A958
(1493279388.467543) can0 1BFC38B1#0000000000000000
(1493279388.467900) can0 1BFC38BB#FFFFFFFFFFFFFFFF
(1493279388.468146) can0 1BFC38BA#0000000700000014
(1493279388.468534) can0 1BFC38B9#020096408008FC68
(1493279388.468764) can0 1BFC38B8#0000000800000000
(1493279388.469167) can0 1BFC38B7#8001648425020255
(1493279388.469416) can0 1BFC38B6#0000188402028292
(1493279388.469777) can0 1BFC38B5#0502FF9202028292
(1493279388.470147) can0 1BFC38B4#00010101001F0003
(1493279388.470397) can0 1BFC38B3#8001648431001100
(1493279388.470664) can0 1BFC38B2#8001648483830056
(1493279388.476519) can0 30B#5F00110000000098
(1493279388.485281) can0 1FD#0000000000000000
(1493279388.515166) can0 062#71675F1C7869A167
(1493279388.526171) can0 30B#5F00110000000098
(1493279388.531482) can0 3C0#6A7E1335
(1493279388.545261) can0 1FD#0000000000000000
(1493279388.565264) can0 5DA#284BA67149EBB140
(1493279388.575766) can0 30B#5F00110000000098
(1493279388.605143) can0 1FD#0000000000000000
(1493279388.615510) can0 350#A11C831A9DDE3A3D
(1493279388.626137) can0 6C7#04051101020000
(1493279388.626251) can0 30B#5F00110000000098
(1493279388.626513) can0 5F2#BD00
(1493279388.635155) can0 3C0#6A7E1335
(1493279388.665148) can0 1FD#0000000000000000
(1493279388.665502) can0 737#A05C72176204
(1493279388.675900) can0 30B#5F00110000000098
(1493279388.715823) can0 06A#DCDE7A3F
(1493279388.718766) can0 1BFC38B1#0000000000000000
(1493279388.719138) can0 1BFC38BB#FFFFFFFFFFFFFFFF
(1493279388.719388) can0 1BFC38BA#0000000700000014
(1493279388.719636) can0 1BFC38B9#030296408005A3F4
(1493279388.720012) can0 1BFC38B8#0000000800000000
(1493279388.720243) can0 1BFC38B7#80016484A50A028D
(1493279388.720650) can0 1BFC38B6#0000188700000000
(1493279388.720856) can0 1BFC38B5#0502FF9202028292
(1493279388.721240) can0 1BFC38B4#00010101001F0003
(1493279388.721617) can0 1BFC38B3#8001648431001100
(1493279388.721866) can0 1BFC38B2#8001648483830056
(1493279388.726742) can0 1FD#0000000000000000
(1493279388.727040) can0 30B#5F00110000000098
(1493279388.727240) can0 65E#8808FFC95FF50200
(1493279388.736281) can0 62F#4451000A1C
(1493279388.739106) can0 3C0#6A7E1335
(1493279388.765903) can0 608#F5835870A0D11A52
(1493279388.775767) can0 30B#5F00110000000098
(1493279388.785390) can0 1FD#0000000000000000
(1493279388.816141) can0 49D#FAA29E2A684D5F
(1493279388.826138) can0 6C7#04051101020000
(1493279388.826389) can0 30B#5F00110000000098
(1493279388.826625) can0 5F2#BD00
(1493279388.826890) can0 630#33EB0103010000
(1493279388.842784) can0 3C0#6A7E1335
(1493279388.845293) can0 1FD#0000000000000000
(1493279388.866150) can0 192#00CF0821F5317C
(1493279388.875780) can0 30B#5F00110000000098
(1493279388.905262) can0 1FD#0000000000000000
(1493279388.916297) can0 2C2#6D9B
(1493279388.926168) can0 30B#5F00110000000098
(1493279388.946255) can0 3C0#6A7E1335
(1493279388.965293) can0 1FD#0000000000000000
(1493279388.966470) can0 39A#E6A3F837EA
(1493279388.967524) can0 1BFC38B1#0000000000000000
(1493279388.967866) can0 1BFC38BB#FFFFFFFFFFFFFFFF
(1493279388.968161) can0 1BFC38BA#535553500000001A
(1493279388.968528) can0 1BFC38B9#030296408005A3F4
(1493279388.968767) can0 1BFC38B8#0000000800000000
(1493279388.969156) can0 1BFC38B7#80016484A50A028D
(1493279388.969402) can0 1BFC38B6#0000188900000000
(1493279388.969774) can0 1BFC38B5#0502FF9202028292
(1493279388.970143) can0 1BFC38B4#00010101001F0003
(1493279388.970388) can0 1BFC38B3#8001648431001100
(1493279388.970620) can0 1BFC38B2#8001648483830056
(1493279388.976542) can0 30B#5F00110000000098
(1493279389.016530) can0 353#87AD6D658B1A52
(1493279389.026135) can0 6C7#04051101020000
(1493279389.026388) can0 1FD#0000000000000000
(1493279389.026624) can0 30B#5F00110000000098
(1493279389.026881) can0 5F2#BF00
(1493279389.049623) can0 3C0#6A7E1335
(1493279389.066635) can0 5DD#ED1ECF1A4756C70E
(1493279389.075906) can0 30B#5F00110000000098
(1493279389.085650) can0 1FD#0000000000000000
(1493279389.116905) can0 32C#CBD7D94335617541
(1493279389.126134) can0 30B#5F00110000000098
(1493279389.145258) can0 1FD#0000000000000000
(1493279389.153126) can0 3C0#6A7E1335
(1493279389.167040) can0 591#D5
(1493279389.175878) can0 30B#5F00110000000098
(1493279389.205260) can0 1FD#0000000000000000
(1493279389.217138) can0 0B8#97BFF46F4B3AD330
(1493279389.218763) can0 1BFC38B1#0000000000000000
(1493279389.219132) can0 1BFC38BB#FFFFFFFFFFFFFFFF
(1493279389.219370) can0 1BFC38BA#535553500000001A
(1493279389.219637) can0 1BFC38B9#030296408005A3F4
(1493279389.220015) can0 1BFC38B8#0000000800000000
(1493279389.220385) can0 1BFC38B7#80016484A50A028D
(1493279389.220637) can0 1BFC38B6#0000188C001F0003
(1493279389.221037) can0 1BFC38B5#0502FF9202028292
(1493279389.221259) can0 1BFC38B4#00010101001F0003
(1493279389.221618) can0 1BFC38B3#8001648431003322
(1493279389.221878) can0 1BFC38B2#80016484838380DA
(1493279389.226643) can0 6C7#04051101020000
(1493279389.227023) can0 30B#5F00110000000098
(1493279389.227136) can0 5F2#C200
(1493279389.227393) can0 643#000200
(1493279389.227637) can0 64E#00B1040000000000
(1493279389.227896) can0 65E#8808FF8889730500
(1493279389.228127) can0 6B8#6D08000000000000
(1493279389.228493) can0 6BC#C2824551324C078E
(1493279389.257022) can0 3C0#6A7E1335
(1493279389.265259) can0 1FD#0000000000000000
(1493279389.267278) can0 096#406C4F485853C768
(1493279389.275876) can0 30B#5F00110000000098
(1493279389.317435) can0 50A#F50B0E60A4F87D61
(1493279389.326273) can0 1FD#0000000000000000
(1493279389.326525) can0 30B#5F00110000000098
(1493279389.326939) can0 631#34C37807FE000000
(1493279389.327118) can0 62D#34837801F8000000
(1493279389.335514) can0 6B6#390C1C000A1C
(1493279389.335765) can0 6B7#BEB4000008FF80FE
(1493279389.360639) can0 3C0#6A7E1335
(1493279389.367527) can0 643#8FC7B0099629D01D
(1493279389.375902) can0 30B#5F00110000000098
(1493279389.385387) can0 1FD#0000000000000000
(1493279389.417649) can0 062#214422604006
(1493279389.426274) can0 6C7#04051101020000
(1493279389.426518) can0 30B#5F00110000000098
(1493279389.426641) can0 5F2#C300
(1493279389.445272) can0 1FD#0000000000000000
(1493279389.464619) can0 3C0#6A7E1335
(1493279389.467527) can0 1BFC38B1#0000000000000000
(1493279389.467728) can0 73E#875C0B676B123121
(1493279389.467861) can0 1BFC38BB#FFFFFFFFFFFFFFFF
(1493279389.468382) can0 1BFC38BA#535553500000001A
(1493279389.468587) can0 1BFC38B9#030296408005A3F4
(1493279389.469016) can0 1BFC38B8#0000000800000000
(1493279389.469380) can0 1BFC38B7#80016484A50A028D
(1493279389.469586) can0 1BFC38B6#0000188E001F34A8
(1493279389.469987) can0 1BFC38B5#0502FF9202028292
(1493279389.470228) can0 1BFC38B4#00010101001F0003
(1493279389.470607) can0 1BFC38B3#8001648431003322
(1493279389.470856) can0 1BFC38B2#80016484838380DA
(1493279389.476512) can0 30B#5F00110000000098
(1493279389.505258) can0 1FD#0000000000000000
(1493279389.517897) can0 0D8#A073A6
(1493279389.526260) can0 30B#5F00110000000098
(1493279389.565261) can0 1FD#0000000000000000
(1493279389.567963) can0 014#9830D118CC
(1493279389.568499) can0 3C0#6A7E1335
(1493279389.575907) can0 30B#5F00110000000098
(1493279389.618153) can0 444#
(1493279389.626137) can0 6C7#04051101020000
(1493279389.626388) can0 1FD#0000000000000000
(1493279389.626627) can0 30B#5F00110000000098
(1493279389.626876) can0 5F2#C500
(1493279389.668252) can0 6C8#32803765D24329
(1493279389.672261) can0 3C0#6A7E1335
(1493279389.675914) can0 30B#5F00110000000098
(1493279389.685668) can0 1FD#0000000000000000
(1493279389.718525) can0 705#763CA749485D6420
(1493279389.718759) can0 1BFC38B1#0000000000000000
(1493279389.719272) can0 1BFC38BB#FFFFFFFFFFFFFFFF
(1493279389.719474) can0 1BFC38BA#535553500000001A
(1493279389.719897) can0 1BFC38B9#040096408008FC68
(1493279389.720137) can0 1BFC38B8#0000000800000000
(1493279389.720531) can0 1BFC38B7#80016484250202C9
(1493279389.720768) can0 1BFC38B6#0000189100000000
(1493279389.721164) can0 1BFC38B5#0502FF9202028292
(1493279389.721539) can0 1BFC38B4#00010101001F0003
(1493279389.721800) can0 1BFC38B3#8001648431003322
(1493279389.722165) can0 1BFC38B2#80016484838380DA
(1493279389.726757) can0 30B#5F00110000000098
(1493279389.727024) can0 65E#88089476A7410800
(1493279389.736295) can0 62F#4451000A1D
(1493279389.745258) can0 1FD#0000000000000000
(1493279389.768504) can0 403#DE86343E66
(1493279389.775614) can0 3C0#6A7E1335
(1493279389.775860) can0 30B#5F00110000000098
(1493279389.805257) can0 1FD#0000000000000000
(1493279389.818775) can0 11C#
(1493279389.826126) can0 6C7#04051101020000
(1493279389.826365) can0 30B#5F00110000000098
(1493279389.826647) can0 5F2#C600
(1493279389.865291) can0 1FD#0000000000000000
(1493279389.868894) can0 60E#C50AA64FE68E836E
(1493279389.875882) can0 30B#5F00110000000098
(1493279389.878869) can0 3C0#6A7E1335
(1493279389.919027) can0 380#504DBF5F94
(1493279389.926130) can0 1FD#0000000000000000
(1493279389.926521) can0 30B#5F00110000000098
(1493279389.967523) can0 1BFC38B1#0000000000000000
(1493279389.967885) can0 1BFC38BB#FFFFFFFFFFFFFFFF
(1493279389.968287) can0 1BFC38BA#0000000700000014
(1493279389.968509) can0 1BFC38B9#040096408008FC68
(1493279389.968856) can0 1BFC38B8#0000000800000000
(1493279389.969139) can0 4DA#6194BE381EA1E85C
(1493279389.969142) can0 1BFC38B7#80016484250202C9
(1493279389.969528) can0 1BFC38B6#0000189300000000
(1493279389.970015) can0 1BFC38B5#0502FF9202028292
(1493279389.970396) can0 1BFC38B4#00010101001F0003
(1493279389.970622) can0 1BFC38B3#8001648431003322
(1493279389.970881) can0 1BFC38B2#80016484838380DA
(1493279389.976642) can0 30B#5F00110000000098
(1493279389.982246) can0 3C0#6A7E1335
(1493279389.985542) can0 1FD#0000000000000000
(1493279390.019301) can0 618#F8CD5859E0EC191B
(1493279390.026260) can0 6C7#04051101020000
(1493279390.026494) can0 30B#5F00110000000098
(1493279390.026621) can0 5F2#C800
(1493279390.045263) can0 1FD#0000000000000000
(1493279390.069425) can0 6D0#B2304303D5652F1A
(1493279390.075914) can0 30B#5F00110000000098
(1493279390.085628) can0 3C0#6A7E1335
(1493279390.105288) can0 1FD#0000000000000000
(1493279390.119541) can0 253#1DC3933A56162261
(1493279390.126393) can0 30B#5F00110000000098
(1493279390.165264) can0 1FD#0000000000000000
(1493279390.175918) can0 30B#5F00110000000098
(1493279390.189346) can0 3C0#6A7E1335
(1493279390.218778) can0 1BFC38B1#0000000000000000
(1493279390.219157) can0 1BFC38BB#FFFFFFFFFFFFFFFF
(1493279390.219384) can0 1BFC38BA#0000000700000014
(1493279390.219650) can0 1BFC38B9#040096408008FC68
(1493279390.220002) can0 1BFC38B8#0000000800000000
(1493279390.220281) can0 1BFC38B7#80016484250202C9
(1493279390.220713) can0 1BFC38B6#00001896001F0003
(1493279390.221038) can0 1BFC38B5#0502FF9202028292
(1493279390.221227) can0 1BFC38B4#00010101001F0003
(1493279390.221614) can0 1BFC38B3#8001648432408877
(1493279390.221875) can0 1BFC38B2#80016484838300F2
(1493279390.226652) can0 6C7#04051101020000
(1493279390.226886) can0 1FD#0000000000000000
(1493279390.227288) can0 30B#5F00110000000098
(1493279390.227395) can0 5F2#C800
(1493279390.227636) can0 643#000200
(1493279390.227903) can0 64E#00B1040000000000
(1493279390.228137) can0 65E#88084F958BE10900
(1493279390.228518) can0 6B8#6D08000000000000
(1493279390.228754) can0 6BC#C2824551324C0792
(1493279390.275923) can0 30B#5F00110000000098
(1493279390.285346) can0 1FD#0000000000000000
(1493279390.293017) can0 3C0#6A7E1335
(1493279390.326382) can0 30B#5F00110000000098
(1493279390.335884) can0 6B6#390C1C000A1D
(1493279390.336137) can0 6B7#BEB4000008FF80FE
(1493279390.345262) can0 1FD#0000000000000000
(1493279390.375887) can0 30B#5F00110000000098
(1493279390.396379) can0 3C0#6A7E1335
(1493279390.405287) can0 1FD#0000000000000000
(1493279390.426256) can0 6C7#04051101020000
(1493279390.426497) can0 30B#5F00110000000098
(1493279390.426626) can0 5F2#C900
(1493279390.465259) can0 1FD#0000000000000000
(1493279390.467636) can0 1BFC38B1#0000000000000000
(1493279390.467873) can0 1BFC38BB#FFFFFFFFFFFFFFFF
(1493279390.468255) can0 1BFC38BA#0000000700000014
(1493279390.468508) can0 1BFC38B9#040096408008FC68
(1493279390.468888) can0 1BFC38B8#0000000800000000
(1493279390.469133) can0 1BFC38B7#80016484250202C9
(1493279390.469513) can0 1BFC38B6#0000189802028292
(1493279390.469756) can0 1BFC38B5#0502FF9202028292
(1493279390.470136) can0 1BFC38B4#00010101001F0003
(1493279390.470385) can0 1BFC38B3#8001648432408877
(1493279390.470771) can0 1BFC38B2#80016484838300F2
(1493279390.476668) can0 30B#5F00110000000098
(1493279390.499723) can0 3C0#6A7E1335
(1493279390.526384) can0 1FD#0000000000000000
(1493279390.526636) can0 30B#5F00110000000098
(1493279390.575887) can0 30B#5F00110000000098
(1493279390.585415) can0 1FD#0000000000000000
(1493279390.603371) can0 3C0#6A7E1335
(1493279390.626132) can0 6C7#04051101020000
(1493279390.626363) can0 30B#5F00110000000098
(1493279390.626500) can0 5F2#C900
(1493279390.645269) can0 1FD#0000000000000000
(1493279390.675886) can0 30B#5F00110000000098
(1493279390.705231) can0 1FD#0000000000000000
(1493279390.706879) can0 3C0#6A7E1335
(1493279390.718914) can0 1BFC38B1#0000000000000000
(1493279390.719135) can0 1BFC38BB#FFFFFFFFFFFFFFFF
(1493279390.719519) can0 1BFC38BA#0000000700000014
(1493279390.719884) can0 1BFC38B9#050296408005A3F4
(1493279390.720147) can0 1BFC38B8#0000000800000000
(1493279390.720530) can0 1BFC38B7#8001648425020205
(1493279390.720760) can0 1BFC38B6#0000189B00000000
(1493279390.721147) can0 1BFC38B5#0502FF9202028292
(1493279390.721367) can0 1BFC38B4#00010101001F0003
(1493279390.721740) can0 1BFC38B3#8001648432408877
(1493279390.722113) can0 1BFC38B2#80016484838300F2
(1493279390.726912) can0 30B#5F00110000000098
(1493279390.727143) can0 65E#8808B6A5581C0800
(1493279390.736479) can0 62F#4451000A1E
(1493279390.765417) can0 1FD#0000000000000000
(1493279390.775880) can0 30B#5F00110000000098
(1493279390.810629) can0 3C0#6A7E1335
(1493279390.826386) can0 6C7#04051101020000
(1493279390.826616) can0 1FD#0000000000000000
(1493279390.826914) can0 30B#5F00110000000098
(1493279390.827105) can0 5F2#C900
(1493279390.827376) can0 630#33C203000F000403
(1493279390.875890) can0 30B#5F00110000000098
(1493279390.885395) can0 1FD#0000000000000000
(1493279390.914500) can0 3C0#6A7E1335
(1493279390.926410) can0 30B#5F00110000000098
(1493279390.945270) can0 1FD#0000000000000000
(1493279390.967631) can0 1BFC38B1#0000000000000000
(1493279390.968037) can0 1BFC38BB#FFFFFFFFFFFFFFFF
(1493279390.968248) can0 1BFC38BA#535553500000001A
(1493279390.968649) can0 1BFC38B9#050296408005A3F4
(1493279390.968881) can0 1BFC38B8#0000000800000000
(1493279390.969255) can0 1BFC38B7#8001648425020205
(1493279390.969509) can0 1BFC38B6#0000189D00000000
(1493279390.969882) can0 1BFC38B5#0502FF9202028292
(1493279390.970152) can0 1BFC38B4#00010101001F0003
(1493279390.970518) can0 1BFC38B3#8001648432408877
(1493279390.970718) can0 1BFC38B2#80016484838300F2
(1493279390.976646) can0 30B#5F00110000000098
(1493279391.005292) can0 1FD#0000000000000000
(1493279391.018133) can0 3C0#6A7E1335
(1493279391.026288) can0 6C7#04051101020000
(1493279391.026507) can0 30B#5F00110000000098
(1493279391.026739) can0 5F2#C900
(1493279391.065389) can0 1FD#0000000000000000
(1493279391.076010) can0 30B#5F00110000000098
(1493279391.121890) can0 3C0#6A7E1335
(1493279391.126295) can0 1FD#0000000000000000
(1493279391.126612) can0 30B#5F00110000000098
(1493279391.176005) can0 30B#5F00110000000098
(1493279391.185537) can0 1FD#0000000000000000
(1493279391.218766) can0 1BFC38B1#0000000000000000
(1493279391.219133) can0 1BFC38BB#FFFFFFFFFFFFFFFF
(1493279391.219364) can0 1BFC38BA#535553500000001A
(1493279391.219758) can0 1BFC38B9#050296408005A3F4
(1493279391.220144) can0 1BFC38B8#0000000800000000
(1493279391.220382) can0 1BFC38B7#8001648425020205
(1493279391.220763) can0 1BFC38B6#000018A0001F0003
(1493279391.221033) can0 1BFC38B5#0502FF9202028292
(1493279391.221407) can0 1BFC38B4#00010101001F0003
(1493279391.221601) can0 1BFC38B3#800164843100DDCC
(1493279391.221988) can0 1BFC38B2#8001648483830078
(1493279391.225751) can0 3C0#6A7E1335
(1493279391.226719) can0 6C7#04051101020000
(1493279391.227099) can0 30B#5F00110000000098
(1493279391.227210) can0 5F2#C900
(1493279391.227330) can0 643#000200
(1493279391.227726) can0 64E#00B1040000000000
(1493279391.227963) can0 65E#8808354574CF0900
(1493279391.228277) can0 6B8#6D08000000000000
(1493279391.228525) can0 6BC#C2824551324C0798
(1493279391.245414) can0 1FD#0000000000000000
(1493279391.276012) can0 30B#5F00110000000098
(1493279391.305387) can0 1FD#0000000000000000
(1493279391.326385) can0 30B#5F00110000000098
(1493279391.326608) can0 631#34C414
(1493279391.326883) can0 62D#348414
(1493279391.329525) can0 3C0#6A7E1335
(1493279391.335660) can0 6B6#390C1C000A1E
(1493279391.335884) can0 6B7#BEB4000008FF80FE
(1493279391.365412) can0 1FD#0000000000000000
(1493279391.376060) can0 30B#5F00110000000098
(1493279391.426284) can0 6C7#04051101020000
(1493279391.426501) can0 1FD#0000000000000000
(1493279391.426746) can0 30B#5F00110000000098
(1493279391.427010) can0 5F2#CA00
(1493279391.432628) can0 3C0#6A7E1335
(1493279391.467636) can0 1BFC38B1#0000000000000000
(1493279391.468041) can0 1BFC38BB#FFFFFFFFFFFFFFFF
(1493279391.468241) can0 1BFC38BA#535553500000001A
(1493279391.468629) can0 1BFC38B9#050296408005A3F4
(1493279391.468882) can0 1BFC38B8#0000000800000000
(1493279391.469284) can0 1BFC38B7#8001648425020205
(1493279391.469628) can0 1BFC38B6#000018A2001F34A8
(1493279391.469924) can0 1BFC38B5#0502FF9202028292
(1493279391.470256) can0 1BFC38B4#00010101001F0003
(1493279391.470505) can0 1BFC38B3#800164843100DDCC
(1493279391.470716) can0 1BFC38B2#8001648483830078
(1493279391.476661) can0 30B#5F00110000000098
(1493279391.485380) can0 1FD#0000000000000000
(1493279391.526380) can0 30B#5F00110000000098
(1493279391.535850) can0 3C0#6A7E1335
(1493279391.545415) can0 1FD#0000000000000000
(1493279391.576013) can0 30B#5F00110000000098
(1493279391.605378) can0 1FD#0000000000000000
(1493279391.626265) can0 6C7#04051101020000
(1493279391.626457) can0 30B#5F00110000000098
(1493279391.626578) can0 5F2#CA00
(1493279391.639587) can0 3C0#6A7E1335
(1493279391.665381) can0 1FD#0000000000000000
(1493279391.676001) can0 30B#5F00110000000098
(1493279391.718887) can0 1BFC38B1#0000000000000000
(1493279391.719138) can0 1BFC38BB#FFFFFFFFFFFFFFFF
(1493279391.719517) can0 1BFC38BA#535553500000001A
(1493279391.719716) can0 1BFC38B9#060096408008FC68
(1493279391.720148) can0 1BFC38B8#0000000800000000
(1493279391.720350) can0 1BFC38B7#8001648425020241
(1493279391.720739) can0 1BFC38B6#000018A500000000
(1493279391.721111) can0 1BFC38B5#0502FF9202028292
(1493279391.721374) can0 1BFC38B4#00010101001F0003
(1493279391.721638) can0 1BFC38B3#800164843100DDCC
(1493279391.722016) can0 1BFC38B2#8001648483830078
(1493279391.726894) can0 1FD#0000000000000000
(1493279391.727105) can0 30B#5F00110000000098
(1493279391.727434) can0 65E#88089BC8A3780700
(1493279391.736521) can0 62F#4451000A1F
(1493279391.743386) can0 3C0#6A7E1335
(1493279391.776009) can0 30B#5F00110000000098
(1493279391.785505) can0 1FD#0000000000000000
(1493279391.826296) can0 6C7#04051101020000
(1493279391.826499) can0 30B#5F00110000000098
(1493279391.826605) can0 5F2#CA00
(1493279391.845394) can0 1FD#0000000000000000
(1493279391.847245) can0 3C0#6A7E1335
(1493279391.875986) can0 30B#5F00110000000098
(1493279391.905395) can0 1FD#0000000000000000
(1493279391.926261) can0 30B#5F00110000000098
(1493279391.951352) can0 3C0#6A7E1335
(1493279391.965381) can0 1FD#0000000000000000
(1493279391.967663) can0 1BFC38B1#0000000000000000
(1493279391.967963) can0 1BFC38BB#FFFFFFFFFFFFFFFF
(1493279391.968381) can0 1BFC38BA#0000000700000014
(1493279391.968633) can0 1BFC38B9#060096408008FC68
(1493279391.969012) can0 1BFC38B8#0000000800000000
(1493279391.969283) can0 1BFC38B7#8001648425020241
(1493279391.969641) can0 1BFC38B6#000018A700000000
(1493279391.969875) can0 1BFC38B5#0502FF9202028292
(1493279391.970236) can0 1BFC38B4#00010101001F0003
(1493279391.970487) can0 1BFC38B3#800164843100DDCC
(1493279391.970862) can0 1BFC38B2#8001648483830078
(1493279391.976764) can0 30B#5F00110000000098
(1493279392.026379) can0 6C7#04051101020000
(1493279392.026621) can0 1FD#0000000000000000
(1493279392.026866) can0 30B#5F00110000000098
(1493279392.027133) can0 5F2#CA00
(1493279392.055101) can0 3C0#6A7E1335
(1493279392.076084) can0 30B#5F00110000000098
(1493279392.085506) can0 1FD#0000000000000000
(1493279392.126239) can0 30B#5F00110000000098
