(1494582032.060935) can0 565#2233A853558CD23C
(1494582032.062050) can0 2FB#B9A74F00E4898C6B
(1494582032.063051) can0 0C6#1FD3DF5BC0DDF034
(1494582032.064295) can0 764#550A137C12CA820D
(1494582032.065422) can0 2C8#ABCE00464B72CA66
(1494582032.066575) can0 09C#01
(1494582032.067698) can0 72C#
(1494582032.068722) can0 477#AAB41910DCA9D44A
(1494582032.069691) can0 5F7#3236A707F2704F39
(1494582032.070818) can0 50A#D6FADB24D0D59770
(1494582032.071940) can0 62A#90B388258E1D
(1494582032.073068) can0 605#A0E7720BCD
(1494582032.074065) can0 110#18831B50AC91764E
(1494582032.075193) can0 77D#D82A9702A9EE0271
(1494582032.076319) can0 279#ED
(1494582032.077319) can0 349#CD48032240A1BC
(1494582032.078424) can0 163#33120C6E6D46552B
(1494582032.079560) can0 4EA#3E1CED1B14C30C5F
(1494582032.080675) can0 2FF#A3E0FC5C0579E45F
(1494582032.081673) can0 5B4#D28935
(1494582032.082796) can0 68F#71B045700C266172
(1494582032.083918) can0 704#B51464637EC1392C
(1494582032.084921) can0 51A#6E60
(1494582032.085207) can0 6C7#010104010C0000
(1494582032.085585) can0 1FD#0000000000000000
(1494582032.086043) can0 339#A431BD079D3CFD4C
(1494582032.086044) can0 30B#0000000000000080
(1494582032.086454) can0 5F2#0000
(1494582032.086830) can0 643#000200
(1494582032.087169) can0 03A#0A8352782485B7
(1494582032.087170) can0 64E#0000000000000000
(1494582032.087581) can0 65E#0000000000000000
(1494582032.088082) can0 6B8#6D08000000000000
(1494582032.088331) can0 0E1#3948C45FE02B551C
(1494582032.088433) can0 6BC#0000000000000000
(1494582032.089335) can0 717#E5A4397CCBFCC638
(1494582032.090460) can0 11F#8F1B965AAF6F145F
(1494582032.091581) can0 3A3#
(1494582032.092732) can0 749#25
(1494582032.093670) can0 413#C84C5A7B
(1494582032.094957) can0 5CF#EA9B5C3E0A96D176
(1494582032.095962) can0 244#2E1B8977
(1494582032.097051) can0 63D#053FE71D542DA4
(1494582032.098198) can0 443#1F2A6B59637D3F39
(1494582032.099292) can0 2A3#12ED5318464E503E
(1494582032.100458) can0 1AF#EDF0FD10F8B8953C
(1494582032.101582) can0 53E#5C75EF
(1494582032.102708) can0 1A7#9FE8761F
(1494582032.103673) can0 091#801DC230D502425C
(1494582032.104979) can0 37D#FA15D45DBA61715F
(1494582032.105955) can0 416#0E8F15005A28A713
(1494582032.107073) can0 0EA#BDA5E64C8D4B6C75
(1494582032.108060) can0 6DC#D399BC338B105F0C
(1494582032.109232) can0 59C#83
(1494582032.110493) can0 7D4#
(1494582032.111479) can0 104#F180C52095418F71
(1494582032.112607) can0 155#6A44
(1494582032.113692) can0 721#8D3EFD0C
(1494582032.114847) can0 764#919B120D4EE83C3D
(1494582032.115980) can0 6C9#DC33A932A5851574
(1494582032.116998) can0 41D#30967400BAE9370E
(1494582032.118101) can0 070#952CDF
(1494582032.119067) can0 693#BF31
(1494582032.120197) can0 58E#2D
(1494582032.121326) can0 123#B5C368194428B552
(1494582032.122452) can0 7FC#7B9B
(1494582032.123574) can0 7DE#AF171F55A7560C1A
(1494582032.124759) can0 05B#4CDC210E794C6072
(1494582032.125731) can0 13A#33369800AB714E19
(1494582032.126499) can0 1BFC3800#0355010000000000
(1494582032.126998) can0 22F#EFA90E19C3704D4F
(1494582032.127944) can0 38A#5B10C9541809E966
(1494582032.129078) can0 660#FBEFC55283DFE05F
(1494582032.130081) can0 720#
(1494582032.131200) can0 5F3#7DC6
(1494582032.132345) can0 24F#78DC1960AB52160B
(1494582032.133436) can0 1B7#249F767D
(1494582032.134453) can0 340#9DB4777D6FFDD1
(1494582032.134456) can0 30B#0000000000000080
(1494582032.135579) can0 01F#326E1F24A9939B0E
(1494582032.136699) can0 23B#C19C84759BC8281D
(1494582032.137844) can0 016#1EA8097D36876C55
(1494582032.138951) can0 06C#531E9E565F
(1494582032.140089) can0 328#30
(1494582032.141109) can0 2FD#22805611B5ECDF53
(1494582032.142203) can0 16C#A72F0938AC3C
(1494582032.143308) can0 49D#1C3A152D
(1494582032.144324) can0 1FD#0000000000000000
(1494582032.144437) can0 2D0#65C0FD150C7D3162
(1494582032.145618) can0 6DC#A7455A7FF296
(1494582032.146584) can0 1E2#281E46644F2A
(1494582032.147703) can0 5AB#AE20544FD3F0595A
(1494582032.148851) can0 14D#4B1E9A604AE47A08
(1494582032.149967) can0 587#FFD05A5CF4061625
(1494582032.151108) can0 5B4#A043597D51B2
(1494582032.152203) can0 4EA#0EDFFB14BB27EC15
(1494582032.153339) can0 60B#C7A41D
(1494582032.154467) can0 49A#D9E399547CE6480A
(1494582032.155453) can0 034#CB
(1494582032.156592) can0 67D#B366397ACA5F5A1E
(1494582032.157716) can0 659#1544D526E0C3F707
(1494582032.158826) can0 36C#D4CA0D2D
(1494582032.159953) can0 5BB#71931B5BA5
(1494582032.160950) can0 431#602265773CB27850
(1494582032.162089) can0 1F3#23FF38168D0E8D
(1494582032.163214) can0 196#09F5D55BCA89D65A
(1494582032.164341) can0 4FE#AAFFB57A7B
(1494582032.165466) can0 74F#4683D135A8059B0E
(1494582032.166453) can0 35C#88C99216C80E871C
(1494582032.167596) can0 46F#E8EF086A2AF26A77
(1494582032.168700) can0 2D2#D0ECE358032FDD42
(1494582032.169816) can0 5D9#
(1494582032.170943) can0 658#5916DA
(1494582032.172090) can0 360#B8119D
(1494582032.173078) can0 138#D9CB8B
(1494582032.174213) can0 7C1#2F4EF84A1D630541
(1494582032.175341) can0 67A#E6718C5DEAF2DA
(1494582032.176453) can0 414#14E54539E64E3313
(1494582032.177079) can0 1BFC3800#05530C0000000000
(1494582032.177453) can0 528#EA7D1056
(1494582032.178578) can0 115#CEE242126DB73E22
(1494582032.179699) can0 78D#5B3F0549ED025727
(1494582032.180839) can0 48B#4BAB6B
(1494582032.181992) can0 276#4A5E3F5A37
(1494582032.183091) can0 644#553D3D79BFDC5816
(1494582032.184216) can0 430#A9CF33584570EE2B
(1494582032.184323) can0 30B#0000000000000080
(1494582032.185261) can0 109#2BBF213F32F6182B
(1494582032.186317) can0 6A2#34D10E6DB7
(1494582032.187453) can0 43F#241F
(1494582032.188578) can0 52A#BADEE438B5B13B65
(1494582032.189748) can0 792#78C71D030912
(1494582032.190831) can0 12B#40EC
(1494582032.191953) can0 23B#2EA4F5116C
(1494582032.192953) can0 0D0#B1064635DAE98F
(1494582032.194109) can0 095#0CE0A85437AF461F
(1494582032.194194) can0 6B6#390C1C000226
(1494582032.194708) can0 6B7#90B9E000080080FE
(1494582032.195214) can0 2F2#
(1494582032.196340) can0 542#FE7A
(1494582032.197497) can0 491#22C4B3592344097B
(1494582032.198591) can0 3BF#2C56FB7DEAE43D32
(1494582032.199597) can0 15D#59ACDA2D9983C33C
(1494582032.200715) can0 402#051A1B46D344BD78
(1494582032.201816) can0 45F#AD2E4D22F4EC
(1494582032.202964) can0 692#2B9CE34484E96279
(1494582032.204126) can0 7F9#B68895013B25B779
(1494582032.204174) can0 1FD#0000000000000000
(1494582032.205218) can0 12B#A8372F6E
(1494582032.206328) can0 56D#E0C108722C41F158
(1494582032.207466) can0 766#16262F0BC338E35E
(1494582032.208453) can0 279#
(1494582032.209587) can0 2F8#4F
(1494582032.210735) can0 717#4CD47048AADDEB4C
(1494582032.211826) can0 0B5#2EC74E46AE0864
(1494582032.212952) can0 391#E92D1B5B
(1494582032.214077) can0 399#798A
(1494582032.215204) can0 15D#33F2262AC3E8E135
(1494582032.216339) can0 465#8621C514DFBEBD31
(1494582032.217307) can0 2B9#5B8573
(1494582032.218453) can0 444#09F50D0A5CAB506F
(1494582032.219573) can0 2A6#06893C3C5B
(1494582032.220704) can0 1CC#091CC113
(1494582032.221843) can0 019#1A6A
(1494582032.222951) can0 784#B8A4DF
(1494582032.224077) can0 0EC#A4F9357F51A59C4E
(1494582032.225080) can0 735#30645A00EE99BC4C
(1494582032.226341) can0 10E#A0A7F63352AD9456
(1494582032.227312) can0 235#AE58E545DB445B2A
(1494582032.228460) can0 5FE#3658B85C
(1494582032.229576) can0 1E9#28FDBE4702D21C4F
(1494582032.230702) can0 632#B4C5
(1494582032.231849) can0 3D5#987ED060C19C2F42
(1494582032.232949) can0 158#1242CC108DB00903
(1494582032.234081) can0 367#7B4AC6
(1494582032.234329) can0 30B#0000000000000080
(1494582032.235089) can0 7CE#C839FD0E040AA97A
(1494582032.236219) can0 6C4#DF4E0425C2F4
(1494582032.237328) can0 42B#8D949B4214A6
(1494582032.238468) can0 355#1678CE2A87
(1494582032.239578) can0 0F7#3E470869CC543155
(1494582032.240703) can0 036#8DF160178EA9
(1494582032.241822) can0 612#1B5AF24A7AD1E01D
(1494582032.242952) can0 1E2#EF5D4956B16948
(1494582032.243968) can0 6B2#B573F10D772537
(1494582032.245091) can0 22E#391A7C32
(1494582032.246201) can0 1AA#6D44DF6C0085
(1494582032.247328) can0 07B#875E74
(1494582032.248336) can0 24D#3E8EAD2D83
(1494582032.249590) can0 39B#124C672AAEA93455
(1494582032.250587) can0 36B#287B15734D8D8F26
(1494582032.251709) can0 2C4#FEF6D73977E187
(1494582032.252872) can0 0CF#EE06BF
(1494582032.254005) can0 548#5639FC79F29671
(1494582032.254985) can0 7EE#F21B5A
(1494582032.256105) can0 246#DC49410E9334CC3D
(1494582032.257244) can0 03F#16D74A20DB8BA05B
(1494582032.258369) can0 7E6#8935D530510B396E
(1494582032.259477) can0 156#9E
(1494582032.260623) can0 1C8#91F5A57E97FAEE1B
(1494582032.261703) can0 250#9495BD0498272911
(1494582032.262840) can0 5A7#8BBE9A4095EDF204
(1494582032.263954) can0 4AD#FEFDB73AF3861E64
(1494582032.264204) can0 1FD#0000000000000000
(1494582032.264950) can0 4F7#86BBEA2137750E16
(1494582032.266105) can0 7F5#1201AF71DB77E505
(1494582032.267230) can0 5C5#2C831E741B7FF34C
(1494582032.268325) can0 74C#3693111D1471B833
(1494582032.269329) can0 367#AC6BA74FB8A5F1
(1494582032.270607) can0 547#
(1494582032.271731) can0 02B#8390AF7CD81CB438
(1494582032.272876) can0 659#CC
(1494582032.273979) can0 65C#8730
(1494582032.275092) can0 1EF#2C6E2E0BB5A7DA0D
(1494582032.276254) can0 034#D026CE5A804F1E2D
(1494582032.277230) can0 522#95C0D6608AB8
(1494582032.277495) can0 1BFC38B1#0000000000000000
(1494582032.277949) can0 1BFC38BB#FFFFFFFFFFFFFFFF
(1494582032.278206) can0 1BFC38BA#0000000700000014
(1494582032.278320) can0 2CE#42
(1494582032.278573) can0 1BFC38B9#040096408008FC68
(1494582032.278952) can0 1BFC38B8#0000000800000000
(1494582032.279328) can0 1BFC38B7#800164842502021E
(1494582032.279448) can0 581#036B
(1494582032.279549) can0 1BFC38B6#0000003300000000
(1494582032.280120) can0 1BFC38B5#0502FF0001020000
(1494582032.280329) can0 1BFC38B4#FF00000000000000
(1494582032.280578) can0 76E#851AB610C71D
(1494582032.280695) can0 1BFC38B3#8001648404003322
(1494582032.280952) can0 1BFC38B2#80016484838300BB
(1494582032.281715) can0 207#17
(1494582032.282827) can0 5A3#B456316E930F396D
(1494582032.283951) can0 338#
(1494582032.284326) can0 6C7#01010401040000
(1494582032.284705) can0 30B#0000000000000080
(1494582032.284796) can0 5F2#0000
(1494582032.284952) can0 638#EDF20A4A5BC3E000
(1494582032.286119) can0 01F#E57B
(1494582032.287231) can0 7C3#02A30C1E450D43
(1494582032.288231) can0 5B9#F10A453827
(1494582032.289358) can0 18B#EEDAB76A9293
(1494582032.290451) can0 3C7#F6F30C556B01
(1494582032.291592) can0 5A5#FE100350DDF89C32
(1494582032.292716) can0 78B#4A9C894FC3C5
(1494582032.293827) can0 65E#1E892B367D3EBA6E
(1494582032.294944) can0 2BA#6A1913
(1494582032.296010) can0 72A#C32F1900E4E42340
(1494582032.297119) can0 271#0BA2B347
(1494582032.298233) can0 02B#8F675E30F243DD77
(1494582032.299369) can0 100#5D45A75AA5
(1494582032.300326) can0 62F#82E7B56BBAB54705
(1494582032.301475) can0 6A1#7E7B923A00C5B916
(1494582032.302583) can0 305#7D037405BF554A19
(1494582032.303705) can0 1A0#3D782039CAE8974C
(1494582032.304827) can0 154#
(1494582032.305960) can0 2B5#C2777D48E042F172
(1494582032.307076) can0 4B4#D2
(1494582032.308215) can0 2D6#
(1494582032.309201) can0 28B#C096384C2D41E165
(1494582032.310348) can0 7A8#2D069B7CAD8A7678
(1494582032.311481) can0 6DB#6DE0C0117B200F7F
(1494582032.312577) can0 692#4509A74BE7FF3C1B
(1494582032.313716) can0 0AB#ADA3801F
(1494582032.314840) can0 6AE#4026A4686233AD33
(1494582032.315953) can0 2C1#1651
(1494582032.316980) can0 142#9D161226CE9B0809
(1494582032.318119) can0 14A#FBDCE96EF3C8F37F
(1494582032.319236) can0 79C#A0536A7877D69E70
(1494582032.320349) can0 4D2#F2F6AD6F65132A45
(1494582032.321465) can0 4B8#4C136760638D2759
(1494582032.322486) can0 72C#C370DA4EDA1D8A40
(1494582032.323591) can0 268#3C5137
(1494582032.324329) can0 1FD#0000000000000000
(1494582032.324737) can0 415#C102
(1494582032.325808) can0 7C1#2659E22C0B51B83B
(1494582032.326953) can0 6BC#FE
(1494582032.328077) can0 149#D05CF2291B06E574
(1494582032.329216) can0 1AC#80190F
(1494582032.330343) can0 3FB#C7BB756C272BAD68
(1494582032.331499) can0 3C5#014937292EB64302
(1494582032.332597) can0 38D#5783034BA307C07D
(1494582032.333577) can0 48F#FBC49921503C4E68
(1494582032.334327) can0 30B#0000000000000080
(1494582032.334701) can0 777#5B
(1494582032.335841) can0 442#8CEC683A8B6D9971
(1494582032.336952) can0 4F9#A6737E66A5B60A52
(1494582032.338090) can0 520#0AE558651BF1F0
(1494582032.339079) can0 1F3#42
(1494582032.340215) can0 55C#E753A5
(1494582032.341309) can0 780#8C98AD7D0F3C2B0B
(1494582032.342465) can0 557#5F787973CEFC64
(1494582032.343576) can0 3A8#01637A57EACF0B58
(1494582032.344738) can0 514#753DA5490DC2FB0A
(1494582032.345841) can0 0EB#B378065D0B363A74
(1494582032.346953) can0 643#26272B4736F8B40B
(1494582032.348075) can0 68E#EF951661EACB4C21
(1494582032.349079) can0 0AB#D45C3A212BA8
(1494582032.350201) can0 115#
(1494582032.351339) can0 2E8#3A1B574790CEF22B
(1494582032.352465) can0 253#7B9EFE03680F3A77
(1494582032.353576) can0 5C9#
(1494582032.354579) can0 50C#BF9C2D1B4FCB784E
(1494582032.355699) can0 7E5#86C32D5A74
(1494582032.356822) can0 74D#5E721657F8
(1494582032.357965) can0 34C#2358
(1494582032.359076) can0 493#CD2257407B176855
(1494582032.360078) can0 0F6#0BE65A014AFB3F
(1494582032.361219) can0 442#B20A7A0B0C8A
(1494582032.362327) can0 077#C0F0277E83EDC4
(1494582032.363451) can0 650#
(1494582032.364576) can0 165#A9745144B358D060
(1494582032.365716) can0 5CE#AB08912D1A19B028
(1494582032.366704) can0 63A#7B1D1578CD7AF12A
(1494582032.367838) can0 52C#4892590023361E24
(1494582032.368951) can0 64F#6D315E38
(1494582032.370077) can0 4DA#9EC4CE3D515D0B5A
(1494582032.371208) can0 046#D54AD02A963E743E
(1494582032.372348) can0 2DE#CC0CFC4C4494FA50
(1494582032.373465) can0 001#F7ECCA31CF
(1494582032.374450) can0 07D#EA6E
(1494582032.375578) can0 671#85995F6B9E
(1494582032.376696) can0 4AE#C1299477FD4A7511
(1494582032.377952) can0 422#8F850F78FCA07B74
(1494582032.378967) can0 74D#4EFE864E93AF5245
(1494582032.380077) can0 78C#2AEEC6
(1494582032.381215) can0 4CB#AED61B18CCCC
(1494582032.382327) can0 46B#9B22087FE9
(1494582032.383328) can0 148#A103344FB9
(1494582032.384371) can0 1FD#0000000000000000
(1494582032.384590) can0 5EB#5703494099EA
(1494582032.384593) can0 30B#0000000000000080
(1494582032.385716) can0 0F4#9635A01B166DBA13
(1494582032.386724) can0 046#130E3608931F
(1494582032.387870) can0 553#27
(1494582032.388980) can0 584#4A
(1494582032.390107) can0 047#1B6F581AB2348757
(1494582032.391375) can0 19E#9B194D66E69A
(1494582032.392355) can0 33C#9FAA9C7A27411272
(1494582032.393486) can0 263#C02B3D7C578361
(1494582032.394607) can0 30F#6EF01B2A5663
(1494582032.395700) can0 47C#E9
(1494582032.396834) can0 2E2#
(1494582032.397974) can0 761#B5029D6CA8C74371
(1494582032.398955) can0 3F2#
(1494582032.400217) can0 386#7608F33FC226
(1494582032.401231) can0 333#E967AA4B96
(1494582032.402330) can0 10C#ED700F6B1C3C3868
(1494582032.403446) can0 500#729FCA427C11520B
(1494582032.404707) can0 7DC#4C336D00BE6A8C50
(1494582032.405703) can0 46C#24CBAF29CD83DD4B
(1494582032.406953) can0 7F5#764B213DE7539031
(1494582032.407964) can0 7A9#77
(1494582032.409078) can0 5C7#F2693017FA909D19
(1494582032.410342) can0 503#907E4B6E0FDEB153
(1494582032.411465) can0 585#2B1AEA3B855A870A
(1494582032.412467) can0 0D9#026CD915B6B00336
(1494582032.413578) can0 3F9#741B90066550BC47
(1494582032.414717) can0 14A#32D4991340C11F2B
(1494582032.415840) can0 472#2715B05C1CF4CE63
(1494582032.416949) can0 779#4C37672141C5AB0B
(1494582032.418078) can0 08C#3B5649258F1D5342
(1494582032.419057) can0 31A#9FFB0416A0D83446
(1494582032.420341) can0 44A#2533BC502315765B
(1494582032.421328) can0 768#D9C5791161AB4F
(1494582032.422453) can0 676#C6FB0B10C0370E44
(1494582032.423591) can0 7E7#00F92D6F597CD60E
(1494582032.424717) can0 7A1#7570A5721A57084B
(1494582032.425840) can0 4C7#5B
(1494582032.426950) can0 100#E3A2B1321ABC16
(1494582032.427972) can0 763#BA94
(1494582032.429092) can0 44C#
(1494582032.430239) can0 707#152F99337DA57962
(1494582032.431361) can0 7F8#3EDD8726DF8FC549
(1494582032.432453) can0 2D4#380C9C5875EAAB5B
(1494582032.433590) can0 466#8F41B4262DC9DB6D
(1494582032.434728) can0 46F#814E3A5E6F6DF22B
(1494582032.434966) can0 30B#0000000000000080
(1494582032.435826) can0 082#8A290914
(1494582032.436927) can0 7E6#92237A05
(1494582032.438113) can0 624#E7C7
(1494582032.439076) can0 30C#A992730904F35F48
(1494582032.440203) can0 1D8#E3822512AC1C1B
(1494582032.441328) can0 626#2107C7198C2A4527
(1494582032.442466) can0 3CA#
(1494582032.443653) can0 69B#A99D43411D774937
(1494582032.444325) can0 1FD#0000000000000000
(1494582032.444702) can0 39F#028F41
(1494582032.445828) can0 577#B7073252
(1494582032.446994) can0 6F7#C8F8F77F0322126A
(1494582032.448109) can0 69B#08
(1494582032.449215) can0 359#1F05DA597F41187F
(1494582032.450231) can0 707#
(1494582032.451376) can0 4F0#0B63AD7A8C
(1494582032.452625) can0 200#A9724929
(1494582032.453722) can0 7E7#24990A115E4DDF28
(1494582032.454842) can0 440#FA58DD0137AB7452
(1494582032.455972) can0 07A#3BCD
(1494582032.457090) can0 534#881FAE
(1494582032.458112) can0 22E#0C1AC04336A1E9
(1494582032.459278) can0 0E7#07D44548D88545
(1494582032.460361) can0 5DD#6481
(1494582032.461454) can0 7C6#7D5D9607ADFF2110
(1494582032.462615) can0 5B9#0C
(1494582032.463715) can0 77D#3155D57DF807
(1494582032.464737) can0 7C9#0D3FCD6AFDD4F447
(1494582032.465821) can0 4AF#8AAD9C0CDE7E
(1494582032.466995) can0 33D#1420CF3F25B4
(1494582032.468091) can0 5AD#FD39726A8A331660
(1494582032.469200) can0 32E#68
(1494582032.470369) can0 76E#A2620E5A28
(1494582032.471305) can0 786#224FC10D04A7A050
(1494582032.472483) can0 5B4#FCAE7E
(1494582032.473782) can0 6C0#7A2297526FCB476F
(1494582032.474705) can0 49F#4D4A2D4C
(1494582032.475838) can0 79A#02
(1494582032.476983) can0 67D#D218214AAB89195F
(1494582032.478116) can0 160#9FEC0529CE286874
(1494582032.479252) can0 51F#F6
(1494582032.480375) can0 6EF#AAA33260A4541264
(1494582032.481454) can0 16C#21A2B46E2C88
(1494582032.482454) can0 0AF#9B535B254F8DC43A
(1494582032.483579) can0 4A0#2C5D8F173B2C1050
(1494582032.484379) can0 6C7#01010401640000
(1494582032.484580) can0 30B#0000000000000080
(1494582032.484695) can0 04A#83111B3AC7669611
(1494582032.484697) can0 5F2#0000
(1494582032.485875) can0 72D#72F0AF708D
(1494582032.486969) can0 690#5B41
(1494582032.488125) can0 453#55E8
(1494582032.489253) can0 46A#E77F0017D6EDED4F
(1494582032.490343) can0 6A5#02760106551F2B7D
(1494582032.491326) can0 6A4#A4ACEF37457B8067
(1494582032.492487) can0 787#
(1494582032.493738) can0 2FE#99D600
(1494582032.494840) can0 358#B8A20809E8E1D078
(1494582032.495952) can0 41D#98CD88
(1494582032.496955) can0 365#B4FB1E06D01F9308
(1494582032.498088) can0 1ED#A60D815892207D20
(1494582032.499260) can0 5A3#E73FA81D4884D569
(1494582032.500361) can0 547#8DFF5551CEB4C426
(1494582032.501488) can0 65B#9F242F4159E11C5C
(1494582032.502625) can0 010#846B133568437A70
(1494582032.503737) can0 244#51254B6961664740
(1494582032.504328) can0 1FD#0000000000000000
(1494582032.504953) can0 250#D2367813B5E56414
(1494582032.505965) can0 0D6#8505F81CC3EA
(1494582032.507125) can0 621#560B7375C54B8B59
(1494582032.508249) can0 6D5#0DD060431CE4DA5D
(1494582032.509378) can0 7C9#EA989F04242ECA0D
(1494582032.510484) can0 6A7#7E0FE769B7D62F18
(1494582032.511590) can0 0C2#1F1A
(1494582032.512579) can0 13F#
(1494582032.513875) can0 259#44611A5D30DB6F35
(1494582032.514993) can0 2C0#F3C5650AE2F8EC60
(1494582032.516125) can0 1F6#A744783ACB108743
(1494582032.517113) can0 487#E7F46121
(1494582032.518233) can0 44E#74
(1494582032.519341) can0 35A#AC31
(1494582032.520466) can0 4F5#227FAE5B3496696F
(1494582032.521598) can0 33C#C3111F3895BDC554
(1494582032.522750) can0 0C4#C598350A84C3AA
(1494582032.523995) can0 1D1#66BC9774C753D77E
(1494582032.524988) can0 002#92645E42894C6827
(1494582032.526091) can0 5C1#D9A00F230FFA783F
(1494582032.526454) can0 1BFC38B1#0000000000000000
(1494582032.526927) can0 1BFC38BB#FFFFFFFFFFFFFFFF
(1494582032.527219) can0 74A#0455A66FA5329275
(1494582032.527221) can0 1BFC38BA#0000000700000014
(1494582032.527834) can0 1BFC38B9#040096408008FC68
(1494582032.528087) can0 1BFC38B8#0000000800000000
(1494582032.528375) can0 540#
(1494582032.528379) can0 1BFC38B7#800164842502021E
(1494582032.528866) can0 1BFC38B6#0000003300000000
(1494582032.529236) can0 1BFC38B5#0502FF0001020000
(1494582032.529310) can0 27C#69589621
(1494582032.529438) can0 1BFC38B4#FF00000000000000
(1494582032.529955) can0 1BFC38B3#8001648404003322
(1494582032.530205) can0 1BFC38B2#80016484838300BB
(1494582032.530453) can0 66E#4D1BCD20328F5932
(1494582032.531595) can0 534#B65204
(1494582032.532718) can0 2CC#CD0A127DCE421254
(1494582032.533840) can0 02A#588F7A7BEC259516
(1494582032.534453) can0 30B#0000000000000080
(1494582032.534983) can0 0D9#FB
(1494582032.536129) can0 37F#
(1494582032.537244) can0 3B0#F5CA111D2CCEC206
(1494582032.538341) can0 76E#E42BCA52DCE5DA6F
(1494582032.539453) can0 58B#0E75
(1494582032.540590) can0 345#C5218705
(1494582032.541704) can0 6E1#DF50
(1494582032.542875) can0 3F1#F80C1623CA643A
(1494582032.543953) can0 069#EE142D
(1494582032.545091) can0 1F3#A86C3F02A49D
(1494582032.546214) can0 140#D06B5343AEE08D12
(1494582032.547340) can0 2FD#8AC6680288
(1494582032.548322) can0 6E7#4853A37D2CDA4E28
(1494582032.549500) can0 35D#3DE886063EDAAA2F
(1494582032.550611) can0 19F#4AC12B3C903DCD47
(1494582032.551751) can0 154#5BA2
(1494582032.552821) can0 336#A58D3F4A299D3E17
(1494582032.553952) can0 6FF#CD3ACF5340C07E5F
(1494582032.555076) can0 1EC#EEA00C72E98CC949
(1494582032.556245) can0 653#717520403A1DF536
(1494582032.557359) can0 311#66F7435F6EA6E825
(1494582032.558485) can0 5C6#AD8093
(1494582032.559486) can0 0BF#F61C7F0E133232
(1494582032.560591) can0 03A#D0
(1494582032.561715) can0 69A#99A8A5609925
(1494582032.562838) can0 3C4#D9E5204EB015A6
(1494582032.564013) can0 205#99A26F0458C8D778
(1494582032.564375) can0 1FD#0000000000000000
(1494582032.565114) can0 641#92E5CC2F5291B54D
(1494582032.566252) can0 0C4#C1379E738A1E4243
(1494582032.567327) can0 49B#F0FDF3095AD57713
(1494582032.568436) can0 265#6E07AA189F0A
(1494582032.569591) can0 237#0F165915D150B54E
(1494582032.570614) can0 4B4#6A76573D7830EE21
(1494582032.571717) can0 210#2846945C
(1494582032.572848) can0 30C#6D
(1494582032.573988) can0 0CC#9F62FE4D90E1E727
(1494582032.575089) can0 6F7#
(1494582032.576202) can0 2CE#EC481436344DBF65
(1494582032.577364) can0 0F0#D357B13127F38A61
(1494582032.578500) can0 399#F84340
(1494582032.579643) can0 48C#C63086
(1494582032.580751) can0 6A7#B1FA875DB3F9B544
(1494582032.581841) can0 7B0#00CBFE447C60B277
(1494582032.582953) can0 11D#0C429A1F1480DB18
(1494582032.584052) can0 000#A6F3773BCE1A
(1494582032.584375) can0 30B#0000000000000080
(1494582032.584865) can0 65E#0000000000000000
(1494582032.585111) can0 031#0268
(1494582032.586377) can0 4ED#494CFE6E8640
(1494582032.587330) can0 5B9#D3
(1494582032.588458) can0 2A4#E12869624B61E605
(1494582032.589595) can0 088#FE5A
(1494582032.590722) can0 2B0#B4A8D321CDDB7677
(1494582032.591873) can0 39E#
(1494582032.592994) can0 4E6#6C369A56176D14
(1494582032.594109) can0 419#39C687590619A17D
(1494582032.595222) can0 645#8C59
(1494582032.596335) can0 2C3#
(1494582032.597440) can0 3F9#B34E817A
(1494582032.598609) can0 2B6#B93C
(1494582032.599704) can0 7B0#332197714E235177
(1494582032.600871) can0 02D#EC3E836E
(1494582032.601965) can0 49B#2B6A6214B4580A0B
(1494582032.603076) can0 3C8#BB71AB08
(1494582032.604216) can0 2E6#0BFEF643AAE534
(1494582032.605375) can0 5A7#12D3CF12A1719A2C
(1494582032.606501) can0 372#2266531B28
(1494582032.607637) can0 377#8E6B1825289B2727
(1494582032.608717) can0 049#76
(1494582032.609830) can0 1D5#8B5545
(1494582032.610953) can0 2BC#242F57718486
(1494582032.611986) can0 01B#91F871260133026C
(1494582032.613127) can0 427#AB18370ACED1FD75
(1494582032.614250) can0 2EA#6F4398225CCEFD36
(1494582032.615371) can0 583#84F4
(1494582032.616452) can0 46E#2274
(1494582032.617591) can0 4D3#2E2DEC4BA8F65636
(1494582032.618747) can0 7FC#18CDA31CB8A27C21
(1494582032.619844) can0 270#3C2975548B326B7C
(1494582032.620983) can0 51C#8C656D6843091768
(1494582032.622077) can0 069#11DB145E53F3195F
(1494582032.623082) can0 1F5#AF
(1494582032.624211) can0 013#7350CA
(1494582032.624213) can0 1FD#0000000000000000
(1494582032.625341) can0 645#38E9A61118
(1494582032.626470) can0 72E#C0F930532A2783
(1494582032.627610) can0 120#E2C9FF0D90DB9D23
(1494582032.628750) can0 314#1B0E09203060CD05
(1494582032.629983) can0 4EB#7369E46D542DAC42
(1494582032.630947) can0 1E0#A720C621D5
(1494582032.632122) can0 306#4ED3C944192B
(1494582032.633251) can0 089#9A
(1494582032.634375) can0 056#E6B1
(1494582032.634378) can0 30B#0000010000000080
(1494582032.635553) can0 739#AF06F05F5AD8
(1494582032.636593) can0 27E#EAB3
(1494582032.637572) can0 3B0#C39584129CD8
(1494582032.638707) can0 5AE#F0056D708E2728
(1494582032.639825) can0 3BC#6383EE59C2A60819
(1494582032.640934) can0 0EE#DB
(1494582032.641922) can0 272#46500429C9
(1494582032.643058) can0 247#4E4206648179FC58
(1494582032.644209) can0 5D3#DB51EC605220E022
(1494582032.645182) can0 18F#E555972F40
(1494582032.646306) can0 7CB#DCB50B3079FD1D2C
(1494582032.647433) can0 2DF#0725467B9B2EE70E
(1494582032.648555) can0 264#5DD5EF2753EBBC7C
(1494582032.649558) can0 71C#CB8CB9768F79390E
(1494582032.650671) can0 0AD#58
(1494582032.652556) can0 73E#766C3E33128D
(1494582032.653681) can0 7A3#64
(1494582032.654805) can0 416#735E005BE28BB578
(1494582032.655926) can0 6F1#5B89D324D1D9B47F
(1494582032.656924) can0 01B#6C089C
(1494582032.657923) can0 6CE#D39DED5AEA553B69
(1494582032.659049) can0 502#79CF7477B03D342F
(1494582032.660049) can0 7AF#A5
(1494582032.661173) can0 277#0074A52E1B32F07F
(1494582032.662319) can0 36C#4EB3A558
(1494582032.663559) can0 4AD#64
(1494582032.664737) can0 610#
(1494582032.665862) can0 323#ABA86748F1397524
(1494582032.666965) can0 3A6#DB8FB00DA858067A
(1494582032.668077) can0 11C#58963A29CC
(1494582032.669218) can0 326#BA5F6A6C9ED58D54
(1494582032.670371) can0 418#B9077E5484BF4440
(1494582032.671532) can0 51E#07DFC831CB1968
(1494582032.672436) can0 4C8#692DCE3CD8F27B1F
(1494582032.673590) can0 72B#03E9B2094EA2365A
(1494582032.674750) can0 0B5#3FDCAB7E5BE4E226
(1494582032.675843) can0 02D#033DE9204A496C6A
(1494582032.676954) can0 370#16C2CD5096D6EE0C
(1494582032.678126) can0 259#
(1494582032.679217) can0 58A#F6BD7E2CA8EA796D
(1494582032.680325) can0 6F4#7304E277BC3BE843
(1494582032.681346) can0 769#942E646394E65925
(1494582032.682455) can0 4B5#E388907F6A5D3953
(1494582032.683594) can0 147#C541
(1494582032.684330) can0 6C7#01010401640000
(1494582032.684752) can0 13D#BECA0D1FAD9C1A1C
(1494582032.684755) can0 1FD#0000000000000000
(1494582032.684939) can0 30B#0000010000000080
(1494582032.685329) can0 5F2#0000
(1494582032.685842) can0 225#44730929
(1494582032.686973) can0 6A4#F0EA374E2EA45B05
(1494582032.688124) can0 366#D68ED5725A429F
(1494582032.689220) can0 5E4#177E87674D6D4853
(1494582032.690211) can0 526#E253A278DB110143
(1494582032.691375) can0 443#466F3A168A
(1494582032.692466) can0 1E7#FFEED52B25130801
(1494582032.693592) can0 7D4#D2AF221DF9818510
(1494582032.694581) can0 692#786E837236F5
(1494582032.695736) can0 28F#65992E6DF5153311
(1494582032.696956) can0 24F#4F58D23434487014
(1494582032.697967) can0 385#81B5B867AB80
(1494582032.699125) can0 312#869224
(1494582032.700202) can0 628#E0B47C161028FD4E
(1494582032.701342) can0 2D8#353B0550ACE2117F
(1494582032.702500) can0 59C#A664970F2EA4F5
(1494582032.703581) can0 61E#6599C82FAD500604
(1494582032.704737) can0 486#A2663915D62E487E
(1494582032.705875) can0 305#0A
(1494582032.706952) can0 558#3597DA316A18AB4D
(1494582032.707961) can0 5EF#BF5FF36C171C5A33
(1494582032.709125) can0 388#2744570260DE1376
(1494582032.710219) can0 07E#0DC125751B16F952
(1494582032.711343) can0 264#49BAEE
(1494582032.712455) can0 0D1#2FC9DE765725AE49
(1494582032.713591) can0 678#2D
(1494582032.714577) can0 6C2#08F8602C1A8489
(1494582032.715715) can0 7C3#849C340AB22DEC2F
(1494582032.716984) can0 0FA#C9494663
(1494582032.717968) can0 0E3#E3
(1494582032.719093) can0 54D#
(1494582032.720201) can0 1A3#33F0566A74A2
(1494582032.721361) can0 575#CBC7
(1494582032.722466) can0 133#6B555245F6D77143
(1494582032.723626) can0 730#105CFB7F
(1494582032.724705) can0 4B2#A50CC747AC
(1494582032.725843) can0 4D9#2E7AC26CBC05F07B
(1494582032.726983) can0 460#1E
(1494582032.727955) can0 101#5F692340A46AD15C
(1494582032.729128) can0 062#180D
(1494582032.730218) can0 2F5#C4A98357
(1494582032.731401) can0 0DD#
(1494582032.732484) can0 4A4#01B7F0155629785E
(1494582032.733622) can0 0C4#02BFA16B9D1D
(1494582032.734482) can0 30B#0000010000000080
(1494582032.734710) can0 215#
(1494582032.735712) can0 642#23F0146243371528
(1494582032.736958) can0 113#E8A1
(1494582032.737988) can0 314#
(1494582032.739078) can0 3E4#32
(1494582032.740196) can0 041#
(1494582032.741375) can0 67F#
(1494582032.742423) can0 776#E00CCA588CE14C41
(1494582032.743622) can0 66D#01E0BC5AAFACBD04
(1494582032.744338) can0 1FD#0000000000000000
(1494582032.744579) can0 2B2#F3E3D22C
(1494582032.745722) can0 1A6#3BAD553ABBDCBC2B
(1494582032.746843) can0 4DB#C4A21F04C0B847
(1494582032.747966) can0 598#812D113CD95D
(1494582032.749092) can0 347#
(1494582032.750078) can0 620#0AB1633E97454814
(1494582032.751207) can0 636#23279555A4E48E3C
(1494582032.752362) can0 624#53914C41
(1494582032.753622) can0 749#9CD45D3DEF00
(1494582032.754631) can0 321#AADDEA77FD2FB2
(1494582032.755735) can0 65E#BDE8F97EF7E37D11
(1494582032.756856) can0 565#D0414C65ACE0DB34
(1494582032.757997) can0 08F#73A26862AF0EBC17
(1494582032.759126) can0 588#4654042CBF134A14
(1494582032.760080) can0 167#63F8D8508CFFD46B
(1494582032.761203) can0 28E#62108B3CD759
(1494582032.762329) can0 6FD#C65A3D6B1EFA1D20
(1494582032.763454) can0 6D5#1B
(1494582032.764579) can0 0E0#2B99AC79459EBD30
(1494582032.765718) can0 117#F27E9965A6B9D01F
(1494582032.766842) can0 78A#55C88C3713
(1494582032.767955) can0 4E2#D2086F354986C820
(1494582032.768999) can0 005#D5859D0C93
(1494582032.770078) can0 2EB#6A742536E889B218
(1494582032.771200) can0 336#07
(1494582032.772327) can0 7A2#4097
(1494582032.773500) can0 0FB#C75E7B1412EA3F6F
(1494582032.774454) can0 366#B8A3100FF19A0155
(1494582032.775579) can0 71E#049026760074E52A
(1494582032.776709) can0 0A9#4AFAAD4BAF20
(1494582032.777330) can0 1BFC38B1#0000000000000000
(1494582032.777578) can0 1BFC38BB#FFFFFFFFFFFFFFFF
(1494582032.777828) can0 20B#423B6F26F6244B4A
(1494582032.777939) can0 1BFC38BA#0000000700000014
(1494582032.778475) can0 1BFC38B9#040096408008FC68
(1494582032.778827) can0 1BFC38B8#0000000800000000
(1494582032.778926) can0 657#DFAEFD628E918564
(1494582032.779061) can0 1BFC38B7#800164842502021E
(1494582032.779598) can0 1BFC38B6#0000003300000000
(1494582032.779953) can0 6DE#9A7333198086
(1494582032.779955) can0 1BFC38B5#0502FF0001020000
(1494582032.780328) can0 1BFC38B4#FF00000000000000
(1494582032.780704) can0 1BFC38B3#8001648404003322
(1494582032.781079) can0 108#0247406603A2D909
(1494582032.781082) can0 1BFC38B2#80016484838300BB
(1494582032.782186) can0 345#158C1979AB461B42
(1494582032.783350) can0 383#9CE11C17A182E736
(1494582032.784474) can0 3DB#
(1494582032.785453) can0 276#33454F0881A4B66A
(1494582032.785708) can0 30B#0000010000000080
(1494582032.786590) can0 10B#78C901356387
(1494582032.787722) can0 023#F118C00B01AF4A
(1494582032.788843) can0 33D#8135CD0B458C3C32
(1494582032.789954) can0 765#492E16
(1494582032.791092) can0 24C#5519B869CFA59961
(1494582032.792203) can0 22C#7128
(1494582032.793236) can0 492#8BAA17
(1494582032.794355) can0 7FF#8A1BA8310A818F2D
(1494582032.795484) can0 035#6D08
(1494582032.796609) can0 559#594FC35096087732
(1494582032.797699) can0 5E9#DC94B3644E458160
(1494582032.798823) can0 15D#F8171E08A9
(1494582032.799947) can0 583#79C9001DAF675313
(1494582032.801108) can0 440#B6ED741FD298C300
(1494582032.802234) can0 0FD#DB0F
(1494582032.803233) can0 001#06A2280536F8
(1494582032.804360) can0 068#8E989135
(1494582032.804475) can0 1FD#0000000000000000
(1494582032.805482) can0 3D2#58762711BC79FA
(1494582032.806605) can0 4C1#0ABF7B20
(1494582032.807733) can0 659#C791EA
(1494582032.808870) can0 051#
(1494582032.810001) can0 52A#63CDDE
(1494582032.810940) can0 185#237FD64686C1E675
(1494582032.812095) can0 0A5#BCB9FF630D19F82E
(1494582032.813201) can0 39E#CF86A80D70976E60
(1494582032.814374) can0 231#2C116920F2A6CB02
(1494582032.815485) can0 05C#10154F34B6D64F
(1494582032.816622) can0 73A#9322EE178BAFEE
(1494582032.817612) can0 218#1CE40911424F926A
(1494582032.818754) can0 762#6AADCF59E7B0397B
(1494582032.819844) can0 6BE#6D72207163976D43
(1494582032.820965) can0 5B7#71B0657255199712
(1494582032.822081) can0 673#
(1494582032.823203) can0 468#965F
(1494582032.824233) can0 229#7B13D95E6339
(1494582032.825371) can0 37E#EEE8C041961D1112
(1494582032.826496) can0 42D#D86CA37C9083ED45
(1494582032.827605) can0 68A#7734
(1494582032.828735) can0 6D0#ACA49D2987
(1494582032.829740) can0 30E#DDAD557682511976
(1494582032.830878) can0 45D#260AB1
(1494582032.831986) can0 095#8BFD786EBFB21D51
(1494582032.833081) can0 663#22ECEF0EE1F9
(1494582032.834233) can0 714#77
(1494582032.834707) can0 30B#0000010000000080
(1494582032.835205) can0 21B#
(1494582032.836329) can0 692#EE2D5F7B62E5F31E
(1494582032.837456) can0 22E#EA79B2023C858413
(1494582032.838579) can0 7B7#BED69D0914B411
(1494582032.839719) can0 66A#DA740118FF
(1494582032.840704) can0 2A2#BE594B3005
(1494582032.841828) can0 36B#E7
(1494582032.842986) can0 2F2#C11DA66A0DBD6733
(1494582032.844084) can0 6AE#B3DD
(1494582032.845218) can0 7DB#A3
(1494582032.846372) can0 63B#4637CA7CF205F329
(1494582032.847331) can0 454#06BA0407
(1494582032.848475) can0 6E9#BE
(1494582032.849564) can0 146#91624439B2244D79
(1494582032.850737) can0 15D#31EF32114FCC956C
(1494582032.851829) can0 7D6#5D89
(1494582032.852986) can0 185#
(1494582032.853973) can0 2B1#6AB39B45EC507D15
(1494582032.855080) can0 2F7#
(1494582032.856205) can0 0B4#0A2A9729
(1494582032.857343) can0 7C5#29219F160CE1FB0A
(1494582032.858469) can0 744#BE054904A258D210
(1494582032.859622) can0 132#F124687D09C9C75F
(1494582032.860614) can0 1E2#8E47935C67038210
(1494582032.861740) can0 55E#C704D86C
(1494582032.862827) can0 1BD#FB
(1494582032.863977) can0 2E1#00DC7933969BA73D
(1494582032.864464) can0 1FD#0000000000000000
(1494582032.865094) can0 0BE#34832C1B83806233
(1494582032.866098) can0 1D2#8F615E3E16E9F327
(1494582032.867328) can0 018#B841C6384A31B44D
(1494582032.868323) can0 43D#53FA7B2D1F5E7869
(1494582032.869481) can0 4F8#86
(1494582032.870608) can0 535#66B2120CF3A6191C
(1494582032.871720) can0 67F#A7C3
(1494582032.872869) can0 33B#F65CC74BF9FB6D
(1494582032.873962) can0 5B1#7D7CD05C83E74738
(1494582032.874960) can0 488#9AD03B60A0AC6E1A
(1494582032.875932) can0 55A#EADD
(1494582032.877093) can0 0FC#B6FF711FF58DC422
(1494582032.878218) can0 21F#4CB8527C557FFF13
(1494582032.879192) can0 789#4826
(1494582032.880316) can0 614#69A7A42750B10038
(1494582032.881318) can0 197#49AD6E61482FF30F
(1494582032.882468) can0 48A#CC163B481269
(1494582032.883559) can0 7D3#B2158E0D2D4D
(1494582032.884558) can0 1B8#C4EE3D6DB572A910
(1494582032.885183) can0 6C7#01010401640000
(1494582032.885565) can0 30B#0000010000000080
(1494582032.885695) can0 3DA#AA006E33FAE5FD2A
(1494582032.885697) can0 5F2#0000
(1494582032.886821) can0 7B6#4F65FD3E3F17
(1494582032.887931) can0 3A8#48FDDF3FBD19A0
(1494582032.888970) can0 586#0D
(1494582032.890088) can0 110#662E8B2E9A8D
(1494582032.891215) can0 21D#ACF6
(1494582032.892340) can0 498#1DF7007D5026B660
(1494582032.893464) can0 7FB#05
(1494582032.894437) can0 45B#CFB1FC6111240B1D
(1494582032.895562) can0 2A5#503B66434E76B40C
(1494582032.896712) can0 2B5#0B9054213C183263
(1494582032.897844) can0 549#5917CA015A86BB45
(1494582032.899000) can0 36E#F4130C7B8B755308
(1494582032.900113) can0 2F1#7B
(1494582032.901081) can0 6FF#DADD0E27FA162905
(1494582032.902216) can0 479#D0E2273CD4D03E2C
(1494582032.903341) can0 08F#E5F449493463CA11
(1494582032.904487) can0 3BE#82D97E1E734E
(1494582032.905613) can0 0CE#AF6661321846C17A
(1494582032.906742) can0 4A5#72CC7C401498CD49
(1494582032.907737) can0 3C8#9F0D2152BA4E
(1494582032.908831) can0 307#4306F55107027F38
(1494582032.909954) can0 3B3#0119A83D2D409220
(1494582032.911247) can0 2FD#01
(1494582032.912239) can0 071#C0CE78602F3C13
(1494582032.913502) can0 61D#A28A42
(1494582032.914592) can0 1D0#03E5
(1494582032.915581) can0 75B#8A6E613623
(1494582032.916705) can0 1DC#DD81EC7CE37C8D08
(1494582032.918008) can0 144#EA
(1494582032.919006) can0 43E#252D88343BC75759
(1494582032.920124) can0 3BD#C73206282E24
(1494582032.921251) can0 40D#5D608C672A7A3F3A
(1494582032.922342) can0 1CB#
(1494582032.923455) can0 452#1192D532AD4B4273
(1494582032.924332) can0 1FD#0000000000000000
(1494582032.924446) can0 78F#D07E92646B410C32
(1494582032.925594) can0 4C5#4EBE993A09266D1A
(1494582032.926705) can0 0CF#0113632E0DF54578
(1494582032.927877) can0 525#49BC9D51E268
(1494582032.928987) can0 64D#
(1494582032.930080) can0 098#853CF835639A9909
(1494582032.931077) can0 06E#FF55DB4FC0B4265F
(1494582032.932231) can0 3B4#
(1494582032.933330) can0 0AC#AE440D787165A15D
(1494582032.934497) can0 7EC#7A8B0E78BB08DB48
(1494582032.934598) can0 30B#0000010000000080
(1494582032.935489) can0 036#C8FD20415B15A828
(1494582032.936576) can0 6A2#3D
(1494582032.937716) can0 122#4A1F5A69BA99850E
(1494582032.938828) can0 0BD#1E341F182BD17802
(1494582032.939984) can0 16A#EC859F611E05C97F
(1494582032.941111) can0 22D#6208CA45D95A9356
(1494582032.942114) can0 597#
(1494582032.943238) can0 00D#3E8E594C43
(1494582032.944343) can0 241#9EA57347E3C811
(1494582032.945467) can0 618#D325B3493AEF9B2C
(1494582032.946610) can0 72A#F588213BE727A00B
(1494582032.947614) can0 0EC#13F918
(1494582032.948767) can0 730#745774145DB9E625
(1494582032.949820) can0 558#37147A7CF00A
(1494582032.950967) can0 4E7#73
(1494582032.952081) can0 046#388D
(1494582032.953242) can0 2B9#6BD3B80BD1F0
(1494582032.954238) can0 6B2#0CE0EC38DD85A953
(1494582032.955444) can0 65B#C4
(1494582032.956580) can0 614#9D31846F446D8A
(1494582032.957703) can0 5D6#A1
(1494582032.958703) can0 0E8#1F36A10FCF954C76
(1494582032.959970) can0 75A#C392
(1494582032.960994) can0 544#283A3362FD8F996C
(1494582032.962115) can0 2D2#CF80EA
(1494582032.963252) can0 6D1#612F8B3A2C45D14B
(1494582032.964329) can0 1DC#7324AA26F0EF
(1494582032.965312) can0 3FD#
(1494582032.966440) can0 721#03D52E6509
(1494582032.967606) can0 6AE#D85D
(1494582032.968679) can0 1B4#A8FD4145F9B63617
(1494582032.969859) can0 097#
(1494582032.970985) can0 563#EE0CC00F34
(1494582032.971983) can0 0A0#60918A247CF27754
(1494582032.973122) can0 175#6CE2AC
(1494582032.974206) can0 3E3#
(1494582032.975343) can0 376#0EB3E7732482B806
(1494582032.976468) can0 76C#2C506E1920F95D
(1494582032.977593) can0 183#19B09457
(1494582032.978583) can0 5A5#
(1494582032.979724) can0 6D5#3D17
(1494582032.980815) can0 6C1#F2D9295B37D8F14A
(1494582032.981956) can0 671#AA754936546A6245
(1494582032.982996) can0 3FF#59
(1494582032.984110) can0 13B#9941981EA7007664
(1494582032.984360) can0 1FD#0000000000000000
(1494582032.984984) can0 30B#0000010000000080
(1494582032.985206) can0 14F#C7F9D324D2
(1494582032.986330) can0 79A#EC
(1494582032.987477) can0 0F1#
(1494582032.988580) can0 4E2#3C479F36
(1494582032.989752) can0 022#DBBB7B26934E6D29
(1494582032.990706) can0 58E#E7B8CF6E8D
(1494582032.991955) can0 676#03
(1494582032.992955) can0 6A9#58C8FB01F82FF67B
(1494582032.994099) can0 462#CA4A7963FC4B1802
(1494582032.995236) can0 400#3BB1F41EF10C
(1494582032.996346) can0 227#B86C
(1494582032.997366) can0 107#AD225857
(1494582032.998454) can0 523#BC67D672B1B2FB21
(1494582032.999623) can0 00D#3F8CDE
(1494582033.000742) can0 6E4#34C6
(1494582033.001705) can0 7DE#8575E871406C5D52
(1494582033.002951) can0 0AC#3CB87554ACBCDB26
(1494582033.003989) can0 006#9EC9E1212D525C
(1494582033.005083) can0 2FA#36912A070174
(1494582033.006221) can0 24A#2A8D2618
(1494582033.007345) can0 26C#1F72BF437AA2
(1494582033.008439) can0 589#FDA041746E44057E
(1494582033.009484) can0 3A0#FB89
(1494582033.010609) can0 5BE#BF
(1494582033.011733) can0 7D0#17036C56D6F7873F
(1494582033.012698) can0 173#034AE44A6D
(1494582033.013813) can0 30B#6E70F83055ED8A73
(1494582033.014947) can0 71E#C3AC4E158A21E80C
(1494582033.015927) can0 27E#04C4D7
(1494582033.017083) can0 541#764C
(1494582033.018197) can0 434#61
(1494582033.019208) can0 5F2#
(1494582033.020356) can0 41C#998D6513
(1494582033.021456) can0 029#FDE9803C34DB8C76
(1494582033.022581) can0 2D7#89C8176AF541EA60
(1494582033.023579) can0 004#7F63D26D834AB40A
(1494582033.024694) can0 430#8B52734B
(1494582033.025990) can0 486#53
(1494582033.026615) can0 1BFC38B1#0000000000000000
(1494582033.026955) can0 572#AC1A1624
(1494582033.026958) can0 1BFC38BB#FFFFFFFFFFFFFFFF
(1494582033.027216) can0 1BFC38BA#0000000700000014
(1494582033.027578) can0 1BFC38B9#040096408008FC68
(1494582033.027961) can0 1BFC38B8#0000000800000000
(1494582033.028072) can0 2D5#28E16C29F186BE16
(1494582033.028198) can0 1BFC38B7#800164842502021E
(1494582033.028851) can0 1BFC38B6#0000000100000000
(1494582033.029073) can0 67D#81
(1494582033.029075) can0 1BFC38B5#0502FF0001020000
(1494582033.029455) can0 1BFC38B4#FF00000000000000
(1494582033.029823) can0 1BFC38B3#8001648404003322
(1494582033.030115) can0 1BFC38B2#80016484838300BB
(1494582033.030198) can0 65E#DAE1D86735F9744B
(1494582033.031329) can0 0EB#2A3B5F2C
(1494582033.032453) can0 7B1#725B4B5CE1B3CB29
(1494582033.033580) can0 62E#5265EC3DB4529F35
(1494582033.034569) can0 4FE#6EAB952671C2
(1494582033.034572) can0 30B#0000010000000080
(1494582033.035725) can0 65A#D60D79442FF91B2D
(1494582033.036987) can0 124#2180DA43A1175411
(1494582033.037954) can0 5BF#481E
(1494582033.039079) can0 321#539D
(1494582033.040202) can0 286#FC1CFA4E37CAC00D
(1494582033.041345) can0 728#187E8C37563DB623
(1494582033.042329) can0 66C#0A9055596A73FA04
(1494582033.043457) can0 311#DB35E4736BE99B72
(1494582033.044331) can0 1FD#0000000000000000
(1494582033.044592) can0 192#9B
(1494582033.045748) can0 2AF#58025D2D6F90FB50
(1494582033.046845) can0 75E#
(1494582033.047969) can0 0C2#
(1494582033.049101) can0 25E#8095A06486219D3D
(1494582033.050204) can0 3F7#DC5E536163727C45
(1494582033.051208) can0 704#CDE5764A1532
(1494582033.052330) can0 25E#801BB31DF12B2B05
(1494582033.053491) can0 75A#A71634210A92FB1C
(1494582033.054622) can0 0D7#7922F76D36B86E39
(1494582033.055690) can0 19F#B6624434625A
(1494582033.056706) can0 0E6#AB25
(1494582033.057861) can0 4CB#CBF44050C2382866
(1494582033.058985) can0 6C4#25ABA42BC8C55702
(1494582033.060079) can0 28E#DDF7
(1494582033.061248) can0 49B#DE98FC2BF60B2F2B
(1494582033.062344) can0 179#009E2A4851
(1494582033.063330) can0 085#872AF9622402501A
(1494582033.064495) can0 77F#865C54336540CA67
(1494582033.065573) can0 67F#AA
(1494582033.066725) can0 55D#0CCC921D210C
(1494582033.067844) can0 41E#EA
(1494582033.068975) can0 024#990B520FBFB4C9
(1494582033.069959) can0 525#B5C0F81E9FEEE4
(1494582033.071080) can0 3FD#F0606F1582
(1494582033.072247) can0 72E#A61E913EAD362E
(1494582033.073341) can0 0B4#1377F83F33BF6053
(1494582033.074470) can0 55E#7E52CB0ABB3ADB0C
(1494582033.075613) can0 333#DD464A7551EF5801
(1494582033.076604) can0 5BC#FE8DD969E09DE8
(1494582033.077720) can0 28E#9F52B224B4BF9E
(1494582033.078865) can0 60F#53AE83470C
(1494582033.079988) can0 20A#8EAE3A
(1494582033.081092) can0 2BA#E6C74120
(1494582033.082109) can0 061#A1726238C045CF26
(1494582033.083220) can0 1B7#7B80AA33EA5CB61F
(1494582033.084327) can0 3AA#3C4C0F216679215D
(1494582033.085497) can0 01F#46170A0EAEC24C01
(1494582033.085956) can0 6C7#04010401640000
(1494582033.086245) can0 30B#0000010000000080
(1494582033.086461) can0 3D1#6282EB5CE0
(1494582033.086463) can0 5F2#0000
(1494582033.086581) can0 643#000200
(1494582033.087110) can0 64E#0000000000000000
(1494582033.087339) can0 65E#88089BF55D480600
(1494582033.087589) can0 53A#EC43887545
(1494582033.087592) can0 6B8#6D08000000000000
(1494582033.087957) can0 6BC#0000000000000000
(1494582033.088770) can0 7F8#7E804969B2DABD56
(1494582033.089843) can0 7AF#208EBF3B
(1494582033.090951) can0 75E#D0
(1494582033.092134) can0 5E1#FFAD1C248BA9DB22
(1494582033.093084) can0 5A4#F122FD7FC475B414
(1494582033.094236) can0 475#72380116474829
(1494582033.095430) can0 41C#27FAB70C
(1494582033.096468) can0 389#9C106158
(1494582033.097593) can0 08E#33067C6F3DF0914F
(1494582033.098609) can0 17E#4EF8D1
(1494582033.099717) can0 514#F1B16139F55AAD56
(1494582033.100845) can0 46A#80
(1494582033.101954) can0 22C#D3
(1494582033.103107) can0 1A8#E976E846C5
(1494582033.104220) can0 319#
(1494582033.104599) can0 1FD#0000000000000000
(1494582033.105343) can0 724#232A0643B3DFE32E
(1494582033.106497) can0 0D2#F0CF757E50A2
(1494582033.107457) can0 4A9#2D03B919BD591B7D
(1494582033.108612) can0 65D#B3B4C853C722C446
(1494582033.109748) can0 50F#D6CC0D
(1494582033.110845) can0 0A5#DE9D02464D42654E
(1494582033.111975) can0 4EE#1248B6160758F7
(1494582033.112981) can0 5D7#A9563F23FC346C36
(1494582033.114079) can0 6E6#AF145065B86F9707
(1494582033.115239) can0 122#0912556CCB758576
(1494582033.116430) can0 4DE#89CFA0733BBB
(1494582033.117455) can0 254#02DEFA5D64DFC109
(1494582033.118579) can0 56F#A04E055D141E935B
(1494582033.119609) can0 782#6260F82971DC1F46
(1494582033.120721) can0 145#7834173F
(1494582033.121845) can0 7A3#18BC
(1494582033.122997) can0 3EE#422E884C11BD63
(1494582033.124092) can0 567#DC32E95745620E4A
(1494582033.125079) can0 581#801D4561D5
(1494582033.126199) can0 6A1#39FF
(1494582033.127343) can0 65B#25E24103DE3D5D39
(1494582033.128441) can0 257#4F1A7D7F9C3BD6
(1494582033.129490) can0 2FC#B9C254629F02CA
(1494582033.130622) can0 1E9#28
(1494582033.131738) can0 799#E9A2EA4A00057B65
(1494582033.132843) can0 7B5#4567892F36
(1494582033.134003) can0 02B#0CA51F66CC
(1494582033.134487) can0 30B#0000010000000080
(1494582033.135125) can0 047#DD220029A3
(1494582033.136113) can0 21F#8164B4
(1494582033.137216) can0 78A#
(1494582033.138468) can0 597#25352F0C81A7B041
(1494582033.139459) can0 19D#598D372B36F9985B
(1494582033.140742) can0 5B8#36FE
(1494582033.141709) can0 607#A49A584932DE5307
(1494582033.142849) can0 240#
(1494582033.143936) can0 3F6#2B91D17A15D63E3E
(1494582033.145111) can0 4DF#8B02F3666AAC6337
(1494582033.146234) can0 47C#F0DEC87E13427D60
(1494582033.147342) can0 56A#94E92D22083F
(1494582033.148327) can0 264#3E3814201CF00E0D
(1494582033.149618) can0 72F#8A055C0837
(1494582033.150736) can0 3F0#698BD16331863153
(1494582033.151709) can0 7DF#B9F0AB24D5C39A38
(1494582033.152956) can0 045#EA99D976
(1494582033.153969) can0 790#8E3967330CEC
(1494582033.155080) can0 714#1F2E381D7F9CA67D
(1494582033.156207) can0 495#87DB2142
(1494582033.157346) can0 6A1#1527196BD1
(1494582033.158332) can0 23A#
(1494582033.159570) can0 4CF#5C
(1494582033.160581) can0 6DA#8470F17E1F
(1494582033.161705) can0 6F9#43EC381789568229
(1494582033.162955) can0 6E4#9542
(1494582033.163972) can0 651#784A8810
(1494582033.164382) can0 1FD#0000000000000000
(1494582033.164691) can0 77E#320F05AAAAAAAAAA
(1494582033.165083) can0 068#DFA102180A17A74F
(1494582033.166239) can0 1C4#DB4CFA1F
(1494582033.167340) can0 594#2A6A62
(1494582033.168459) can0 654#126F11022ED5
(1494582033.169593) can0 39B#4D34BC759412
(1494582033.170739) can0 204#1D
(1494582033.171720) can0 663#E23E
(1494582033.172831) can0 466#9AEF5D0ECFA44805
(1494582033.173987) can0 759#D9BBEF541DE95975
(1494582033.175081) can0 26D#1C6D986D
(1494582033.176084) can0 097#6512C85BEBD6
(1494582033.177380) can0 5CC#1AACA97967E16B
(1494582033.178502) can0 10D#FBF3A322124BAA
(1494582033.179592) can0 0F8#FBDB0F205B47F053
(1494582033.180721) can0 0CA#0FCC55283125C37C
(1494582033.181706) can0 437#00CA0B029053A02B
(1494582033.182995) can0 522#AD3CFA2090A79006
(1494582033.183988) can0 68D#92F79D2624C79A0D
(1494582033.185080) can0 110#0F9EBD2CDD2E40
(1494582033.185778) can0 30B#0000010000000080
(1494582033.186238) can0 36F#4410AC6D7CEC1B3F
(1494582033.187361) can0 291#
(1494582033.188468) can0 158#E5721866236A0446
(1494582033.189578) can0 666#548FC742
(1494582033.190580) can0 29E#2D26F448
(1494582033.191490) can0 630#40000013
(1494582033.191714) can0 72D#50EFC628BA6DB467
(1494582033.192959) can0 4A5#DE34
(1494582033.193968) can0 0DA#92BC4E7C497C0A32
(1494582033.194454) can0 6B6#390C1C000227
(1494582033.194876) can0 6B7#90B9E00008FF00FE
(1494582033.195106) can0 517#C5682671A84741
(1494582033.195109) can0 630#03C203000F000403
(1494582033.195480) can0 631#04C2030013000301
(1494582033.195996) can0 62D#0482030012000300
(1494582033.196207) can0 117#31736970
(1494582033.196209) can0 62F#0442030011000400
(1494582033.197315) can0 3DD#929CFD4B44E2
(1494582033.198357) can0 50B#E1B4430AA91F
(1494582033.199453) can0 53A#6967484C6764676F
(1494582033.200599) can0 5EA#21D21B578F4AA735
(1494582033.201720) can0 59C#44D8B537762E3F16
(1494582033.202837) can0 1ED#BFAA494804F7EB
(1494582033.203986) can0 1AE#AC3E2D15C5
(1494582033.204955) can0 3D9#3465431EB6671F7A
(1494582033.206080) can0 7F4#FA490F67FFBC08
(1494582033.207238) can0 5AD#A8DC1A6BE8B29E4C
(1494582033.208345) can0 1EB#4F
(1494582033.209468) can0 2CB#64
(1494582033.210593) can0 070#DE0626075DCA044E
(1494582033.211751) can0 77F#61C1F0042D311241
(1494582033.212846) can0 523#F2635C59FC783C48
(1494582033.213977) can0 1EB#B2E05B42DF49CD
(1494582033.214967) can0 2EE#DE06D63C9BF8E65A
(1494582033.216082) can0 189#83AB85277403
(1494582033.217377) can0 797#491BFA
(1494582033.218333) can0 444#CB9AAD7CB49C3A56
(1494582033.219458) can0 055#12673F24D587732A
(1494582033.220594) can0 347#02B985
(1494582033.221698) can0 081#66915F246C
(1494582033.222845) can0 61C#4B24D05E0AB1621E
(1494582033.223988) can0 4C6#A5A949794FC6E42A
(1494582033.224464) can0 1FD#0000000000000000
(1494582033.225096) can0 6AF#C3C92D0A4636EB22
(1494582033.226217) can0 7FC#A9F8B12E40C4087B
(1494582033.227236) can0 2B9#F4604351
(1494582033.228377) can0 51E#E3A24E356588
(1494582033.229519) can0 07A#D0A0995EFB18
(1494582033.230623) can0 0DB#67F30345F75E
(1494582033.231733) can0 44F#0110
(1494582033.232878) can0 2DB#6407C0248A51
(1494582033.233977) can0 6CF#D087FC25CB260F
(1494582033.234599) can0 30B#0000010000000080
(1494582033.235093) can0 633#0BEB175AEC18901D
(1494582033.236218) can0 3EE#
(1494582033.237343) can0 406#72D1B7318004913F
(1494582033.238489) can0 2C4#7B1D
(1494582033.239595) can0 478#960A
(1494582033.240710) can0 094#DD89DA766F6BE4
(1494582033.241707) can0 43E#F9BC
(1494582033.242834) can0 269#D909C03A9D189E64
(1494582033.244009) can0 544#89312E02
(1494582033.245110) can0 0E4#3F22F076
(1494582033.246249) can0 463#6B
(1494582033.247373) can0 5F3#C71A266B6B0A44
(1494582033.248486) can0 7C9#335343495EB03433
(1494582033.249486) can0 7F5#CD
(1494582033.250630) can0 653#40F76815BCD040
(1494582033.251689) can0 591#59E9DE0AD5E2A104
(1494582033.252812) can0 5FE#07BC50
(1494582033.253936) can0 067#CD8B4506CABC
(1494582033.254928) can0 1F7#F22BDB46EA37E224
(1494582033.256099) can0 420#56422671E9E3E611
(1494582033.257208) can0 416#47941B450BAC5F5C
(1494582033.258250) can0 29A#3EC01716ED
(1494582033.259358) can0 0DC#AAB1807C6DA64449
(1494582033.260506) can0 098#4289E6
(1494582033.261609) can0 5E6#79E5DE054E36134C
(1494582033.262609) can0 390#18F30C0C87F5
(1494582033.263707) can0 67F#722D436E9FB2281C
(1494582033.264952) can0 5C3#89960F2EDAD18D28
(1494582033.265955) can0 551#
(1494582033.267094) can0 2E5#D9589A6A
(1494582033.268218) can0 5A3#2E0AE8
(1494582033.269375) can0 587#
(1494582033.270356) can0 0BA#BB91FA4E4AFC7D50
(1494582033.271619) can0 391#D1F1DE19
(1494582033.272612) can0 3DE#B0BC12
(1494582033.273702) can0 70B#7CDB665B5D945E01
(1494582033.275005) can0 60A#49
(1494582033.275984) can0 785#B1BC
(1494582033.277108) can0 7A6#643B0F042D15E955
(1494582033.277469) can0 1BFC38B1#0000000000000000
(1494582033.277955) can0 1BFC38BB#FFFFFFFFFFFFFFFF
(1494582033.278219) can0 250#9A70D0580A33
(1494582033.278222) can0 1BFC38BA#0000000700000014
(1494582033.278825) can0 1BFC38B9#040096408008FC68
(1494582033.279124) can0 1BFC38B8#0000000800000000
(1494582033.279362) can0 281#542F8B43128E
(1494582033.279476) can0 1BFC38B7#800164842502021E
(1494582033.279957) can0 1BFC38B6#0000000306004433
(1494582033.280206) can0 1BFC38B5#0502FF0001020000
(1494582033.280344) can0 72A#23986A6C08
(1494582033.280578) can0 1BFC38B4#FF00000000000000
(1494582033.281083) can0 1BFC38B3#8001648406004433
(1494582033.281336) can0 1BFC38B2#8001648483830017
(1494582033.281474) can0 069#AA349B63
(1494582033.282581) can0 00D#D163764E1726
(1494582033.283718) can0 188#077F9A220D01B01A
(1494582033.284585) can0 6C7#04010401640000
(1494582033.284846) can0 53D#368E8F5CE344F14B
(1494582033.284848) can0 1FD#0000000000000000
(1494582033.285456) can0 30B#0000010000000080
(1494582033.285579) can0 5F2#0000
(1494582033.285956) can0 297#105ADA21E75C2B66
(1494582033.286955) can0 1D0#F18F3859513C2B57
(1494582033.288091) can0 500#63CAAB5B2A
(1494582033.289204) can0 06B#337F0A56D420BA
(1494582033.290344) can0 75B#48F0D12C685F335B
(1494582033.291468) can0 404#808520238C2DFE17
(1494582033.292599) can0 434#992EAE327199FA
(1494582033.293706) can0 03F#54DEEB0FD642CA6A
(1494582033.294709) can0 669#BE9FF550
(1494582033.294712) can0 630#43EA01E956
(1494582033.295956) can0 30F#8A24904E0FD0E64E
(1494582033.296956) can0 6F5#3A242F7460CF1F41
(1494582033.298095) can0 175#34F0D920D008E62A
(1494582033.299204) can0 74A#386819064E1B877C
(1494582033.300330) can0 496#DA488514CBF86B28
(1494582033.301468) can0 23F#3C92666C
(1494582033.302592) can0 443#55
(1494582033.303583) can0 0F5#E6A2B2
(1494582033.304691) can0 4C2#14
(1494582033.305830) can0 65F#17039B61D407D128
(1494582033.306971) can0 3BB#A410B753059BB86B
(1494582033.308095) can0 3C8#54B63F685E081519
(1494582033.309204) can0 695#29018141D458FF71
(1494582033.310347) can0 6A2#538B9A65E6AA
(1494582033.311471) can0 3F7#9365B760ECAC5258
(1494582033.312455) can0 5BB#F158DC327D5AE44C
(1494582033.313595) can0 7EA#358E5F6D49
(1494582033.314718) can0 553#1D8EFC090EB9C561
(1494582033.315844) can0 498#13
(1494582033.316958) can0 79E#BE60A53A337E8E
(1494582033.318094) can0 196#07D78D2C38807B76
(1494582033.319220) can0 54E#1E2BE51045F94754
(1494582033.320199) can0 302#31
(1494582033.321333) can0 12B#3BD3
(1494582033.322457) can0 427#
(1494582033.323584) can0 2BC#8802761754773124
(1494582033.324848) can0 43E#B4CFC145DC33133B
(1494582033.325956) can0 103#0FB2A1
(1494582033.326954) can0 25B#D2EAB043A987
(1494582033.328096) can0 371#
(1494582033.329218) can0 6A2#31C70354CD3F3956
(1494582033.330344) can0 642#E2A8EC1069FAB842
(1494582033.331321) can0 3DC#E4
(1494582033.332456) can0 5BE#ED652665FC313656
(1494582033.333708) can0 508#D8
(1494582033.334583) can0 30B#0000010000000080
(1494582033.334699) can0 614#A568BB5C6FF8DC
(1494582033.335959) can0 0FD#1880784E6E8C72
(1494582033.336956) can0 168#E2DAF2670A10
(1494582033.338081) can0 026#D74F6E
(1494582033.339344) can0 47F#D148883A5B389514
(1494582033.340333) can0 0FB#F3268A55B9
(1494582033.341595) can0 322#
(1494582033.342578) can0 282#366E2A479628E810
(1494582033.343709) can0 674#0621C53871F75239
(1494582033.344365) can0 1FD#0000000000000000
(1494582033.344957) can0 253#E083C516BB935439
(1494582033.345956) can0 225#C5A3
(1494582033.347079) can0 0D5#B3184339543D1161
(1494582033.348219) can0 456#AF75A675
(1494582033.349343) can0 63A#0A24
(1494582033.350458) can0 183#8631322105EC796B
(1494582033.351436) can0 34C#9B14627CC091D02A
(1494582033.352716) can0 699#31
(1494582033.353708) can0 6C0#A8
(1494582033.354843) can0 3D3#3043724EA86C5034
(1494582033.355968) can0 40A#FCA961
(1494582033.357080) can0 567#B1353724A1AB3D22
(1494582033.358221) can0 44E#FD6CCB0BD1E5195C
(1494582033.359330) can0 67A#D6D19347
(1494582033.360470) can0 641#86
(1494582033.361624) can0 413#C6553172D3F281
(1494582033.362706) can0 1C9#B86B80429C25E06C
(1494582033.363705) can0 2DC#45923021E62EF87E
(1494582033.364957) can0 2CB#46
(1494582033.365969) can0 3ED#D47366363B18D3
(1494582033.367094) can0 6B2#0C
(1494582033.368207) can0 755#F25E
(1494582033.369204) can0 653#7072262666D29378
(1494582033.370335) can0 72F#39C5152EF8E85C
(1494582033.371455) can0 2A5#95
(1494582033.372594) can0 7D9#67E4F70DA4EA301A
(1494582033.373719) can0 51B#D7B2592E08399A4B
(1494582033.374832) can0 0A4#43516D63565F0617
(1494582033.375956) can0 77C#822C3B73D2862116
(1494582033.377082) can0 731#6844AB1A
(1494582033.378083) can0 5EC#EBA7E50A1C3DB864
(1494582033.379208) can0 710#1426152AB5
(1494582033.380343) can0 616#37879B7CF07D1A2B
(1494582033.381470) can0 583#94684B459FB2BF39
(1494582033.382561) can0 74C#A7EB5905F01FDC4D
(1494582033.383602) can0 216#477FE2649349577F
(1494582033.384719) can0 43A#65D078156CABFC52
(1494582033.385847) can0 73E#F1804E652A458923
(1494582033.386598) can0 30B#0000010000000080
(1494582033.386968) can0 3A6#46824108B64A1F4A
(1494582033.388081) can0 601#6C1CBB371834C152
(1494582033.389081) can0 504#08B2DB
(1494582033.390204) can0 741#276528788D462B03
(1494582033.391345) can0 608#7E6607511E78310F
(1494582033.392469) can0 5B9#B1C1880EF4
(1494582033.393593) can0 18E#60C56779CCC8
(1494582033.394719) can0 6E4#F7
(1494582033.395707) can0 72D#41BD3A0F2F051A78
(1494582033.396841) can0 098#4739DB4A9D15C10B
(1494582033.397954) can0 550#25C8294A918C363A
(1494582033.399095) can0 5EB#1FD3613DF33BAA42
(1494582033.400219) can0 61A#12B4DB51D40B1E26
(1494582033.401330) can0 762#C82589
(1494582033.402330) can0 7DA#BD795171BEAE8B58
(1494582033.403457) can0 179#4821A71D
(1494582033.404333) can0 1FD#0000000000000000
(1494582033.404601) can0 7F1#D5A5AB6B8A50AB7B
(1494582033.405705) can0 036#27666C078635246F
(1494582033.406843) can0 26B#18C25A2957D01B0B
(1494582033.407958) can0 398#4A0CC64DB2D9BC
(1494582033.409094) can0 6D4#86E5DA7936EE7839
(1494582033.410101) can0 620#269FD30BFA3D6C04
(1494582033.411206) can0 676#B8ECF7
(1494582033.412346) can0 097#
(1494582033.413467) can0 48A#1309352BC0A4581B
(1494582033.414591) can0 588#47DA7C0AF317FE45
(1494582033.415717) can0 586#4AE819511EF91F18
(1494582033.416810) can0 196#D0D2DC6B6A
(1494582033.417955) can0 4F1#A0EE324911EB87
(1494582033.419094) can0 3A5#0B29F4421CBA
(1494582033.420207) can0 6AA#0BE26C
(1494582033.421227) can0 3C4#CA
(1494582033.422330) can0 10D#0EB5645D9566F464
(1494582033.423455) can0 017#887EF22A9D
(1494582033.424722) can0 3B4#BB0EDA
(1494582033.425723) can0 368#B45D074659106E59
(1494582033.426927) can0 1E3#6BFBF517
(1494582033.427969) can0 21B#A417FB62C580
(1494582033.429094) can0 23A#
(1494582033.430219) can0 451#4C
(1494582033.431344) can0 0AE#F3238B5DC6489E5A
(1494582033.432329) can0 2B0#635E586F64DE6C38
(1494582033.433485) can0 14F#AF3BBA6EB764761F
(1494582033.434485) can0 30B#0000010000000080
(1494582033.434749) can0 6AB#1075E4
(1494582033.435892) can0 5B8#1646E25DD3BF3C28
(1494582033.437008) can0 4F2#9840A95E2CCF9A66
(1494582033.437962) can0 76B#2A2DFC7BBCFBA767
(1494582033.439094) can0 06F#1BB93E601EA1
(1494582033.440249) can0 6D0#E4E92C298071EF24
(1494582033.441374) can0 78A#E54F5C5DD988D1
(1494582033.442485) can0 566#90ED476A
(1494582033.443623) can0 4F7#9F
(1494582033.444566) can0 31C#82CA106D0E68
(1494582033.445867) can0 071#3A376646DCE7FD48
(1494582033.446991) can0 3B9#98E3A530
(1494582033.448095) can0 7DA#4685F3
(1494582033.449219) can0 1C2#2B30F7424CF9F514
(1494582033.450373) can0 772#
(1494582033.451485) can0 3A4#EA70FE169C30
(1494582033.452487) can0 257#4B3B163274A54221
(1494582033.453614) can0 03F#820D0E01B0208B6A
(1494582033.454749) can0 0E8#8C088933A124D34E
(1494582033.455864) can0 121#CA083837FC
(1494582033.456955) can0 0D8#
(1494582033.458125) can0 53B#E7FB
(1494582033.459113) can0 7E3#85214F7487235F0D
(1494582033.460233) can0 5C3#2354A17A1BC0CA2F
(1494582033.461374) can0 7F9#8F650D513880176E
(1494582033.462471) can0 53D#E9
(1494582033.463595) can0 7CE#C7CA9205F0
(1494582033.464332) can0 1FD#0000000000000000
(1494582033.464706) can0 59A#EC
(1494582033.465706) can0 1A1#0D2130
(1494582033.466955) can0 165#89133440
(1494582033.468008) can0 301#D044A92FC588F63C
(1494582033.469124) can0 77E#E048C1
(1494582033.470249) can0 062#B0372D6D9FBDE022
(1494582033.471374) can0 180#C563A0594FD97929
(1494582033.472485) can0 20E#3F3AE04CA9175642
(1494582033.473484) can0 21D#1C36C427BE63F446
(1494582033.474723) can0 5BE#9BC2364023BFF111
(1494582033.475704) can0 41E#6CE03B34
(1494582033.476845) can0 333#E4973A4AB2D2BE74
(1494582033.478124) can0 62F#298AD473
(1494582033.479111) can0 733#31A41208B4B0B404
(1494582033.480363) can0 272#038A2E2E811C
(1494582033.481363) can0 682#2A34
(1494582033.482494) can0 06D#5E9CD8232BBE
(1494582033.483622) can0 16F#4E7D862D8D35B806
(1494582033.484740) can0 51D#AD44FC1351406819
(1494582033.485610) can0 6C7#04010401640000
(1494582033.485859) can0 2F6#03
(1494582033.485862) can0 30B#0000010000000080
(1494582033.485947) can0 5F2#0000
(1494582033.486954) can0 556#B8270939894CFD09
(1494582033.487955) can0 706#3DFDB10E78F9CE09
(1494582033.489096) can0 3E0#
(1494582033.490220) can0 382#024399
(1494582033.491327) can0 469#
(1494582033.492471) can0 659#66AB3A5B7673FB2C
(1494582033.493595) can0 523#C7B363
(1494582033.494601) can0 4A5#40B14307FB89A062
(1494582033.495717) can0 3F7#84D69D6CFDC28339
(1494582033.496955) can0 4E1#75BC
(1494582033.497969) can0 302#2483EC0785A61F70
(1494582033.499094) can0 492#74FA0633FCD0
(1494582033.500206) can0 586#D546D778DFE37875
(1494582033.501332) can0 3F8#555774221B894A0B
(1494582033.502331) can0 24F#35F9B63EF4AEB610
(1494582033.503456) can0 1E7#EF385773DE
(1494582033.504582) can0 36D#DBF86C
(1494582033.505845) can0 335#10
(1494582033.506955) can0 7C0#BDE49403
(1494582033.507935) can0 25A#4E
(1494582033.509083) can0 3C0#BF73CA
(1494582033.510221) can0 65F#D410EF70AE
(1494582033.511345) can0 632#A23F9A1F19A87967
(1494582033.512470) can0 47F#F8
(1494582033.513578) can0 004#3B6098
(1494582033.514719) can0 424#72A9A061E4133E30
(1494582033.515707) can0 580#37B89A0ADB0FAE5F
(1494582033.516941) can0 560#BB9FFF0821
(1494582033.517958) can0 1A9#D9E0944908986F4C
(1494582033.519101) can0 690#B628535BC2B41F13
(1494582033.520209) can0 3B7#DB5C997A36B0CA5F
(1494582033.521332) can0 0E9#22E8B2
(1494582033.522478) can0 1A7#27D4F04ECB9D5B18
(1494582033.523588) can0 1AA#B0B199482A6F1F72
(1494582033.524824) can0 3C8#057FCD51297998
(1494582033.525332) can0 1FD#0000000000000000
(1494582033.525583) can0 630#43EB020101FEFF
(1494582033.525832) can0 76C#4A
(1494582033.526956) can0 23C#1D19C5
(1494582033.526959) can0 1BFC38B1#0000000000000000
(1494582033.527334) can0 1BFC38BB#FFFFFFFFFFFFFFFF
(1494582033.527707) can0 1BFC38BA#0000000700000014
(1494582033.528093) can0 4D1#8EC5BF
(1494582033.528095) can0 1BFC38B9#040096408008FC68
(1494582033.528458) can0 1BFC38B8#0000000800000000
(1494582033.528833) can0 1BFC38B7#800164842502021E
(1494582033.529223) can0 22B#BE509663148BE40D
(1494582033.529225) can0 1BFC38B6#00000006000034A8
(1494582033.529471) can0 1BFC38B5#0502FF0001020000
(1494582033.529956) can0 1BFC38B4#FF00000000000000
(1494582033.530331) can0 53D#
(1494582033.530334) can0 1BFC38B3#8001648406004433
(1494582033.530579) can0 1BFC38B2#8001648483830017
(1494582033.531455) can0 13E#AF0C7D46E8CA5F2D
(1494582033.532464) can0 5C3#133A7F1F8B51F323
(1494582033.533596) can0 046#B4CA8B55B3BFCB3E
(1494582033.534719) can0 7D9#C840211C150AB14E
(1494582033.535582) can0 30B#0000010000000098
(1494582033.535845) can0 022#E11A513AF3F4
(1494582033.536957) can0 3B9#7B959F67E545044B
(1494582033.537967) can0 2D9#F9D0E8581660BF21
(1494582033.539101) can0 719#FACEE04F58A01329
(1494582033.540206) can0 525#406B7356E8D25953
(1494582033.541332) can0 209#73244D
(1494582033.542469) can0 66C#02828B4645365933
(1494582033.543583) can0 426#5B400A0248DC1F02
(1494582033.544581) can0 4B1#3BD1F3656AB89173
(1494582033.545709) can0 3AC#4FFE953E853E
(1494582033.546828) can0 4EF#9B9E9549096C4823
(1494582033.547966) can0 444#610C5C4C69
(1494582033.549080) can0 13E#51
(1494582033.550222) can0 4F5#97A5085D61
(1494582033.551333) can0 7ED#A6B15A331394AC13
(1494582033.552462) can0 264#5C
(1494582033.553458) can0 53E#80BF6522EA882C
(1494582033.554462) can0 64E#00C0000000000000
(1494582033.554581) can0 04E#6FC7020F3DF51C62
(1494582033.555721) can0 518#466165055D218C77
(1494582033.556844) can0 39F#C642CB3BDD1CE3
(1494582033.557957) can0 549#25002C773E02530D
(1494582033.559094) can0 7DD#9F7D540DCA57093E
(1494582033.560207) can0 555#DDEBB551BA
(1494582033.561345) can0 147#CFBEDD2C856ED467
(1494582033.562469) can0 5D1#6FF7004F1F46962C
(1494582033.563554) can0 41F#5C3BB30E37C9B928
(1494582033.564722) can0 4E8#94EA45
(1494582033.565807) can0 24A#64158E4A93EF6A5A
(1494582033.566877) can0 473#D1F1BD6750B4BF11
(1494582033.567958) can0 345#
(1494582033.568959) can0 6B6#5540C10BFDBFD5
(1494582033.570082) can0 431#822EAA13
(1494582033.571204) can0 574#21
(1494582033.572365) can0 4CF#CA82DB60B7094B77
(1494582033.573504) can0 020#3E02F61F6B1A8021
(1494582033.574629) can0 2BA#FE09
(1494582033.574844) can0 630#43D203D2
(1494582033.575728) can0 52C#
(1494582033.576707) can0 340#0C71E44FF6097D
(1494582033.577829) can0 78E#F3
(1494582033.578970) can0 086#C1FDF404FA
(1494582033.580113) can0 666#8DE7
(1494582033.581114) can0 160#EC0CA26880B902
(1494582033.582204) can0 7B6#EBD3822270727813
(1494582033.583332) can0 6CD#9D712020F9535A1F
(1494582033.584456) can0 1BA#6A3C8761FA44D25A
(1494582033.585447) can0 1FD#0000000000000000
(1494582033.585580) can0 4B1#F14E4F69409C68
(1494582033.585700) can0 30B#0F00010000000098
(1494582033.586114) can0 65E#880816F6A13B0A00
(1494582033.586754) can0 6D8#FFA71955
(1494582033.587741) can0 15A#58
(1494582033.588811) can0 3A3#F6329E1303
(1494582033.589954) can0 73D#843E
(1494582033.591081) can0 70D#64D9A810DA75F477
(1494582033.592219) can0 059#D3
(1494582033.593241) can0 01C#0E0F175CCD540A1C
(1494582033.594364) can0 3B4#0DF172588D125337
(1494582033.595491) can0 6E3#EB21A9583D88A75A
(1494582033.596614) can0 6CE#FEB7EE7C
(1494582033.597709) can0 429#759FB33C
(1494582033.598703) can0 2D6#5A7A076CE379A511
(1494582033.599856) can0 068#BDEF9909C2E0DE5A
(1494582033.600991) can0 6BF#
(1494582033.602113) can0 7CE#A963D5
(1494582033.603237) can0 7E2#0F86537BC68E
(1494582033.604240) can0 5C3#03175141912C7046
(1494582033.605332) can0 73F#03
(1494582033.606469) can0 1F5#CF9EE600CCE4995B
(1494582033.607631) can0 471#AF5E3F6DD9B43E59
(1494582033.608739) can0 4E7#9B951D34A60B1817
(1494582033.609846) can0 7FD#82
(1494582033.610987) can0 254#4E3B817537121D46
(1494582033.611956) can0 2E1#FDA0C62CA5C0D53C
(1494582033.613083) can0 158#
(1494582033.614352) can0 702#00FC0341F740247B
(1494582033.615366) can0 2B1#C325BE5622DF5949
(1494582033.616490) can0 3F8#FC9398
(1494582033.617765) can0 2E0#852C8F2FDDDA98
(1494582033.618831) can0 208#A9A219045D6473
(1494582033.619956) can0 532#9476907514982B
(1494582033.620970) can0 754#B9
(1494582033.622126) can0 791#4479355E9356C63C
(1494582033.623241) can0 229#8B97EA37
(1494582033.624365) can0 013#FD739C6C0BC4FC0F
(1494582033.625486) can0 1C1#EAE47328A1147D0D
(1494582033.626594) can0 190#
(1494582033.627718) can0 077#F6FF557CAA1DA00B
(1494582033.628744) can0 01F#BEB5CB59730F3A48
(1494582033.629825) can0 61B#20187B77AC5DAC
(1494582033.631000) can0 466#40B472618F
(1494582033.632114) can0 6A9#6A63CD6DBD160E56
(1494582033.633206) can0 119#C8DA0A66DB4AAC
(1494582033.634362) can0 760#7C5F29
(1494582033.634831) can0 30B#0F00010000000098
(1494582033.635458) can0 123#89AC6C1C9A29F721
(1494582033.636582) can0 123#4447972D4251392A
(1494582033.637566) can0 309#B660
(1494582033.638709) can0 379#D10E9343E05F
(1494582033.639833) can0 23B#6F
(1494582033.640957) can0 6DC#A227970AF5176966
(1494582033.642077) can0 140#D0621561A048A55B
(1494582033.643240) can0 21D#91592F2B4093A265
(1494582033.644243) can0 148#DBBC99076CF2EC1D
(1494582033.644355) can0 1FD#0000000000000000
(1494582033.645345) can0 29A#AE432648A3D5076B
(1494582033.646489) can0 122#C886EE09
(1494582033.647582) can0 53B#7B6C080876272764
(1494582033.648722) can0 0AA#5B38B0188667EA30
(1494582033.649831) can0 4C4#7B7F531705967A3B
(1494582033.650988) can0 268#A5DE1F1785240A13
(1494582033.651995) can0 499#C6B7AC78E1B5
(1494582033.653133) can0 651#4D
(1494582033.654220) can0 0C0#8EC65155E2790B72
(1494582033.655332) can0 060#7E86CF1A9BAD
(1494582033.656331) can0 2EF#12D5815C993B491F
(1494582033.657506) can0 5E4#1FA33350A9BA231E
(1494582033.658614) can0 56B#AE509E59D3CF622C
(1494582033.659722) can0 4E7#58F46C
(1494582033.660833) can0 78A#615FBD74DBA5F83C
(1494582033.661971) can0 0BF#C69642278099D76D
(1494582033.663079) can0 3AB#6213E35F
(1494582033.664116) can0 2AB#
(1494582033.665373) can0 4DA#34C9DF27BE1A3A72
(1494582033.666336) can0 426#67D55D
(1494582033.667458) can0 6EE#6451C641D5
(1494582033.668574) can0 569#553D2201F3BCC70D
(1494582033.669699) can0 1DB#CE62C04A9B12AD
(1494582033.670825) can0 466#1BAC845F
(1494582033.671994) can0 6E8#1C1C944D93016C4A
(1494582033.672990) can0 15E#2E8F02
(1494582033.674115) can0 47C#F600
(1494582033.675208) can0 4B5#34EACF12A4539052
(1494582033.676344) can0 473#79E71A12DC51F31E
(1494582033.677332) can0 156#CF0EBB2C3173160F
(1494582033.678491) can0 186#CC85C300EC65CC44
(1494582033.679627) can0 331#FDFD845F1AC215
(1494582033.680614) can0 165#ADC38122C34ACA59
(1494582033.681700) can0 7DD#FB306F3159BC6526
(1494582033.682955) can0 33D#FC
(1494582033.683956) can0 04F#97
(1494582033.684459) can0 6C7#04011501640000
(1494582033.684747) can0 30B#0F00010000000098
(1494582033.684996) can0 2CA#
(1494582033.684998) can0 5F2#0000
(1494582033.686116) can0 7DF#513F187065916164
(1494582033.687239) can0 70C#51F72D293E426C46
(1494582033.688333) can0 705#5804821E6AE8D370
(1494582033.689470) can0 768#2D339E4A45
(1494582033.690584) can0 2E1#9E3315021EC6EE26
(1494582033.691581) can0 61A#11364B0A699EE64C
(1494582033.692744) can0 7CC#2CA3AA6696B2C167
(1494582033.693866) can0 4B9#B67EC34898748463
(1494582033.695005) can0 73B#FE05E6474736C2
(1494582033.696111) can0 325#85782E282B7ADB7A
(1494582033.697104) can0 29E#9562AF6B0602932F
(1494582033.698209) can0 4E3#4B7942
(1494582033.699367) can0 1EB#E2252B650590B629
(1494582033.700491) can0 584#6F2E9D76
(1494582033.701613) can0 59C#E61F8A7755FAED37
(1494582033.702583) can0 367#EE6E721BA22A7E01
(1494582033.703721) can0 4A4#EA604063C9DFE022
(1494582033.704456) can0 1FD#0000000000000000
(1494582033.704843) can0 23B#F459BC1DD964334E
(1494582033.705959) can0 64D#DF66C67D309BD359
(1494582033.707085) can0 24D#F4FA0F18384C1472
(1494582033.708114) can0 514#3EDCCA1B9892
(1494582033.709254) can0 4CA#E9FF675967D25F1C
(1494582033.710345) can0 448#BCCC4D54B0A7596C
(1494582033.711470) can0 66C#52D2D76D101B690A
(1494582033.712581) can0 096#D9FA492DD2228527
(1494582033.713615) can0 4AC#AB87B875F962A62E
(1494582033.714739) can0 158#29FE7908A5632B14
(1494582033.715998) can0 6B5#DDAF3F06C95BE812
(1494582033.717011) can0 1F3#62EE875CBE96760A
(1494582033.718097) can0 6C8#2569D62611732224
(1494582033.719210) can0 61A#C1
(1494582033.720243) can0 18C#96E78A
(1494582033.721352) can0 050#
(1494582033.722456) can0 73E#
(1494582033.723583) can0 32B#3BAC7803E089414B
(1494582033.724720) can0 73B#AAE5295E2EA16221
(1494582033.725707) can0 034#EC37D92BFC7E3560
(1494582033.726869) can0 257#0D
(1494582033.727989) can0 6F3#F89CA50F7F48B838
(1494582033.729127) can0 1E2#A16AB576321A9462
(1494582033.730087) can0 6FE#2E47870E3C9E
(1494582033.731239) can0 436#D2E62D
(1494582033.732330) can0 541#41C16D517CECD14F
(1494582033.733470) can0 726#AA8D34715AD72145
(1494582033.734618) can0 2F7#565657254E3DEB
(1494582033.735369) can0 30B#0F00010000000098
(1494582033.735723) can0 6A8#C00D6F52
(1494582033.736712) can0 532#1A864976144FAB51
(1494582033.737992) can0 746#46693F3445964A16
(1494582033.738942) can0 052#81342B33
(1494582033.740074) can0 797#E953D506
(1494582033.741085) can0 661#54D9ED47879D5E68
(1494582033.742224) can0 416#E174802D0D372472
(1494582033.743305) can0 496#5C740F4D3E93ED45
(1494582033.744489) can0 39C#DAD07E03CE680A3B
(1494582033.745486) can0 4D4#E3B7B50C
(1494582033.746580) can0 7B0#5FF2222C02E8FD2F
(1494582033.747708) can0 19E#8A
(1494582033.748832) can0 235#0E46BF
(1494582033.749959) can0 59E#1E8E
(1494582033.751084) can0 661#C160BE09F7B2FF7E
(1494582033.752210) can0 637#3646ED44D3E1E452
(1494582033.753345) can0 739#
(1494582033.754328) can0 604#28E0B70DB5
(1494582033.755602) can0 3AE#B79DF9584CF555
(1494582033.756586) can0 168#824E
(1494582033.757707) can0 2B5#
(1494582033.758834) can0 3F2#0792
(1494582033.759956) can0 551#4BED344E898B6055
(1494582033.761122) can0 7E6#5C
(1494582033.762229) can0 291#2DA32E3796B8C21D
(1494582033.763335) can0 283#4B6EBE4632
(1494582033.764334) can0 5DD#7ED3
(1494582033.764337) can0 1FD#0000000000000000
(1494582033.765492) can0 644#
(1494582033.766610) can0 690#4D11523B836AE1
(1494582033.767694) can0 169#D7A41647BA
(1494582033.768709) can0 61E#43BA
(1494582033.769958) can0 5A4#
(1494582033.771079) can0 79E#CBC8
(1494582033.772257) can0 3A7#5478D92084F9
(1494582033.773236) can0 319#CA48
(1494582033.774375) can0 5D3#579A031C6324E218
(1494582033.775500) can0 2C4#E68EC3102D
(1494582033.776625) can0 6FA#E72A5C5618E51B11
(1494582033.777739) can0 5E0#1C431C70848B9315
(1494582033.777742) can0 1BFC38B1#0000000000000000
(1494582033.778334) can0 1BFC38BB#FFFFFFFFFFFFFFFF
(1494582033.778709) can0 4CB#B9
(1494582033.778711) can0 1BFC38BA#0000000700000014
(1494582033.778950) can0 1BFC38B9#040096408008FC68
(1494582033.779368) can0 1BFC38B8#0000000800000000
(1494582033.779735) can0 1BFC38B7#800164842502022C
(1494582033.780009) can0 093#8B86B6203A
(1494582033.780011) can0 1BFC38B6#000000082502022C
(1494582033.780362) can0 1BFC38B5#0502FF0001020000
(1494582033.780869) can0 1BFC38B4#FF00000000000000
(1494582033.781092) can0 39B#BF7D7417B4DE002C
(1494582033.781095) can0 1BFC38B3#8001648406004433
(1494582033.781442) can0 1BFC38B2#8001648483830017
(1494582033.782249) can0 2B2#12D08E5D85B89935
(1494582033.783345) can0 236#E8DC7B4EFA244C3F
(1494582033.784330) can0 60E#2721F7250865064C
(1494582033.785470) can0 78C#204A225D6C653F24
(1494582033.785473) can0 30B#0F00010000000098
(1494582033.786595) can0 139#F0F0D239043E8620
(1494582033.787704) can0 57E#6E2AD74C112E943F
(1494582033.788846) can0 12F#4BB2E23DCA8C7C32
(1494582033.789959) can0 7D9#7F6B7D5E8BFA501D
(1494582033.790961) can0 693#10
(1494582033.792090) can0 5FA#C3B5772609BC8606
(1494582033.793346) can0 3C7#11218D52549BBF37
(1494582033.794330) can0 2F9#C000
(1494582033.795466) can0 06F#37
(1494582033.796580) can0 65B#FE732C188A
(1494582033.797704) can0 59E#54FC612A771D8C6A
(1494582033.798832) can0 654#0218DD
(1494582033.799960) can0 364#B1DD
(1494582033.800950) can0 30B#68051101
(1494582033.802104) can0 25F#26F29334588D166C
(1494582033.803346) can0 1AB#8AE1994C1A8A3B
(1494582033.804457) can0 498#07
(1494582033.805489) can0 066#7DD27E0705
(1494582033.806598) can0 24F#7C
(1494582033.807705) can0 6A5#8A0DB83B09DAAB7F
(1494582033.808847) can0 691#6823367A9CF95120
(1494582033.809957) can0 6B0#
(1494582033.810978) can0 74A#67767652F5
(1494582033.812099) can0 57C#10
(1494582033.813204) can0 3B3#077D4B1819FC37
(1494582033.814345) can0 71D#1E9A2A5F
(1494582033.815470) can0 656#0FAAC755FB546B0C
(1494582033.816579) can0 11A#042F170CABC7280E
(1494582033.817705) can0 2D5#48C17A2E8521B140
(1494582033.818708) can0 33D#940A112787CA79
(1494582033.819845) can0 44C#7DABAC22C989A87F
(1494582033.820970) can0 0EC#DDA35A089FA44B05
(1494582033.822095) can0 1A4#B9A0830DC1
(1494582033.823103) can0 069#2DBAF11FBF8E1B
(1494582033.824239) can0 072#BAE3861E8CB95C77
(1494582033.824328) can0 1FD#0000000000000000
(1494582033.825345) can0 3D6#38818505ABBEDE04
(1494582033.826470) can0 52C#
(1494582033.827580) can0 437#F1AAF902
(1494582033.828709) can0 3BF#4C32A51CAB44C07E
(1494582033.829845) can0 4FB#4BE90B049FBE1E3B
(1494582033.830929) can0 70F#618FBE77
(1494582033.831950) can0 4DB#38F631184E55950B
(1494582033.833082) can0 5CB#DA0E
(1494582033.834207) can0 4B1#4C88
(1494582033.834995) can0 30B#0F00010000000098
(1494582033.835335) can0 292#4732C244C926193C
(1494582033.836458) can0 340#4DCF1559FFBEDA31
(1494582033.837600) can0 3A6#AA039B30A1A02308
(1494582033.838725) can0 7C3#405F4243D2
(1494582033.839845) can0 6F9#4B
(1494582033.840971) can0 030#239109
(1494582033.842082) can0 675#9CAFBD7427F3B816
(1494582033.843222) can0 010#0445FB28A202EB17
(1494582033.844209) can0 064#6C290454A4F30239
(1494582033.845472) can0 483#A3B2DD6A2988DB22
(1494582033.846456) can0 252#CA28FF2A16D28F3D
(1494582033.847598) can0 343#E8A0F01D3C1A5616
(1494582033.848725) can0 6AC#1156CA
(1494582033.849993) can0 3B6#D7940E5C
(1494582033.851001) can0 732#53FD2B
(1494582033.852096) can0 45B#E4B92D71BF1C5C
(1494582033.853202) can0 1A3#
(1494582033.854352) can0 409#5096393E5CD6
(1494582033.855305) can0 154#72A8B052971CD55B
(1494582033.856452) can0 725#D3362B72D2BDBC00
(1494582033.857585) can0 08E#AE6CB07C44
(1494582033.858585) can0 419#702E8D304BFB
(1494582033.859712) can0 5F9#8DB2DB
(1494582033.860845) can0 61B#14DF
(1494582033.861972) can0 7C2#E4352379CC2B8777
(1494582033.863125) can0 27E#2802A80C
(1494582033.864258) can0 34F#6948193274D20F78
(1494582033.865237) can0 3F4#4690CC7882140345
(1494582033.866500) can0 422#C7381D3D3B
(1494582033.867458) can0 67B#877B9C5E7444C7
(1494582033.868582) can0 2FB#C9065E00
(1494582033.869721) can0 286#D428094349EABC72
(1494582033.870712) can0 556#1516446AD487317A
(1494582033.871962) can0 2ED#A7B375503CB61E14
(1494582033.872957) can0 2D7#
(1494582033.874076) can0 34D#4ECB416B6F870D
(1494582033.875210) can0 5EC#AB07110167
(1494582033.876361) can0 34C#DB58
(1494582033.877524) can0 146#5DFFB068CD
(1494582033.878579) can0 583#16
(1494582033.879751) can0 6EA#ADA2FE3FD7B16F5B
(1494582033.880837) can0 468#13688E6F
(1494582033.881988) can0 265#0ADE17
(1494582033.882960) can0 1BA#2255E451A61F307B
(1494582033.884117) can0 56D#0D34E443BA18C274
(1494582033.885225) can0 7FF#01172F784591C83F
(1494582033.885988) can0 6C7#04011501640000
(1494582033.886361) can0 48E#12DD6F3A1132635B
(1494582033.886364) can0 1FD#0000000000000000
(1494582033.886630) can0 30B#0F00010000000098
(1494582033.887010) can0 5F2#0000
(1494582033.887485) can0 690#EA4C30217AC58074
(1494582033.888594) can0 753#5177F04FBBC310
(1494582033.889718) can0 5EC#FAEAE972
(1494582033.890687) can0 028#03667D3EE2
(1494582033.891958) can0 25D#89F92337CB
(1494582033.892955) can0 7F2#8538D647F1F7
(1494582033.894082) can0 27F#3789C2550DA7
(1494582033.895210) can0 5E5#1ED9032076A47F2D
(1494582033.896380) can0 172#F0690022C5D88237
(1494582033.897367) can0 5A0#819C
(1494582033.898488) can0 0A6#DDF3AC18CE90AB6C
(1494582033.899723) can0 080#
(1494582033.900876) can0 506#A9E2EE7DF82CE34A
(1494582033.901849) can0 1D0#EA24DD60504C335A
(1494582033.903006) can0 2B4#5D
(1494582033.904116) can0 46A#10752F54DC8DD87E
(1494582033.905224) can0 284#
(1494582033.906208) can0 042#B06375
(1494582033.907332) can0 29E#B7113C061FDBEB6A
(1494582033.908470) can0 16E#FD9DC61574C6D80D
(1494582033.909558) can0 0A2#6CF3BB587372
(1494582033.910757) can0 3D4#C3BE9D438806
(1494582033.911980) can0 677#
(1494582033.912991) can0 69C#BE68
(1494582033.914112) can0 333#
(1494582033.915207) can0 283#5E6C0552225D
(1494582033.916347) can0 483#41388647F1E5
(1494582033.917335) can0 27E#65AC817D21DBBB15
(1494582033.918459) can0 6E4#944D
(1494582033.919597) can0 028#40F9C129A07E0F
(1494582033.920725) can0 677#82591A
(1494582033.921806) can0 495#
(1494582033.922987) can0 1A1#3E33A41224646A01
(1494582033.923988) can0 470#46C1045EF4382F6F
(1494582033.925079) can0 5B2#E51ED85E311808
(1494582033.926220) can0 7C5#52F3C359A926DA73
(1494582033.927333) can0 31D#6119573E4523
(1494582033.928473) can0 53D#E5A1
(1494582033.929569) can0 305#C84863079AFFAA
(1494582033.930721) can0 5A8#6347DA7B494FD23F
(1494582033.931854) can0 678#6D
(1494582033.932987) can0 23D#DC5BD32F
(1494582033.933988) can0 63B#2150
(1494582033.935113) can0 60D#AA647E
(1494582033.935615) can0 30B#0F00010000000098
(1494582033.936250) can0 459#6FD40A6096D17742
(1494582033.937360) can0 0AE#4ADD5B03B3
(1494582033.938484) can0 1BC#4D7369
(1494582033.939596) can0 510#
(1494582033.940579) can0 551#715E6C558F4FEA18
(1494582033.941721) can0 6CF#7F87FD480A15D367
(1494582033.942876) can0 50F#
(1494582033.943984) can0 313#462C8D1C6C9F
(1494582033.944487) can0 1FD#0000000000000000
(1494582033.945134) can0 5C2#0271397470C6
(1494582033.946111) can0 70B#233A7840C7E8403B
(1494582033.947238) can0 45F#
(1494582033.948360) can0 021#F8CC1311729DE718
(1494582033.949483) can0 0F4#01EDD131C36F4B27
(1494582033.950614) can0 5B7#
(1494582033.951721) can0 420#E3959B7E3367E042
(1494582033.952739) can0 78F#9F06A27451C5560E
(1494582033.953861) can0 2DF#C1
(1494582033.954988) can0 5EE#B2222272
(1494582033.956099) can0 355#BDCB105F76DB8F64
(1494582033.957223) can0 1B7#E878777DAC9A
(1494582033.958211) can0 41F#6F0A295CD6A96442
(1494582033.959332) can0 26A#9DC40F428B260162
(1494582033.960470) can0 717#
(1494582033.961598) can0 4A9#F8BBBF6189DF9473
(1494582033.962612) can0 3FF#7319762AEDD1CF62
(1494582033.963754) can0 59E#3B0C9545F3
(1494582033.964878) can0 703#695C5322BB484A7D
(1494582033.965987) can0 0AE#67
(1494582033.966962) can0 33B#A4DED32DA615
(1494582033.968083) can0 514#31
(1494582033.969233) can0 5C1#D1DADE766B1A630C
(1494582033.970334) can0 64D#F4F9F77F4D6AF21B
(1494582033.971472) can0 683#3A3CC27E21ECC7
(1494582033.972626) can0 78D#146D8B1990
(1494582033.973708) can0 06E#4B0F02111C91C77D
(1494582033.974835) can0 6CE#EAC5
(1494582033.975959) can0 089#B0EFEA239D5D134B
(1494582033.976983) can0 7D0#C8
(1494582033.978114) can0 5D0#FD5FE0431E54BC18
(1494582033.979233) can0 363#6B
(1494582033.980364) can0 558#077E3D29E5
(1494582033.981501) can0 31B#768304498963C560
(1494582033.982461) can0 498#A5
(1494582033.983583) can0 574#
(1494582033.984586) can0 30B#0F00010000000098
(1494582033.984688) can0 71F#
(1494582033.985979) can0 101#81EC
(1494582033.986970) can0 1FB#F092F83F5ED5B64B
(1494582033.988096) can0 66F#44672C19C8133913
(1494582033.989205) can0 400#ADD085481B8FE01F
(1494582033.990334) can0 066#A4F2A5
(1494582033.991333) can0 6E5#65D82B5E596CC108
(1494582033.992574) can0 1DA#56D26C77F9
(1494582033.993751) can0 2F6#
(1494582033.994861) can0 352#C9AA845B4DBD2367
(1494582033.995126) can0 62F#4451000228
(1494582033.995987) can0 0E8#AC92DA325887C80E
(1494582033.996988) can0 714#
(1494582033.998112) can0 73C#306A1D58A2AFA313
(1494582033.999236) can0 7F1#A1347E17D6
(1494582034.000241) can0 41F#2F136470F9E5
(1494582034.001361) can0 2DB#F2E6B164D1
(1494582034.002489) can0 375#C9A16219C7167072
(1494582034.003588) can0 344#14D4
(1494582034.004577) can0 1FD#0000000000000000
(1494582034.004700) can0 24C#
(1494582034.005846) can0 0B1#75F4C558ED
(1494582034.006958) can0 272#8FEF897A6352
(1494582034.008085) can0 37B#
(1494582034.009237) can0 136#93E5892012449760
(1494582034.010237) can0 1ED#E379B14562
(1494582034.011347) can0 35F#29846C25A47E5E2E
(1494582034.012457) can0 03F#D18223718BF25F64
(1494582034.013583) can0 6FE#EB0BE904AF1F
(1494582034.014719) can0 4FB#9C
(1494582034.015832) can0 707#D1197F6E821A3918
(1494582034.016957) can0 35C#1C1AD65993A40E5F
(1494582034.017959) can0 773#A5E8A53F6011797C
(1494582034.019097) can0 434#C37E752F93270B55
(1494582034.020207) can0 635#37A6690374E66638
(1494582034.021333) can0 32A#FFD8C61C291A515F
(1494582034.022455) can0 75E#D8393543596C7E6D
(1494582034.023478) can0 54B#C733D50152
(1494582034.024583) can0 0A1#D45E2A26FD5BB02A
(1494582034.025847) can0 0A2#
(1494582034.026709) can0 1BFC38B1#0000000000000000
(1494582034.026979) can0 09F#7691907FD3
(1494582034.026981) can0 1BFC38BB#FFFFFFFFFFFFFFFF
(1494582034.027582) can0 1BFC38BA#0000000700000014
(1494582034.027841) can0 1BFC38B9#000096408008FC68
(1494582034.027953) can0 3BE#676C074FF3C92733
(1494582034.028242) can0 1BFC38B8#0000000800000000
(1494582034.028711) can0 1BFC38B7#800164842502022C
(1494582034.028965) can0 1BFC38B6#0000000B00000000
(1494582034.029069) can0 325#67B08E6B506ECA57
(1494582034.029333) can0 1BFC38B5#0502FF0001020000
(1494582034.029839) can0 1BFC38B4#FF00000000000000
(1494582034.030208) can0 3A7#79881B370573
(1494582034.030210) can0 1BFC38B3#8001648406004433
(1494582034.030455) can0 1BFC38B2#8001648483830017
(1494582034.031335) can0 650#5F
(1494582034.032458) can0 3C6#EE9755376744
(1494582034.033582) can0 0BE#65A054
(1494582034.034586) can0 7B3#76419A0153
(1494582034.035208) can0 30B#0F00010000000098
(1494582034.035704) can0 22B#262DDD51E9D53428
(1494582034.036960) can0 325#DC9F5C5B4AF61834
(1494582034.037960) can0 42C#9A64E3
(1494582034.039079) can0 1A9#D85A90
(1494582034.040208) can0 765#959BAA222B0BA0
(1494582034.041333) can0 55D#934F4421
(1494582034.042333) can0 247#7C6F426EFA990015
(1494582034.043467) can0 0ED#4D82
(1494582034.044580) can0 3DE#01F15939
(1494582034.045705) can0 101#4D5D51552DF5F852
(1494582034.046846) can0 120#00DD4C0DC9BAE22A
(1494582034.047972) can0 6FB#C3022924605E8361
(1494582034.049085) can0 210#8C6923276EBF037C
(1494582034.050221) can0 1DC#896DC36B23FC5358
(1494582034.051210) can0 117#1E96546D04
(1494582034.052337) can0 5F7#1D55D238D511EA3A
(1494582034.053463) can0 7DF#D878225CE1109878
(1494582034.054584) can0 6FC#0E06914B1CB8
(1494582034.055709) can0 00E#E672670D0947DC36
(1494582034.056846) can0 2E8#6AA55F18F88CE308
(1494582034.057991) can0 401#664CE704DEE5
(1494582034.059086) can0 015#
(1494582034.060239) can0 6F5#30AB981FED249314
(1494582034.061240) can0 08B#C2367D4F6A580B52
(1494582034.062373) can0 66C#4B69A34A681D7A51
(1494582034.063506) can0 5C1#84D5FE33CF1DBC6F
(1494582034.064334) can0 1FD#0000000000000000
(1494582034.064581) can0 269#D8649826516DCD0D
(1494582034.065722) can0 613#49FA
(1494582034.066707) can0 138#
(1494582034.067831) can0 0A0#7952517E
(1494582034.068970) can0 214#82BC866B9FA2150E
(1494582034.070112) can0 5F7#09FB206063
(1494582034.071222) can0 2E0#CB616612A1
(1494582034.072346) can0 3AF#
(1494582034.073330) can0 7BA#6993D83DCE3DC27A
(1494582034.074459) can0 58B#E30F
(1494582034.075581) can0 462#11B0E41D02D5
(1494582034.076723) can0 1CA#986C5853DE73CD35
(1494582034.077833) can0 034#7D16E3432CFE7430
(1494582034.078959) can0 45F#8F4261713FBF86
(1494582034.079979) can0 5DC#E0E73D248B49C10F
(1494582034.081087) can0 3AB#
(1494582034.082223) can0 199#3399BA4C248FC04A
(1494582034.083375) can0 0BE#E75D3F622165
(1494582034.084471) can0 0EC#233AB53EB7D2557E
(1494582034.085086) can0 6C7#04011501640000
(1494582034.085333) can0 30B#0F00010000000098
(1494582034.085448) can0 083#95462334B7107A56
(1494582034.085451) can0 5F2#0000
(1494582034.085722) can0 643#000200
(1494582034.086208) can0 64E#00C0000000000000
(1494582034.086460) can0 65E#88089AB54E690500
(1494582034.086579) can0 7D6#E30EEF
(1494582034.086695) can0 6B8#6D08000000000000
(1494582034.087084) can0 6BC#3A81EB502F4C0700
(1494582034.087707) can0 69A#75AB56
(1494582034.088831) can0 5CE#012E947A79
(1494582034.089971) can0 1A6#DE2C3D18
(1494582034.091054) can0 0B0#632A
(1494582034.092220) can0 728#8F96844C15E05635
(1494582034.093346) can0 643#CCB2AC
(1494582034.094333) can0 76E#7D
(1494582034.095460) can0 674#7A
(1494582034.096759) can0 7D4#84A9B366A20D5274
(1494582034.097736) can0 244#1BDF963AEA
(1494582034.098863) can0 529#29CF3734D915AE53
(1494582034.099987) can0 20B#4847E25D34419B4F
(1494582034.101113) can0 1D7#4921F2041A1824
(1494582034.102240) can0 68A#E0BEA406F9
(1494582034.103331) can0 576#3D6D1C41EB234500
(1494582034.104462) can0 4BE#F9E8257C9254C3
(1494582034.105599) can0 7A6#3462156CEBF16A12
(1494582034.106585) can0 203#D525A06D2DDFC95F
(1494582034.107711) can0 549#06F57733541F4C31
(1494582034.108988) can0 68B#8860E7006270D057
(1494582034.109958) can0 226#7C
(1494582034.111082) can0 5E6#A9EE49445D23E75E
(1494582034.112207) can0 5BA#48472C5F78FAC1
(1494582034.113332) can0 49E#0B
(1494582034.114457) can0 2BF#306E6D70C32C4D02
(1494582034.115457) can0 28F#F00B1762D8
(1494582034.116585) can0 104#2C5F13779077
(1494582034.117711) can0 545#F2E788516B
(1494582034.118959) can0 186#1B200C546D974C3C
(1494582034.119986) can0 7CB#CABA331B85
(1494582034.121222) can0 2AC#FE6F
(1494582034.122211) can0 253#8FE3457B13F5DD13
(1494582034.123335) can0 048#D6212B16D762787F
(1494582034.124340) can0 1FD#0000000000000000
(1494582034.124458) can0 5C5#AFA23F45C96E
(1494582034.125594) can0 6BC#59E65E43016CBA34
(1494582034.126708) can0 191#6CC3641717032232
(1494582034.127833) can0 6BB#849A6E6E86F67B72
(1494582034.128956) can0 24D#0C6CCB04F95C8321
(1494582034.129958) can0 760#43C4C63EB489B459
(1494582034.131222) can0 313#C77E92
(1494582034.132335) can0 192#336E1D1957DF806F
(1494582034.133314) can0 663#214E
(1494582034.134475) can0 2BE#21698B3E4FD4FD4E
(1494582034.135084) can0 30B#0F00010000000098
(1494582034.135582) can0 2C6#67D71F018141D333
(1494582034.136724) can0 015#08384F2662022845
(1494582034.137710) can0 73A#5B5FAB66
(1494582034.138833) can0 01E#4EA8E756311B6B6A
(1494582034.139959) can0 372#8C26100404
(1494582034.141073) can0 7B2#5CA4BF7415963744
(1494582034.142084) can0 5A2#3593084E60B83A16
(1494582034.143335) can0 6F7#B08C3865BE29
(1494582034.144429) can0 0E3#3F6BAE6FF938E5
(1494582034.145598) can0 602#5B3B0D693C9D17
(1494582034.146585) can0 75B#D7BB4A4C79C70F
(1494582034.147837) can0 656#AAE27A2FC8
(1494582034.148959) can0 33B#CC4EE859ED52E4
(1494582034.149959) can0 5F6#03E91B749843434C
(1494582034.151100) can0 5A5#F9FB7D629D0CFC26
(1494582034.152205) can0 08E#5B36D76271A13C31
(1494582034.153473) can0 4C0#6ADA2155C2C2F503
(1494582034.154489) can0 4E2#FF5F0D533D8C
(1494582034.155588) can0 07D#B753AB6ED36E
(1494582034.156850) can0 7FB#9B
(1494582034.157959) can0 798#245E1B5A8FDD69
(1494582034.158958) can0 290#2721AD6E3520DB
(1494582034.160097) can0 35F#
(1494582034.161210) can0 5C9#5EDD50108992F046
(1494582034.162473) can0 4C8#4C55E64AAA49B741
(1494582034.163460) can0 58F#E7D5526B0C7E8931
(1494582034.164600) can0 121#DFEC9B341C51D67F
(1494582034.165723) can0 000#535C0D2A989FD549
(1494582034.166846) can0 4E1#277D3F6C716748
(1494582034.167958) can0 19E#A787233BFDC4BB62
(1494582034.168961) can0 36F#EA00D0413961F944
(1494582034.170080) can0 7A7#C2F3E90B6F1CDD3E
(1494582034.171222) can0 611#19669400A063355B
(1494582034.172348) can0 659#
(1494582034.173474) can0 59F#9720E6319FC5093E
(1494582034.174597) can0 405#3765DF07E7E0AE0B
(1494582034.175708) can0 761#5848F749FF387C32
(1494582034.176849) can0 0AE#FCFD37151D3C237B
(1494582034.178001) can0 479#569D1C40209C
(1494582034.178989) can0 52E#8FB89B084073BC60
(1494582034.180101) can0 227#E0D6F13B81D89A17
(1494582034.181222) can0 2A8#FBA7AA4947C0FC3A
(1494582034.182349) can0 718#E685
(1494582034.183471) can0 57C#051C6D63DD7CA037
(1494582034.184457) can0 1FD#0000000000000000
(1494582034.184572) can0 57D#DCB51C6A2B4E1044
(1494582034.184710) can0 30B#0F00010000000098
(1494582034.185751) can0 45D#488A333FD6B89416
(1494582034.186861) can0 2BE#F6545360ED8F857F
(1494582034.188009) can0 0B8#2D034260DF
(1494582034.188986) can0 42D#606BC805D5863667
(1494582034.190125) can0 29A#1D473322B319F06E
(1494582034.191228) can0 3EE#D154AE
(1494582034.192336) can0 021#489E285A9E85
(1494582034.193599) can0 533#C9D3345590
(1494582034.194470) can0 6B6#390C1C000228
(1494582034.194575) can0 7FD#66C2
(1494582034.194682) can0 6B7#90B9E00008FF0051
(1494582034.195709) can0 5B1#A94A7C19693E0F5F
(1494582034.196846) can0 4E1#48D13C4D0E51
(1494582034.198002) can0 7E3#E4D72B437EBAD67A
(1494582034.199114) can0 005#31
(1494582034.200255) can0 404#5E4D
(1494582034.201235) can0 1D8#C429DD2D0B6F10
(1494582034.202507) can0 7CC#9C780F3CC9470C72
(1494582034.203488) can0 3A0#8502
(1494582034.204743) can0 25F#BA1F420A40776047
(1494582034.205831) can0 304#4FC8
(1494582034.206973) can0 5AB#667D06
(1494582034.208097) can0 734#A4A9783A38AB79
(1494582034.209251) can0 299#5E4F
(1494582034.210237) can0 2A9#7C83E3
(1494582034.211376) can0 6B1#3F6A285551D29B31
(1494582034.212502) can0 71B#A2B3CE5C
(1494582034.213611) can0 1F3#BA008114F754E825
(1494582034.214750) can0 45E#DF17185B0AF21369
(1494582034.215822) can0 13C#BA6F103670
(1494582034.216972) can0 6DC#A9D3B23675612E6F
(1494582034.218085) can0 061#E67501140AF3AF
(1494582034.219207) can0 42A#8015CC
(1494582034.220225) can0 57B#2CE5B102962C6E6D
(1494582034.221365) can0 483#10B68E3A76A6CA0F
(1494582034.222501) can0 42A#6EFBB23589302105
(1494582034.223609) can0 7D4#9322356E11E93E25
(1494582034.224741) can0 093#8111780F6F8FD540
(1494582034.225834) can0 3AC#E5F003300DBCD44F
(1494582034.226988) can0 032#17AF843F5CA4041D
(1494582034.228127) can0 02E#38B71A6EAA55C2
(1494582034.229251) can0 456#4082301A
(1494582034.230239) can0 533#50
(1494582034.231364) can0 71C#E6D1FF1BF06EB52A
(1494582034.232473) can0 60C#0158F44F9F8E9735
(1494582034.233600) can0 6C7#0E1E6D
(1494582034.234722) can0 6AD#80EE1D
(1494582034.235433) can0 30B#0F00010000000098
(1494582034.235861) can0 5BF#3CFBAB28EDD560
(1494582034.236987) can0 22F#972B2346
(1494582034.237990) can0 6D8#5FD79D620B84E057
(1494582034.239113) can0 629#
(1494582034.240252) can0 16E#354497037A675E58
(1494582034.241347) can0 3C9#19F6F50D90726E
(1494582034.242472) can0 5BA#03A5B70667548F58
(1494582034.243559) can0 31B#47AB36
(1494582034.244466) can0 1FD#0000000000000000
(1494582034.244583) can0 11A#C86EAB
(1494582034.245742) can0 0F7#CF39A470CFA73C2B
(1494582034.246863) can0 037#DB2B1D03602E350A
(1494582034.247958) can0 7DE#A5031763
(1494582034.249096) can0 093#C7A81E205C348F11
(1494582034.250208) can0 412#EC
(1494582034.251209) can0 309#333EC14524D64B5D
(1494582034.252329) can0 772#FF6E96728D100362
(1494582034.253457) can0 7FD#D6A36E33F4E883
(1494582034.254605) can0 026#C490C0055E
(1494582034.255585) can0 6D4#BEEE6775B2AE6400
(1494582034.256846) can0 5E3#FFEF2448
(1494582034.257957) can0 23F#D38AE408511E67
(1494582034.259092) can0 7A8#1D089966B1EACF48
(1494582034.260113) can0 5AF#
(1494582034.261250) can0 7CB#AE6D2511
(1494582034.262354) can0 59B#BDA8B067C2
(1494582034.263599) can0 72A#20
(1494582034.264586) can0 620#B18C606003040971
(1494582034.265730) can0 742#
(1494582034.266960) can0 577#D27FB2411F4D2127
(1494582034.267955) can0 70C#D037F16FBB94BC08
(1494582034.269097) can0 640#DCF1DE370BFE
(1494582034.270222) can0 07A#D3BD24381636B368
(1494582034.271331) can0 110#
(1494582034.272458) can0 011#393E3B5631969503
(1494582034.273457) can0 6D6#349A9E74195EAC2D
(1494582034.274585) can0 79A#9ABFF775125DEA6F
(1494582034.275873) can0 1FA#31AA0B1706F1641D
(1494582034.277002) can0 75C#C185
(1494582034.277959) can0 2A8#A793935F2203C94B
(1494582034.277961) can0 1BFC38B1#0000000000000000
(1494582034.278223) can0 1BFC38BB#FFFFFFFFFFFFFFFF
(1494582034.278709) can0 1BFC38BA#0000000700000014
(1494582034.279087) can0 729#38397C3439489D34
(1494582034.279089) can0 1BFC38B9#000096408008FC68
(1494582034.279336) can0 1BFC38B8#0000000800000000
(1494582034.279960) can0 1BFC38B7#800164842502022C
(1494582034.280224) can0 00B#
(1494582034.280226) can0 1BFC38B6#0000000D0600AA99
(1494582034.280459) can0 1BFC38B5#0502FF0001020000
(1494582034.280962) can0 1BFC38B4#FF00000000000000
(1494582034.281181) can0 708#4EEE6948DF2DB105
(1494582034.281183) can0 1BFC38B3#800164840600AA99
(1494582034.281451) can0 1BFC38B2#8001648483830075
(1494582034.282324) can0 196#F88B5D
(1494582034.283452) can0 531#4356
(1494582034.284483) can0 2FF#3248AA05
(1494582034.285478) can0 6C7#04011501640000
(1494582034.285605) can0 276#F8E790
(1494582034.285854) can0 30B#0F00010000000098
(1494582034.286099) can0 5F2#0000
(1494582034.286703) can0 591#
(1494582034.287951) can0 51B#F3646E6526856A24
(1494582034.288951) can0 68A#43DD3E6992E56D
(1494582034.290065) can0 413#7113
(1494582034.291229) can0 415#DB9EEB5F46D1B608
(1494582034.292353) can0 2FC#7128FC70FB75D153
(1494582034.293483) can0 592#57C8C6
(1494582034.294489) can0 697#
(1494582034.295586) can0 3F0#E3A00F5D0BF9584C
(1494582034.296703) can0 6E2#317EC3706C3D
(1494582034.297950) can0 33D#FE227A7A51
(1494582034.298949) can0 707#
(1494582034.300068) can0 5D9#624C1303D5C0
(1494582034.301199) can0 0F4#D136B9
(1494582034.302325) can0 577#8F0E8D210E24280D
(1494582034.303450) can0 778#36A8663968DB53
(1494582034.304442) can0 1FD#0000000000000000
(1494582034.304570) can0 11F#73D4AC6B01480840
(1494582034.305574) can0 6F0#6D85142A2D
(1494582034.306689) can0 61A#7E69E90F21D51D42
(1494582034.307825) can0 6DC#3D507A3CB5B43D0F
(1494582034.308948) can0 24F#8B75255C43A3333E
(1494582034.310106) can0 172#CAD98236E9F6521E
(1494582034.311228) can0 384#F71A7B2BFD5A3672
(1494582034.312231) can0 410#65368A113085F369
(1494582034.313353) can0 447#31CDFB29375B4C54
(1494582034.314481) can0 57E#65BD0900980B1A10
(1494582034.315604) can0 30B#B9E037
(1494582034.316728) can0 55D#9C8E043DAC9F
(1494582034.317857) can0 595#F042AD5507DFDC
(1494582034.318981) can0 083#F1D52F20085C6748
(1494582034.320113) can0 513#05B79D3A2491EC48
(1494582034.321251) can0 416#5416E0325EC0E42B
(1494582034.322361) can0 043#951B3100C1
(1494582034.323385) can0 624#596120332F318B29
(1494582034.324489) can0 7DE#160B
(1494582034.325627) can0 308#E7DCC6
(1494582034.326721) can0 5DA#A51F27645E4E89
(1494582034.327981) can0 491#66AAF00BA541
(1494582034.328972) can0 67E#C9D2D003959A8E00
(1494582034.330085) can0 6D5#F35A732C1947155C
(1494582034.331238) can0 4A2#DA9C1B7FC7027944
(1494582034.332377) can0 783#F633046E
(1494582034.333501) can0 046#9C8C5A1A4FB39E4B
(1494582034.334588) can0 0C0#ECF3E8
(1494582034.334732) can0 30B#0F00010000000098
(1494582034.335750) can0 15B#F8
(1494582034.336702) can0 127#91071E6BA6EF6866
(1494582034.337961) can0 0C9#3B8AF7669F1FEC2F
(1494582034.338975) can0 377#B866010C1A902C39
(1494582034.340099) can0 3B6#E192
(1494582034.341252) can0 1C6#9AFAFB290D42ED
(1494582034.342377) can0 5E4#5CF58B40A4DE
(1494582034.343488) can0 0BA#3F55DA11157A0D2D
(1494582034.344627) can0 4DA#0140475D0106EC
(1494582034.345587) can0 196#A7F554
(1494582034.346728) can0 1ED#FE79
(1494582034.347832) can0 510#7F752016C7C0
(1494582034.348959) can0 449#
(1494582034.350084) can0 737#1C28BF491CD56F30
(1494582034.351192) can0 5D1#C0B31C3B8BDE7F66
(1494582034.352363) can0 6C1#A0588D139B034579
(1494582034.353386) can0 337#9C09
(1494582034.354461) can0 035#2C072F2D
(1494582034.355586) can0 726#87E7814D37E48969
(1494582034.356711) can0 1E1#FEA450212A46
(1494582034.357835) can0 566#3A2C30269E34D876
(1494582034.358961) can0 799#BA0948276B65
(1494582034.359991) can0 1CF#F6433F0E9078FA72
(1494582034.361257) can0 67A#2B7C3F6CB1E9E3
(1494582034.362348) can0 539#7E96A4356E15DB
(1494582034.363352) can0 50B#9017693C3204C97B
(1494582034.364377) can0 1FD#0000000000000000
(1494582034.364584) can0 6D5#69E85265B780424A
(1494582034.365722) can0 41E#E1C6A01B85C1F5
(1494582034.366705) can0 665#23F6CD5BFF156161
(1494582034.367957) can0 772#6A7B200941B9FA2B
(1494582034.368953) can0 557#
(1494582034.370097) can0 3F7#826DBA6D3091CD4B
(1494582034.371221) can0 3C3#
(1494582034.372347) can0 1AB#01BD640D80C08F16
(1494582034.373472) can0 547#3741D26065198A4B
(1494582034.374457) can0 2D1#EADA7F3036D10446
(1494582034.375615) can0 334#35E76527A6420470
(1494582034.376851) can0 0EA#E7FBFE1B428EDE74
(1494582034.377994) can0 200#1312B509F77D1201
(1494582034.378988) can0 3B4#280FE04C780F
(1494582034.380085) can0 396#47C8695F4125
(1494582034.381349) can0 3F5#C2E590373C319716
(1494582034.382330) can0 2B2#A24A2162835DE158
(1494582034.383477) can0 712#B92EE61E472A1A53
(1494582034.384464) can0 30B#0F00010000000098
(1494582034.384575) can0 69A#ED6C1E4384C7522E
(1494582034.385740) can0 08E#C65531238E
(1494582034.386877) can0 68D#8618CB3F42723A60
(1494582034.388002) can0 770#BA81082E066B243F
(1494582034.389098) can0 574#48
(1494582034.390211) can0 749#A6826540FBF9C659
(1494582034.391348) can0 503#7E57A83216CCEF44
(1494582034.392363) can0 2D5#5DF609186FE916
(1494582034.393458) can0 426#F3B06902B514AD0E
(1494582034.394582) can0 41F#43AF654DAD625754
(1494582034.395706) can0 694#EFD491340456D776
(1494582034.396850) can0 777#0AC1FB35ECCC0F0B
(1494582034.397954) can0 0AA#561E
(1494582034.398962) can0 75C#EE6914446064F15D
(1494582034.400083) can0 645#7630E1221A61F24C
(1494582034.401382) can0 7A3#894A09
(1494582034.402490) can0 21D#7FF8D26E3D565950
(1494582034.403487) can0 236#EAB8
(1494582034.404631) can0 78C#CEC66612035F4563
(1494582034.405752) can0 482#EF2B556E2C85E92B
(1494582034.406860) can0 12B#1FF5361688
(1494582034.407990) can0 342#E8044D6A87594130
(1494582034.409130) can0 079#A1BA337D1C685319
(1494582034.410056) can0 431#E64B79794EE62C5E
(1494582034.411386) can0 0A6#8B3C862EDD
(1494582034.412473) can0 428#A7734D26B4
(1494582034.413618) can0 34E#B7BA3351D067
(1494582034.414754) can0 24F#FCEC3F147A9B9A
(1494582034.415877) can0 0EC#023CF66B2E1C337B
(1494582034.416990) can0 128#B575742BA161CA55
(1494582034.417960) can0 648#BEC91D6F79D2
(1494582034.419136) can0 580#C8B8B709
(1494582034.420213) can0 20A#043953
